 (000.000000)  can0  421   [2]  00 00 ::
GretaData(
    TelekBattery: 0 %,
    RxShifting: 0
)
 (000.070972)  can0  421   [2]  00 00 ::
GretaData(
    TelekBattery: 0 %,
    RxShifting: 0
)
 (000.141926)  can0  421   [2]  00 00 ::
GretaData(
    TelekBattery: 0 %,
    RxShifting: 0
)
 (000.212892)  can0  421   [2]  00 00 ::
GretaData(
    TelekBattery: 0 %,
    RxShifting: 0
)
 (000.251802)  can0  422   [1]  00 ::
GbData(
    GbGear: 0
)
 (000.283859)  can0  421   [2]  00 00 ::
GretaData(
    TelekBattery: 0 %,
    RxShifting: 0
)
 (000.354827)  can0  421   [2]  00 00 ::
GretaData(
    TelekBattery: 0 %,
    RxShifting: 0
)
 (000.425790)  can0  421   [2]  00 00 ::
GretaData(
    TelekBattery: 0 %,
    RxShifting: 0
)
 (000.496749)  can0  421   [2]  00 00 ::
GretaData(
    TelekBattery: 0 %,
    RxShifting: 0
)
 (000.567709)  can0  421   [2]  00 00 ::
GretaData(
    TelekBattery: 0 %,
    RxShifting: 0
)
 (000.638677)  can0  421   [2]  00 00 ::
GretaData(
    TelekBattery: 0 %,
    RxShifting: 0
)
 (000.709643)  can0  421   [2]  00 00 ::
GretaData(
    TelekBattery: 0 %,
    RxShifting: 0
)
 (000.780622)  can0  421   [2]  00 00 ::
GretaData(
    TelekBattery: 0 %,
    RxShifting: 0
)
 (000.851594)  can0  421   [2]  00 00 ::
GretaData(
    TelekBattery: 0 %,
    RxShifting: 0
)
 (000.922559)  can0  421   [2]  00 00 ::
GretaData(
    TelekBattery: 0 %,
    RxShifting: 0
)
 (000.993535)  can0  421   [2]  00 00 ::
GretaData(
    TelekBattery: 0 %,
    RxShifting: 0
)
 (001.064511)  can0  421   [2]  00 00 ::
GretaData(
    TelekBattery: 0 %,
    RxShifting: 0
)
 (001.135476)  can0  421   [2]  00 00 ::
GretaData(
    TelekBattery: 0 %,
    RxShifting: 0
)
 (001.206443)  can0  421   [2]  00 00 ::
GretaData(
    TelekBattery: 0 %,
    RxShifting: 0
)
 (001.251825)  can0  422   [1]  00 ::
GbData(
    GbGear: 0
)
 (001.277437)  can0  421   [2]  00 00 ::
GretaData(
    TelekBattery: 0 %,
    RxShifting: 0
)
 (001.348410)  can0  421   [2]  00 00 ::
GretaData(
    TelekBattery: 0 %,
    RxShifting: 0
)
 (001.419383)  can0  421   [2]  00 00 ::
GretaData(
    TelekBattery: 0 %,
    RxShifting: 0
)
 (001.490359)  can0  421   [2]  00 00 ::
GretaData(
    TelekBattery: 0 %,
    RxShifting: 0
)
 (001.561331)  can0  421   [2]  00 00 ::
GretaData(
    TelekBattery: 0 %,
    RxShifting: 0
)
 (001.632316)  can0  421   [2]  00 00 ::
GretaData(
    TelekBattery: 0 %,
    RxShifting: 0
)
 (001.703273)  can0  421   [2]  00 00 ::
GretaData(
    TelekBattery: 0 %,
    RxShifting: 0
)
 (001.774242)  can0  421   [2]  00 00 ::
GretaData(
    TelekBattery: 0 %,
    RxShifting: 0
)
 (001.845208)  can0  421   [2]  00 00 ::
GretaData(
    TelekBattery: 0 %,
    RxShifting: 0
)
 (001.916186)  can0  421   [2]  00 00 ::
GretaData(
    TelekBattery: 0 %,
    RxShifting: 0
)
 (001.986881)  can0  421   [2]  00 02 ::
GretaData(
    TelekBattery: 0 %,
    RxShifting: 2
)
 (002.057851)  can0  421   [2]  00 02 ::
GretaData(
    TelekBattery: 0 %,
    RxShifting: 2
)
 (002.128811)  can0  421   [2]  00 02 ::
GretaData(
    TelekBattery: 0 %,
    RxShifting: 2
)
 (002.199783)  can0  421   [2]  00 02 ::
GretaData(
    TelekBattery: 0 %,
    RxShifting: 2
)
 (002.251833)  can0  422   [1]  00 ::
GbData(
    GbGear: 0
)
 (002.270739)  can0  421   [2]  00 02 ::
GretaData(
    TelekBattery: 0 %,
    RxShifting: 2
)
 (002.341710)  can0  421   [2]  00 02 ::
GretaData(
    TelekBattery: 0 %,
    RxShifting: 2
)
 (002.412686)  can0  421   [2]  00 02 ::
GretaData(
    TelekBattery: 0 %,
    RxShifting: 2
)
 (002.483656)  can0  421   [2]  00 02 ::
GretaData(
    TelekBattery: 0 %,
    RxShifting: 2
)
 (002.554619)  can0  421   [2]  00 02 ::
GretaData(
    TelekBattery: 0 %,
    RxShifting: 2
)
 (002.625596)  can0  421   [2]  00 02 ::
GretaData(
    TelekBattery: 0 %,
    RxShifting: 2
)
 (002.696572)  can0  421   [2]  00 02 ::
GretaData(
    TelekBattery: 0 %,
    RxShifting: 2
)
 (002.767540)  can0  421   [2]  00 02 ::
GretaData(
    TelekBattery: 0 %,
    RxShifting: 2
)
 (002.838507)  can0  421   [2]  00 02 ::
GretaData(
    TelekBattery: 0 %,
    RxShifting: 2
)
 (002.909581)  can0  421   [2]  00 02 ::
GretaData(
    TelekBattery: 0 %,
    RxShifting: 2
)
 (002.980494)  can0  421   [2]  00 02 ::
GretaData(
    TelekBattery: 0 %,
    RxShifting: 2
)
 (003.051405)  can0  421   [2]  00 02 ::
GretaData(
    TelekBattery: 0 %,
    RxShifting: 2
)
 (003.122642)  can0  421   [2]  00 00 ::
GretaData(
    TelekBattery: 0 %,
    RxShifting: 0
)
 (003.193612)  can0  421   [2]  00 00 ::
GretaData(
    TelekBattery: 0 %,
    RxShifting: 0
)
 (003.251849)  can0  422   [1]  00 ::
GbData(
    GbGear: 0
)
 (003.264568)  can0  421   [2]  00 00 ::
GretaData(
    TelekBattery: 0 %,
    RxShifting: 0
)
 (003.335540)  can0  421   [2]  00 00 ::
GretaData(
    TelekBattery: 0 %,
    RxShifting: 0
)
 (003.406501)  can0  421   [2]  00 00 ::
GretaData(
    TelekBattery: 0 %,
    RxShifting: 0
)
 (003.477459)  can0  421   [2]  00 00 ::
GretaData(
    TelekBattery: 0 %,
    RxShifting: 0
)
 (003.548468)  can0  421   [2]  00 00 ::
GretaData(
    TelekBattery: 0 %,
    RxShifting: 0
)
 (003.619149)  can0  421   [2]  00 01 ::
GretaData(
    TelekBattery: 0 %,
    RxShifting: 1
)
 (003.690113)  can0  421   [2]  00 01 ::
GretaData(
    TelekBattery: 0 %,
    RxShifting: 1
)
 (003.761105)  can0  421   [2]  00 01 ::
GretaData(
    TelekBattery: 0 %,
    RxShifting: 1
)
 (003.832047)  can0  421   [2]  00 01 ::
GretaData(
    TelekBattery: 0 %,
    RxShifting: 1
)
 (003.903039)  can0  421   [2]  00 01 ::
GretaData(
    TelekBattery: 0 %,
    RxShifting: 1
)
 (003.974000)  can0  421   [2]  00 01 ::
GretaData(
    TelekBattery: 0 %,
    RxShifting: 1
)
 (004.044957)  can0  421   [2]  00 01 ::
GretaData(
    TelekBattery: 0 %,
    RxShifting: 1
)
 (004.115910)  can0  421   [2]  00 01 ::
GretaData(
    TelekBattery: 0 %,
    RxShifting: 1
)
 (004.186865)  can0  421   [2]  00 01 ::
GretaData(
    TelekBattery: 0 %,
    RxShifting: 1
)
 (004.251872)  can0  422   [1]  00 ::
GbData(
    GbGear: 0
)
 (004.257813)  can0  421   [2]  00 01 ::
GretaData(
    TelekBattery: 0 %,
    RxShifting: 1
)
 (004.328793)  can0  421   [2]  00 01 ::
GretaData(
    TelekBattery: 0 %,
    RxShifting: 1
)
 (004.399759)  can0  421   [2]  00 01 ::
GretaData(
    TelekBattery: 0 %,
    RxShifting: 1
)
 (004.470716)  can0  421   [2]  00 01 ::
GretaData(
    TelekBattery: 0 %,
    RxShifting: 1
)
 (004.541690)  can0  421   [2]  00 01 ::
GretaData(
    TelekBattery: 0 %,
    RxShifting: 1
)
 (004.612644)  can0  421   [2]  00 01 ::
GretaData(
    TelekBattery: 0 %,
    RxShifting: 1
)
 (004.683593)  can0  421   [2]  00 01 ::
GretaData(
    TelekBattery: 0 %,
    RxShifting: 1
)
 (004.754517)  can0  421   [2]  00 01 ::
GretaData(
    TelekBattery: 0 %,
    RxShifting: 1
)
 (004.825737)  can0  421   [2]  00 00 ::
GretaData(
    TelekBattery: 0 %,
    RxShifting: 0
)
 (004.896702)  can0  421   [2]  00 00 ::
GretaData(
    TelekBattery: 0 %,
    RxShifting: 0
)
 (004.967654)  can0  421   [2]  00 00 ::
GretaData(
    TelekBattery: 0 %,
    RxShifting: 0
)
 (005.038643)  can0  421   [2]  00 00 ::
GretaData(
    TelekBattery: 0 %,
    RxShifting: 0
)
 (005.109650)  can0  421   [2]  00 00 ::
GretaData(
    TelekBattery: 0 %,
    RxShifting: 0
)
 (005.180594)  can0  421   [2]  00 00 ::
GretaData(
    TelekBattery: 0 %,
    RxShifting: 0
)
 (005.251580)  can0  421   [2]  00 00 ::
GretaData(
    TelekBattery: 0 %,
    RxShifting: 0
)
 (005.251838)  can0  422   [1]  00 ::
GbData(
    GbGear: 0
)
 (005.322544)  can0  421   [2]  00 00 ::
GretaData(
    TelekBattery: 0 %,
    RxShifting: 0
)
 (005.393521)  can0  421   [2]  00 00 ::
GretaData(
    TelekBattery: 0 %,
    RxShifting: 0
)
 (005.464486)  can0  421   [2]  00 00 ::
GretaData(
    TelekBattery: 0 %,
    RxShifting: 0
)
 (005.535452)  can0  421   [2]  00 00 ::
GretaData(
    TelekBattery: 0 %,
    RxShifting: 0
)
 (005.606401)  can0  421   [2]  00 00 ::
GretaData(
    TelekBattery: 0 %,
    RxShifting: 0
)
 (005.677376)  can0  421   [2]  00 00 ::
GretaData(
    TelekBattery: 0 %,
    RxShifting: 0
)
 (005.748329)  can0  421   [2]  00 00 ::
GretaData(
    TelekBattery: 0 %,
    RxShifting: 0
)
 (005.819307)  can0  421   [2]  00 00 ::
GretaData(
    TelekBattery: 0 %,
    RxShifting: 0
)
 (005.890282)  can0  421   [2]  00 00 ::
GretaData(
    TelekBattery: 0 %,
    RxShifting: 0
)
 (005.961241)  can0  421   [2]  00 00 ::
GretaData(
    TelekBattery: 0 %,
    RxShifting: 0
)
 (006.032215)  can0  421   [2]  00 00 ::
GretaData(
    TelekBattery: 0 %,
    RxShifting: 0
)
 (006.103176)  can0  421   [2]  00 00 ::
GretaData(
    TelekBattery: 0 %,
    RxShifting: 0
)
 (006.174139)  can0  421   [2]  00 00 ::
GretaData(
    TelekBattery: 0 %,
    RxShifting: 0
)
 (006.245071)  can0  421   [2]  00 00 ::
GretaData(
    TelekBattery: 0 %,
    RxShifting: 0
)
 (006.251877)  can0  422   [1]  00 ::
GbData(
    GbGear: 0
)
 (006.316032)  can0  421   [2]  00 00 ::
GretaData(
    TelekBattery: 0 %,
    RxShifting: 0
)
 (006.386994)  can0  421   [2]  00 00 ::
GretaData(
    TelekBattery: 0 %,
    RxShifting: 0
)
 (006.457952)  can0  421   [2]  00 00 ::
GretaData(
    TelekBattery: 0 %,
    RxShifting: 0
)
 (006.528947)  can0  421   [2]  00 00 ::
GretaData(
    TelekBattery: 0 %,
    RxShifting: 0
)
 (006.599936)  can0  421   [2]  00 00 ::
GretaData(
    TelekBattery: 0 %,
    RxShifting: 0
)
 (006.670884)  can0  421   [2]  00 00 ::
GretaData(
    TelekBattery: 0 %,
    RxShifting: 0
)
 (006.741878)  can0  421   [2]  00 00 ::
GretaData(
    TelekBattery: 0 %,
    RxShifting: 0
)
 (006.812848)  can0  421   [2]  00 00 ::
GretaData(
    TelekBattery: 0 %,
    RxShifting: 0
)
 (006.883818)  can0  421   [2]  00 00 ::
GretaData(
    TelekBattery: 0 %,
    RxShifting: 0
)
 (006.954784)  can0  421   [2]  00 00 ::
GretaData(
    TelekBattery: 0 %,
    RxShifting: 0
)
 (007.025761)  can0  421   [2]  00 00 ::
GretaData(
    TelekBattery: 0 %,
    RxShifting: 0
)
 (007.096715)  can0  421   [2]  00 00 ::
GretaData(
    TelekBattery: 0 %,
    RxShifting: 0
)
 (007.167681)  can0  421   [2]  00 00 ::
GretaData(
    TelekBattery: 0 %,
    RxShifting: 0
)
 (007.238633)  can0  421   [2]  00 00 ::
GretaData(
    TelekBattery: 0 %,
    RxShifting: 0
)
 (007.251932)  can0  422   [1]  00 ::
GbData(
    GbGear: 0
)
 (007.309618)  can0  421   [2]  00 00 ::
GretaData(
    TelekBattery: 0 %,
    RxShifting: 0
)
 (007.380566)  can0  421   [2]  00 00 ::
GretaData(
    TelekBattery: 0 %,
    RxShifting: 0
)
 (007.451520)  can0  421   [2]  00 00 ::
GretaData(
    TelekBattery: 0 %,
    RxShifting: 0
)
 (007.522501)  can0  421   [2]  00 00 ::
GretaData(
    TelekBattery: 0 %,
    RxShifting: 0
)
 (007.593483)  can0  421   [2]  00 00 ::
GretaData(
    TelekBattery: 0 %,
    RxShifting: 0
)
 (007.664432)  can0  421   [2]  00 00 ::
GretaData(
    TelekBattery: 0 %,
    RxShifting: 0
)
 (007.735392)  can0  421   [2]  00 00 ::
GretaData(
    TelekBattery: 0 %,
    RxShifting: 0
)
 (007.806347)  can0  421   [2]  00 00 ::
GretaData(
    TelekBattery: 0 %,
    RxShifting: 0
)
 (007.877298)  can0  421   [2]  00 00 ::
GretaData(
    TelekBattery: 0 %,
    RxShifting: 0
)
 (007.948242)  can0  421   [2]  00 00 ::
GretaData(
    TelekBattery: 0 %,
    RxShifting: 0
)
 (008.019204)  can0  421   [2]  00 00 ::
GretaData(
    TelekBattery: 0 %,
    RxShifting: 0
)
 (008.090194)  can0  421   [2]  00 00 ::
GretaData(
    TelekBattery: 0 %,
    RxShifting: 0
)
 (008.161165)  can0  421   [2]  00 00 ::
GretaData(
    TelekBattery: 0 %,
    RxShifting: 0
)
 (008.232118)  can0  421   [2]  00 00 ::
GretaData(
    TelekBattery: 0 %,
    RxShifting: 0
)
 (008.251946)  can0  422   [1]  00 ::
GbData(
    GbGear: 0
)
 (008.303069)  can0  421   [2]  00 00 ::
GretaData(
    TelekBattery: 0 %,
    RxShifting: 0
)
 (008.374094)  can0  421   [2]  00 00 ::
GretaData(
    TelekBattery: 0 %,
    RxShifting: 0
)
 (008.444995)  can0  421   [2]  00 00 ::
GretaData(
    TelekBattery: 0 %,
    RxShifting: 0
)
 (008.515958)  can0  421   [2]  00 00 ::
GretaData(
    TelekBattery: 0 %,
    RxShifting: 0
)
 (008.586912)  can0  421   [2]  00 00 ::
GretaData(
    TelekBattery: 0 %,
    RxShifting: 0
)
 (008.657876)  can0  421   [2]  00 00 ::
GretaData(
    TelekBattery: 0 %,
    RxShifting: 0
)
 (008.728844)  can0  421   [2]  00 00 ::
GretaData(
    TelekBattery: 0 %,
    RxShifting: 0
)
 (008.799811)  can0  421   [2]  00 00 ::
GretaData(
    TelekBattery: 0 %,
    RxShifting: 0
)
 (008.870767)  can0  421   [2]  00 00 ::
GretaData(
    TelekBattery: 0 %,
    RxShifting: 0
)
 (008.941721)  can0  421   [2]  00 00 ::
GretaData(
    TelekBattery: 0 %,
    RxShifting: 0
)
 (009.012690)  can0  421   [2]  00 00 ::
GretaData(
    TelekBattery: 0 %,
    RxShifting: 0
)
 (009.083651)  can0  421   [2]  00 00 ::
GretaData(
    TelekBattery: 0 %,
    RxShifting: 0
)
 (009.154606)  can0  421   [2]  00 00 ::
GretaData(
    TelekBattery: 0 %,
    RxShifting: 0
)
 (009.225548)  can0  421   [2]  00 00 ::
GretaData(
    TelekBattery: 0 %,
    RxShifting: 0
)
 (009.251917)  can0  422   [1]  00 ::
GbData(
    GbGear: 0
)
 (009.296506)  can0  421   [2]  00 00 ::
GretaData(
    TelekBattery: 0 %,
    RxShifting: 0
)
 (009.367463)  can0  421   [2]  00 00 ::
GretaData(
    TelekBattery: 0 %,
    RxShifting: 0
)
 (009.438422)  can0  421   [2]  00 00 ::
GretaData(
    TelekBattery: 0 %,
    RxShifting: 0
)
 (009.509372)  can0  421   [2]  00 00 ::
GretaData(
    TelekBattery: 0 %,
    RxShifting: 0
)
 (009.580369)  can0  421   [2]  00 00 ::
GretaData(
    TelekBattery: 0 %,
    RxShifting: 0
)
 (009.651302)  can0  421   [2]  00 00 ::
GretaData(
    TelekBattery: 0 %,
    RxShifting: 0
)
 (009.722243)  can0  421   [2]  00 00 ::
GretaData(
    TelekBattery: 0 %,
    RxShifting: 0
)
 (009.793223)  can0  421   [2]  00 00 ::
GretaData(
    TelekBattery: 0 %,
    RxShifting: 0
)
 (009.864172)  can0  421   [2]  00 00 ::
GretaData(
    TelekBattery: 0 %,
    RxShifting: 0
)
 (009.935117)  can0  421   [2]  00 00 ::
GretaData(
    TelekBattery: 0 %,
    RxShifting: 0
)
 (010.006083)  can0  421   [2]  00 00 ::
GretaData(
    TelekBattery: 0 %,
    RxShifting: 0
)
 (010.077018)  can0  421   [2]  00 00 ::
GretaData(
    TelekBattery: 0 %,
    RxShifting: 0
)
 (010.147943)  can0  421   [2]  00 00 ::
GretaData(
    TelekBattery: 0 %,
    RxShifting: 0
)
 (010.218889)  can0  421   [2]  00 00 ::
GretaData(
    TelekBattery: 0 %,
    RxShifting: 0
)
 (010.251954)  can0  422   [1]  00 ::
GbData(
    GbGear: 0
)
 (010.289842)  can0  421   [2]  00 00 ::
GretaData(
    TelekBattery: 0 %,
    RxShifting: 0
)
 (010.360801)  can0  421   [2]  00 00 ::
GretaData(
    TelekBattery: 0 %,
    RxShifting: 0
)
 (010.431742)  can0  421   [2]  00 00 ::
GretaData(
    TelekBattery: 0 %,
    RxShifting: 0
)
 (010.502690)  can0  421   [2]  00 00 ::
GretaData(
    TelekBattery: 0 %,
    RxShifting: 0
)
 (010.573636)  can0  421   [2]  00 00 ::
GretaData(
    TelekBattery: 0 %,
    RxShifting: 0
)
 (010.644614)  can0  421   [2]  00 00 ::
GretaData(
    TelekBattery: 0 %,
    RxShifting: 0
)
 (010.715572)  can0  421   [2]  00 00 ::
GretaData(
    TelekBattery: 0 %,
    RxShifting: 0
)
 (010.786496)  can0  421   [2]  00 00 ::
GretaData(
    TelekBattery: 0 %,
    RxShifting: 0
)
 (010.857445)  can0  421   [2]  00 00 ::
GretaData(
    TelekBattery: 0 %,
    RxShifting: 0
)
 (010.928399)  can0  421   [2]  00 00 ::
GretaData(
    TelekBattery: 0 %,
    RxShifting: 0
)
 (010.999360)  can0  421   [2]  00 00 ::
GretaData(
    TelekBattery: 0 %,
    RxShifting: 0
)
 (011.070377)  can0  421   [2]  00 00 ::
GretaData(
    TelekBattery: 0 %,
    RxShifting: 0
)
 (011.141342)  can0  421   [2]  00 00 ::
GretaData(
    TelekBattery: 0 %,
    RxShifting: 0
)
 (011.212301)  can0  421   [2]  00 00 ::
GretaData(
    TelekBattery: 0 %,
    RxShifting: 0
)
 (011.251985)  can0  422   [1]  00 ::
GbData(
    GbGear: 0
)
 (011.283258)  can0  421   [2]  00 00 ::
GretaData(
    TelekBattery: 0 %,
    RxShifting: 0
)
 (011.354203)  can0  421   [2]  00 00 ::
GretaData(
    TelekBattery: 0 %,
    RxShifting: 0
)
 (011.425161)  can0  421   [2]  00 00 ::
GretaData(
    TelekBattery: 0 %,
    RxShifting: 0
)
 (011.496112)  can0  421   [2]  00 00 ::
GretaData(
    TelekBattery: 0 %,
    RxShifting: 0
)
 (011.567040)  can0  421   [2]  00 00 ::
GretaData(
    TelekBattery: 0 %,
    RxShifting: 0
)
 (011.637981)  can0  421   [2]  00 00 ::
GretaData(
    TelekBattery: 0 %,
    RxShifting: 0
)
 (011.708907)  can0  421   [2]  00 00 ::
GretaData(
    TelekBattery: 0 %,
    RxShifting: 0
)
 (011.779854)  can0  421   [2]  00 00 ::
GretaData(
    TelekBattery: 0 %,
    RxShifting: 0
)
 (011.850785)  can0  421   [2]  00 00 ::
GretaData(
    TelekBattery: 0 %,
    RxShifting: 0
)
 (011.921736)  can0  421   [2]  00 00 ::
GretaData(
    TelekBattery: 0 %,
    RxShifting: 0
)
 (011.992666)  can0  421   [2]  00 00 ::
GretaData(
    TelekBattery: 0 %,
    RxShifting: 0
)
 (012.063625)  can0  421   [2]  00 00 ::
GretaData(
    TelekBattery: 0 %,
    RxShifting: 0
)
 (012.134563)  can0  421   [2]  00 00 ::
GretaData(
    TelekBattery: 0 %,
    RxShifting: 0
)
 (012.205508)  can0  421   [2]  00 00 ::
GretaData(
    TelekBattery: 0 %,
    RxShifting: 0
)
 (012.251978)  can0  422   [1]  00 ::
GbData(
    GbGear: 0
)
 (012.276388)  can0  421   [2]  00 00 ::
GretaData(
    TelekBattery: 0 %,
    RxShifting: 0
)
 (012.347351)  can0  421   [2]  00 00 ::
GretaData(
    TelekBattery: 0 %,
    RxShifting: 0
)
 (012.418288)  can0  421   [2]  00 00 ::
GretaData(
    TelekBattery: 0 %,
    RxShifting: 0
)
 (012.489225)  can0  421   [2]  00 00 ::
GretaData(
    TelekBattery: 0 %,
    RxShifting: 0
)
 (012.560228)  can0  421   [2]  00 00 ::
GretaData(
    TelekBattery: 0 %,
    RxShifting: 0
)
 (012.631169)  can0  421   [2]  00 00 ::
GretaData(
    TelekBattery: 0 %,
    RxShifting: 0
)
 (012.702159)  can0  421   [2]  00 00 ::
GretaData(
    TelekBattery: 0 %,
    RxShifting: 0
)
 (012.773073)  can0  421   [2]  00 00 ::
GretaData(
    TelekBattery: 0 %,
    RxShifting: 0
)
 (012.844009)  can0  421   [2]  00 00 ::
GretaData(
    TelekBattery: 0 %,
    RxShifting: 0
)
 (012.914959)  can0  421   [2]  00 00 ::
GretaData(
    TelekBattery: 0 %,
    RxShifting: 0
)
 (012.985931)  can0  421   [2]  00 00 ::
GretaData(
    TelekBattery: 0 %,
    RxShifting: 0
)
 (013.056846)  can0  421   [2]  00 00 ::
GretaData(
    TelekBattery: 0 %,
    RxShifting: 0
)
 (013.127772)  can0  421   [2]  00 00 ::
GretaData(
    TelekBattery: 0 %,
    RxShifting: 0
)
 (013.198707)  can0  421   [2]  00 00 ::
GretaData(
    TelekBattery: 0 %,
    RxShifting: 0
)
 (013.252014)  can0  422   [1]  00 ::
GbData(
    GbGear: 0
)
 (013.269377)  can0  421   [2]  00 02 ::
GretaData(
    TelekBattery: 0 %,
    RxShifting: 2
)
 (013.340330)  can0  421   [2]  00 02 ::
GretaData(
    TelekBattery: 0 %,
    RxShifting: 2
)
 (013.411275)  can0  421   [2]  00 02 ::
GretaData(
    TelekBattery: 0 %,
    RxShifting: 2
)
 (013.482211)  can0  421   [2]  00 02 ::
GretaData(
    TelekBattery: 0 %,
    RxShifting: 2
)
 (013.553150)  can0  421   [2]  00 02 ::
GretaData(
    TelekBattery: 0 %,
    RxShifting: 2
)
 (013.624125)  can0  421   [2]  00 02 ::
GretaData(
    TelekBattery: 0 %,
    RxShifting: 2
)
 (013.695074)  can0  421   [2]  00 02 ::
GretaData(
    TelekBattery: 0 %,
    RxShifting: 2
)
 (013.765988)  can0  421   [2]  00 02 ::
GretaData(
    TelekBattery: 0 %,
    RxShifting: 2
)
 (013.836929)  can0  421   [2]  00 02 ::
GretaData(
    TelekBattery: 0 %,
    RxShifting: 2
)
 (013.907861)  can0  421   [2]  00 02 ::
GretaData(
    TelekBattery: 0 %,
    RxShifting: 2
)
 (013.978793)  can0  421   [2]  00 02 ::
GretaData(
    TelekBattery: 0 %,
    RxShifting: 2
)
 (014.049783)  can0  421   [2]  00 02 ::
GretaData(
    TelekBattery: 0 %,
    RxShifting: 2
)
 (014.120984)  can0  421   [2]  00 00 ::
GretaData(
    TelekBattery: 0 %,
    RxShifting: 0
)
 (014.191924)  can0  421   [2]  00 00 ::
GretaData(
    TelekBattery: 0 %,
    RxShifting: 0
)
 (014.252030)  can0  422   [1]  00 ::
GbData(
    GbGear: 0
)
 (014.262837)  can0  421   [2]  00 00 ::
GretaData(
    TelekBattery: 0 %,
    RxShifting: 0
)
 (014.333793)  can0  421   [2]  00 00 ::
GretaData(
    TelekBattery: 0 %,
    RxShifting: 0
)
 (014.404734)  can0  421   [2]  00 00 ::
GretaData(
    TelekBattery: 0 %,
    RxShifting: 0
)
 (014.475676)  can0  421   [2]  00 00 ::
GretaData(
    TelekBattery: 0 %,
    RxShifting: 0
)
 (014.546605)  can0  421   [2]  00 00 ::
GretaData(
    TelekBattery: 0 %,
    RxShifting: 0
)
 (014.617550)  can0  421   [2]  00 00 ::
GretaData(
    TelekBattery: 0 %,
    RxShifting: 0
)
 (014.688484)  can0  421   [2]  00 00 ::
GretaData(
    TelekBattery: 0 %,
    RxShifting: 0
)
 (014.759418)  can0  421   [2]  00 00 ::
GretaData(
    TelekBattery: 0 %,
    RxShifting: 0
)
 (014.830361)  can0  421   [2]  00 00 ::
GretaData(
    TelekBattery: 0 %,
    RxShifting: 0
)
 (014.901319)  can0  421   [2]  00 00 ::
GretaData(
    TelekBattery: 0 %,
    RxShifting: 0
)
 (014.972254)  can0  421   [2]  00 00 ::
GretaData(
    TelekBattery: 0 %,
    RxShifting: 0
)
 (015.043164)  can0  421   [2]  00 00 ::
GretaData(
    TelekBattery: 0 %,
    RxShifting: 0
)
 (015.114135)  can0  421   [2]  00 00 ::
GretaData(
    TelekBattery: 0 %,
    RxShifting: 0
)
 (015.185064)  can0  421   [2]  00 00 ::
GretaData(
    TelekBattery: 0 %,
    RxShifting: 0
)
 (015.252018)  can0  422   [1]  00 ::
GbData(
    GbGear: 0
)
 (015.255949)  can0  421   [2]  00 00 ::
GretaData(
    TelekBattery: 0 %,
    RxShifting: 0
)
 (015.326884)  can0  421   [2]  00 00 ::
GretaData(
    TelekBattery: 0 %,
    RxShifting: 0
)
 (015.397812)  can0  421   [2]  00 00 ::
GretaData(
    TelekBattery: 0 %,
    RxShifting: 0
)
 (015.468751)  can0  421   [2]  00 00 ::
GretaData(
    TelekBattery: 0 %,
    RxShifting: 0
)
 (015.539697)  can0  421   [2]  00 00 ::
GretaData(
    TelekBattery: 0 %,
    RxShifting: 0
)
 (015.610644)  can0  421   [2]  00 00 ::
GretaData(
    TelekBattery: 0 %,
    RxShifting: 0
)
 (015.681556)  can0  421   [2]  00 00 ::
GretaData(
    TelekBattery: 0 %,
    RxShifting: 0
)
 (015.752492)  can0  421   [2]  00 00 ::
GretaData(
    TelekBattery: 0 %,
    RxShifting: 0
)
 (015.823144)  can0  421   [2]  00 02 ::
GretaData(
    TelekBattery: 0 %,
    RxShifting: 2
)
 (015.894134)  can0  421   [2]  00 02 ::
GretaData(
    TelekBattery: 0 %,
    RxShifting: 2
)
 (015.965013)  can0  421   [2]  00 02 ::
GretaData(
    TelekBattery: 0 %,
    RxShifting: 2
)
 (016.035935)  can0  421   [2]  00 02 ::
GretaData(
    TelekBattery: 0 %,
    RxShifting: 2
)
 (016.106861)  can0  421   [2]  00 02 ::
GretaData(
    TelekBattery: 0 %,
    RxShifting: 2
)
 (016.177778)  can0  421   [2]  00 02 ::
GretaData(
    TelekBattery: 0 %,
    RxShifting: 2
)
 (016.248687)  can0  421   [2]  00 02 ::
GretaData(
    TelekBattery: 0 %,
    RxShifting: 2
)
 (016.252031)  can0  422   [1]  00 ::
GbData(
    GbGear: 0
)
 (016.319614)  can0  421   [2]  00 02 ::
GretaData(
    TelekBattery: 0 %,
    RxShifting: 2
)
 (016.390547)  can0  421   [2]  00 02 ::
GretaData(
    TelekBattery: 0 %,
    RxShifting: 2
)
 (016.461479)  can0  421   [2]  00 02 ::
GretaData(
    TelekBattery: 0 %,
    RxShifting: 2
)
 (016.532380)  can0  421   [2]  00 02 ::
GretaData(
    TelekBattery: 0 %,
    RxShifting: 2
)
 (016.603290)  can0  421   [2]  00 02 ::
GretaData(
    TelekBattery: 0 %,
    RxShifting: 2
)
 (016.674227)  can0  421   [2]  00 02 ::
GretaData(
    TelekBattery: 0 %,
    RxShifting: 2
)
 (016.745172)  can0  421   [2]  00 02 ::
GretaData(
    TelekBattery: 0 %,
    RxShifting: 2
)
 (016.816050)  can0  421   [2]  00 02 ::
GretaData(
    TelekBattery: 0 %,
    RxShifting: 2
)
 (016.886962)  can0  421   [2]  00 02 ::
GretaData(
    TelekBattery: 0 %,
    RxShifting: 2
)
 (016.957874)  can0  421   [2]  00 02 ::
GretaData(
    TelekBattery: 0 %,
    RxShifting: 2
)
 (017.028814)  can0  421   [2]  00 02 ::
GretaData(
    TelekBattery: 0 %,
    RxShifting: 2
)
 (017.099722)  can0  421   [2]  00 02 ::
GretaData(
    TelekBattery: 0 %,
    RxShifting: 2
)
 (017.170624)  can0  421   [2]  00 02 ::
GretaData(
    TelekBattery: 0 %,
    RxShifting: 2
)
 (017.241541)  can0  421   [2]  00 02 ::
GretaData(
    TelekBattery: 0 %,
    RxShifting: 2
)
 (017.252014)  can0  422   [1]  00 ::
GbData(
    GbGear: 0
)
 (017.312481)  can0  421   [2]  00 02 ::
GretaData(
    TelekBattery: 0 %,
    RxShifting: 2
)
 (017.383382)  can0  421   [2]  00 02 ::
GretaData(
    TelekBattery: 0 %,
    RxShifting: 2
)
 (017.454301)  can0  421   [2]  00 02 ::
GretaData(
    TelekBattery: 0 %,
    RxShifting: 2
)
 (017.525221)  can0  421   [2]  00 02 ::
GretaData(
    TelekBattery: 0 %,
    RxShifting: 2
)
 (017.596151)  can0  421   [2]  00 02 ::
GretaData(
    TelekBattery: 0 %,
    RxShifting: 2
)
 (017.667058)  can0  421   [2]  00 02 ::
GretaData(
    TelekBattery: 0 %,
    RxShifting: 2
)
 (017.737969)  can0  421   [2]  00 02 ::
GretaData(
    TelekBattery: 0 %,
    RxShifting: 2
)
