 (000.000000)  can0  460   [4]  00 00 43 21
 (000.000244)  can0  462   [4]  00 00 43 21
 (000.000449)  can0  464   [8]  94 62 68 02 0A 12 06 F9
 (000.000977)  can0  468   [2]  C8 00
 (001.005247)  can0  460   [4]  00 00 43 21
 (001.005538)  can0  462   [4]  00 00 43 21
 (001.005763)  can0  464   [8]  94 62 68 02 0A 12 06 F9
 (002.011483)  can0  460   [4]  00 00 43 21
 (002.011693)  can0  462   [4]  12 00 43 21
 (002.011887)  can0  464   [8]  94 62 68 02 0A 12 06 F9
 (002.997577)  can0  460   [4]  00 00 43 21
 (002.997789)  can0  462   [4]  12 00 43 21
 (002.997988)  can0  464   [8]  95 62 68 02 0A 12 06 F9
 (004.003507)  can0  460   [4]  00 00 43 21
 (004.003725)  can0  462   [4]  00 00 43 21
 (004.003916)  can0  464   [8]  95 62 68 02 0A 12 06 F9
 (005.009153)  can0  460   [4]  00 00 43 21
 (005.009360)  can0  462   [4]  00 00 43 21
 (005.009558)  can0  464   [8]  95 62 68 02 0A 12 06 F9
 (006.017515)  can0  460   [4]  00 00 43 21
 (006.017729)  can0  462   [4]  00 00 43 21
 (006.017929)  can0  464   [8]  95 62 68 02 0A 12 06 F9
 (007.007359)  can0  460   [4]  00 00 43 21
 (007.007573)  can0  462   [4]  00 00 43 21
 (007.007764)  can0  464   [8]  95 62 68 02 0A 12 06 F9
 (007.999107)  can0  460   [4]  00 00 43 21
 (007.999338)  can0  462   [4]  00 00 43 21
 (007.999531)  can0  464   [8]  95 62 68 02 0A 12 06 F9
 (009.029208)  can0  460   [4]  22 00 54 21
 (009.029418)  can0  462   [4]  5C 00 54 21
 (009.029607)  can0  464   [8]  FE 61 68 02 0B 12 06 F9
 (010.023558)  can0  460   [4]  10 00 61 21
 (010.023767)  can0  462   [4]  5C 00 61 21
 (010.023956)  can0  464   [8]  81 61 68 02 0B 12 06 F9
 (011.053489)  can0  460   [4]  00 00 62 21
 (011.053715)  can0  462   [4]  5C 00 62 21
 (011.053907)  can0  464   [8]  77 61 68 02 0C 12 06 F9
 (012.049598)  can0  460   [4]  00 00 63 21
 (012.049824)  can0  462   [4]  4A 00 63 21
 (012.050015)  can0  464   [8]  6C 61 68 02 0C 12 06 F9
 (012.979958)  can0  460   [4]  00 00 65 21
 (012.980190)  can0  462   [4]  5C 00 65 21
 (012.980385)  can0  464   [8]  62 61 68 02 0D 12 06 F9
 (013.997436)  can0  460   [4]  00 00 73 21
 (013.997647)  can0  462   [4]  4A 00 73 21
 (013.997838)  can0  464   [8]  E0 60 68 02 0D 12 06 F9
 (015.007605)  can0  460   [4]  00 00 80 21
 (015.007814)  can0  462   [4]  37 00 80 21
 (015.008011)  can0  464   [8]  67 60 68 02 0D 12 06 F9
 (016.003787)  can0  460   [4]  00 00 8B 21
 (016.003999)  can0  462   [4]  12 00 8B 21
 (016.004193)  can0  464   [8]  FD 5F 68 02 0D 12 06 F9
 (017.035646)  can0  460   [4]  00 00 8C 21
 (017.035865)  can0  462   [4]  25 00 8C 21
 (017.036056)  can0  464   [8]  F3 5F 68 02 0D 12 06 F9
 (018.029729)  can0  460   [4]  00 00 97 21
 (018.029936)  can0  462   [4]  12 00 97 21
 (018.030153)  can0  464   [8]  97 5F 68 02 0D 12 06 F9
 (019.063654)  can0  460   [4]  00 00 96 21
 (019.063863)  can0  462   [4]  12 00 96 21
 (019.064062)  can0  464   [8]  97 5F 68 02 0D 12 06 F9
 (020.061834)  can0  460   [4]  00 00 96 21
 (020.062039)  can0  462   [4]  12 00 96 21
 (020.062227)  can0  464   [8]  98 5F 68 02 0E 12 06 F9
 (020.976114)  can0  460   [4]  00 00 A0 21
 (020.976333)  can0  462   [4]  12 00 A0 21
 (020.976523)  can0  464   [8]  3F 5F 68 02 0D 12 06 F9
 (021.995778)  can0  460   [4]  00 00 A9 21
 (021.995992)  can0  462   [4]  12 00 A9 21
 (021.996181)  can0  464   [8]  EE 5E 68 02 0D 12 06 F9
 (023.011784)  can0  460   [4]  00 00 B0 21
 (023.011988)  can0  462   [4]  12 00 B0 21
 (023.012174)  can0  464   [8]  A9 5E 68 02 0D 12 06 F9
 (024.025703)  can0  460   [4]  00 00 B0 21
 (024.025910)  can0  462   [4]  12 00 B0 21
 (024.026099)  can0  464   [8]  A9 5E 68 02 0D 12 06 F9
 (025.039885)  can0  460   [4]  00 00 B0 21
 (025.040091)  can0  462   [4]  12 00 B0 21
 (025.040279)  can0  464   [8]  AA 5E 68 02 0E 12 06 F9
 (026.055723)  can0  460   [4]  00 00 B0 21
 (026.055926)  can0  462   [4]  25 00 B0 21
 (026.056115)  can0  464   [8]  AB 5E 68 02 0E 12 06 F9
 (027.069749)  can0  460   [4]  00 00 B0 21
 (027.069969)  can0  462   [4]  25 00 B0 21
 (027.070157)  can0  464   [8]  AB 5E 68 02 0E 12 06 F9
 (027.982261)  can0  460   [4]  00 00 B0 21
 (027.982512)  can0  464   [8]  AC 5E 68 02 0E 12 06 F9
 (027.983260)  can0  462   [4]  25 00 B0 21
 (027.983471)  can0  468   [2]  8B 00
 (029.001842)  can0  460   [4]  00 00 B0 21
 (029.002047)  can0  462   [4]  37 00 B0 21
 (029.002233)  can0  464   [8]  AD 5E 68 02 0E 12 06 F9
 (030.001764)  can0  460   [4]  0B 00 B0 21
 (030.001975)  can0  462   [4]  12 00 B0 21
 (030.002162)  can0  464   [8]  AE 5E 68 02 0F 12 06 F9
 (030.999860)  can0  460   [4]  00 00 B0 21
 (031.000067)  can0  462   [4]  25 00 B0 21
 (031.000254)  can0  464   [8]  AF 5E 68 02 0F 12 06 F9
 (031.999958)  can0  460   [4]  00 00 B0 21
 (032.000162)  can0  462   [4]  4A 00 B0 21
 (032.000350)  can0  464   [8]  B1 5E 68 02 0F 12 06 F9
 (033.001786)  can0  460   [4]  00 00 AF 21
 (033.001991)  can0  462   [4]  4A 00 AF 21
 (033.002178)  can0  464   [8]  B2 5E 68 02 10 12 06 F9
 (034.003819)  can0  460   [4]  00 00 AF 21
 (034.004033)  can0  462   [4]  03 01 AF 21
 (034.004221)  can0  464   [8]  B6 5E 68 02 11 12 06 F9
 (035.005868)  can0  460   [4]  C8 01 AE 21
 (035.006088)  can0  462   [4]  50 02 AE 21
 (035.006278)  can0  464   [8]  C1 5E 68 02 14 12 06 F9
 (036.001985)  can0  460   [4]  92 03 AC 21
 (036.002188)  can0  462   [4]  0D 04 AC 21
 (036.002374)  can0  464   [8]  D6 5E 68 02 1A 12 06 F9
 (036.998010)  can0  460   [4]  00 00 AA 21
 (036.998216)  can0  462   [4]  53 03 AA 21
 (036.998403)  can0  464   [8]  E6 5E 68 02 1D 12 06 F9
 (037.996108)  can0  460   [4]  00 00 A8 21
 (037.996316)  can0  462   [4]  FA 03 A8 21
 (037.996506)  can0  464   [8]  F9 5E 68 02 1F 12 06 F9
 (038.999851)  can0  460   [4]  54 00 A7 21
 (039.000054)  can0  462   [4]  2E 03 A7 21
 (039.000239)  can0  464   [8]  07 5F 68 02 1F 12 06 F9
 (040.002206)  can0  460   [4]  00 00 A3 21
 (040.002414)  can0  462   [4]  4B 06 A3 21
 (040.002605)  can0  464   [8]  27 5F 68 02 1E 12 06 F9
 (041.003880)  can0  460   [4]  DA 05 9D 21
 (041.004104)  can0  462   [4]  9F 09 9D 21
 (041.004295)  can0  464   [8]  5B 5F 68 02 1A 12 06 F9
 (042.008063)  can0  460   [4]  FF 05 95 21
 (042.008273)  can0  462   [4]  CE 0C 95 21
 (042.008461)  can0  464   [8]  A4 5F 68 02 12 12 06 F9
 (043.010081)  can0  460   [4]  00 00 8B 21
 (043.010292)  can0  462   [4]  59 10 8B 21
 (043.010480)  can0  464   [8]  02 60 68 02 01 12 06 F9
 (044.012084)  can0  460   [4]  00 00 7E 21
 (044.012289)  can0  462   [4]  BF 13 7E 21
 (044.012473)  can0  464   [8]  76 60 68 02 E9 11 06 F9
 (045.014084)  can0  460   [4]  54 06 6E 21
 (045.014289)  can0  462   [4]  A8 17 6E 21
 (045.014475)  can0  464   [8]  01 61 68 02 CA 11 06 F9
 (046.015929)  can0  460   [4]  78 1A 5B 21
 (046.016141)  can0  462   [4]  B5 1B 5B 21
 (046.016327)  can0  464   [8]  A5 61 68 02 A3 11 06 F9
 (047.022109)  can0  460   [4]  34 13 46 21
 (047.022319)  can0  462   [4]  E4 1E 46 21
 (047.022505)  can0  464   [8]  60 62 68 02 77 11 06 F9
 (048.023949)  can0  460   [4]  3D 1C 2F 21
 (048.024167)  can0  462   [4]  37 22 2F 21
 (048.024354)  can0  464   [8]  2F 63 68 02 47 11 06 F9
 (049.026202)  can0  460   [4]  00 00 16 21
 (049.026434)  can0  462   [4]  C0 24 16 21
 (049.026621)  can0  464   [8]  0C 64 68 02 06 11 06 F9
 (050.032314)  can0  460   [4]  00 00 FA 20
 (050.032520)  can0  462   [4]  26 28 FA 20
 (050.032707)  can0  464   [8]  FC 64 68 02 B5 10 06 F9
 (051.037978)  can0  460   [4]  CA 24 DD 20
 (051.038189)  can0  462   [4]  52 2A DD 20
 (051.038378)  can0  464   [8]  FA 65 68 02 4E 10 06 F9
 (052.042082)  can0  460   [4]  00 00 BF 20
 (052.042288)  can0  462   [4]  0B 2B BF 20
 (052.042473)  can0  464   [8]  F9 66 68 02 DB 0F 06 F9
 (053.052365)  can0  460   [4]  00 00 A0 20
 (053.052582)  can0  462   [4]  81 2D A0 20
 (053.052771)  can0  464   [8]  05 68 68 02 5B 0F 06 F9
 (054.056208)  can0  460   [4]  00 00 7F 20
 (054.056424)  can0  462   [4]  E4 2F 7F 20
 (054.056610)  can0  464   [8]  1D 69 68 02 CF 0E 06 F9
 (055.062281)  can0  460   [4]  45 0A 5C 20
 (055.062491)  can0  462   [4]  91 32 5C 20
 (055.062683)  can0  464   [8]  43 6A 68 02 33 0E 06 F9
 (055.970388)  can0  460   [4]  82 34 38 20
 (055.970599)  can0  462   [4]  3E 35 38 20
 (055.970787)  can0  464   [8]  76 6B 68 02 87 0D 06 F9
 (056.978298)  can0  460   [4]  CC 29 11 20
 (056.978507)  can0  462   [4]  48 38 11 20
 (056.978697)  can0  464   [8]  B7 6C 68 02 C8 0C 06 F9
 (057.983713)  can0  460   [4]  00 00 E9 1F
 (057.983929)  can0  462   [4]  64 3B E9 1F
 (057.984118)  can0  464   [8]  07 6E 68 02 F7 0B 06 F9
 (058.990414)  can0  460   [4]  00 00 BF 1F
 (058.990624)  can0  462   [4]  ED 3D BF 1F
 (058.990815)  can0  464   [8]  63 6F 68 02 12 0B 06 F9
 (059.995735)  can0  460   [4]  00 00 94 1F
 (059.995948)  can0  462   [4]  E4 40 94 1F
 (059.996142)  can0  464   [8]  CC 70 68 02 17 0A 06 F9
 (060.998275)  can0  460   [4]  EE 39 67 1F
 (060.998497)  can0  462   [4]  EE 43 67 1F
 (060.998684)  can0  464   [8]  41 72 68 02 07 09 06 F9
 (062.004178)  can0  460   [4]  34 23 38 1F
 (062.004388)  can0  462   [4]  D3 46 38 1F
 (062.004580)  can0  464   [8]  C0 73 68 02 DE 07 06 F9
 (063.012463)  can0  460   [4]  00 00 08 1F
 (063.012680)  can0  462   [4]  B7 49 08 1F
 (063.012866)  can0  464   [8]  49 75 68 02 9B 06 06 F9
 (064.032487)  can0  460   [4]  00 00 D6 1E
 (064.032704)  can0  462   [4]  8A 4C D6 1E
 (064.032891)  can0  464   [8]  DC 76 68 02 41 05 06 F9
 (065.048477)  can0  460   [4]  00 00 A3 1E
 (065.048690)  can0  462   [4]  DE 4F A3 1E
 (065.048876)  can0  464   [8]  7D 78 68 02 D1 03 06 F9
 (066.064471)  can0  460   [4]  62 2A 6E 1E
 (066.064676)  can0  462   [4]  B0 52 6E 1E
 (066.064864)  can0  464   [8]  28 7A 68 02 48 02 06 F9
 (066.977799)  can0  460   [4]  0B 55 38 1E
 (066.978025)  can0  462   [4]  CC 55 38 1E
 (066.978215)  can0  464   [8]  DE 7B 68 02 A6 00 06 F9
 (067.994334)  can0  460   [4]  E4 2A 00 1E
 (067.994552)  can0  462   [4]  E9 58 00 1E
 (067.994739)  can0  464   [8]  9E 7D 68 02 EA FE 05 F9
 (069.012600)  can0  460   [4]  00 00 C7 1D
 (069.012811)  can0  462   [4]  05 5C C7 1D
 (069.013002)  can0  464   [8]  66 7F 68 02 11 FD 05 F9
 (070.032531)  can0  460   [4]  00 00 8E 1D
 (070.032745)  can0  462   [4]  B2 5E 8E 1D
 (070.032934)  can0  464   [8]  32 81 68 02 1B FB 05 F9
 (071.050353)  can0  460   [4]  B2 2A 54 1D
 (071.050558)  can0  462   [4]  28 61 54 1D
 (071.050744)  can0  464   [8]  01 83 68 02 08 F9 05 F9
 (071.968364)  can0  460   [4]  1A 5F 18 1D
 (071.968569)  can0  462   [4]  0D 64 18 1D
 (071.968756)  can0  464   [8]  D6 84 68 02 DB F6 05 F9
 (072.984630)  can0  460   [4]  4D 41 DD 1C
 (072.984837)  can0  462   [4]  04 67 DD 1C
 (072.985025)  can0  464   [8]  B1 86 68 02 91 F4 05 F9
 (074.003771)  can0  460   [4]  00 00 A0 1C
 (074.003974)  can0  462   [4]  E9 69 A0 1C
 (074.004160)  can0  464   [8]  8F 88 68 02 27 F2 05 F9
 (075.019786)  can0  460   [4]  00 00 64 1C
 (075.019989)  can0  462   [4]  27 6C 64 1C
 (075.020178)  can0  464   [8]  6C 8A 68 02 A1 EF 05 F9
 (076.034582)  can0  460   [4]  F6 12 27 1C
 (076.034794)  can0  462   [4]  E7 6E 27 1C
 (076.034983)  can0  464   [8]  4B 8C 68 02 FE EC 05 F9
 (077.054407)  can0  460   [4]  D7 6E EB 1B
 (077.054610)  can0  462   [4]  12 71 EB 1B
 (077.054797)  can0  464   [8]  28 8E 68 02 3F EA 05 F9
 (077.967806)  can0  460   [4]  2A 3E AF 1B
 (077.968013)  can0  462   [4]  3E 73 AF 1B
 (077.968199)  can0  464   [8]  01 90 68 02 65 E7 05 F9
 (078.982265)  can0  460   [4]  00 00 74 1B
 (078.982471)  can0  462   [4]  C6 75 74 1B
 (078.982658)  can0  464   [8]  D8 91 68 02 6A E4 05 F9
 (079.995835)  can0  460   [4]  00 00 39 1B
 (079.996040)  can0  462   [4]  BA 77 39 1B
 (079.996227)  can0  464   [8]  AA 93 68 02 56 E1 05 F9
 (081.008290)  can0  460   [4]  F0 16 FF 1A
 (081.008499)  can0  462   [4]  55 7A FF 1A
 (081.008686)  can0  464   [8]  7A 95 68 02 24 DE 05 F9
 (082.022737)  can0  460   [4]  84 7C C6 1A
 (082.022954)  can0  462   [4]  F0 7C C6 1A
 (082.023151)  can0  464   [8]  45 97 68 02 D3 DA 05 F9
 (083.038483)  can0  460   [4]  03 2C 8E 1A
 (083.038690)  can0  462   [4]  53 7F 8E 1A
 (083.038881)  can0  464   [8]  09 99 68 02 62 D7 05 F9
 (084.052842)  can0  460   [4]  00 00 58 1A
 (084.053092)  can0  464   [8]  C4 9A 68 02 D8 D3 05 F9
 (084.053850)  can0  462   [4]  22 81 58 1A
 (084.054046)  can0  468   [2]  78 00
 (085.065888)  can0  460   [4]  00 00 22 1A
 (085.066095)  can0  462   [4]  85 83 22 1A
 (085.066283)  can0  464   [8]  7B 9C 68 02 32 D0 05 F9
 (085.973996)  can0  460   [4]  55 1B EF 19
 (085.974211)  can0  462   [4]  FB 85 EF 19
 (085.974400)  can0  464   [8]  29 9E 68 02 6D CC 05 F9
 (086.988537)  can0  460   [4]  7D 87 BE 19
 (086.988744)  can0  462   [4]  92 87 BE 19
 (086.988934)  can0  464   [8]  CA 9F 68 02 8E C8 05 F9
 (088.002450)  can0  460   [4]  B4 12 8F 19
 (088.002665)  can0  462   [4]  D0 89 8F 19
 (088.002854)  can0  464   [8]  60 A1 68 02 92 C4 05 F9
 (089.014801)  can0  460   [4]  00 00 63 19
 (089.015009)  can0  462   [4]  55 8B 63 19
 (089.015200)  can0  464   [8]  E9 A2 68 02 7E C0 05 F9
 (090.032732)  can0  460   [4]  00 00 39 19
 (090.032937)  can0  462   [4]  93 8D 39 19
 (090.033123)  can0  464   [8]  64 A4 68 02 4E BC 05 F9
 (091.046561)  can0  460   [4]  52 53 13 19
 (091.046764)  can0  462   [4]  F3 8E 13 19
 (091.046952)  can0  464   [8]  D0 A5 68 02 07 B8 05 F9
 (092.058841)  can0  460   [4]  85 5F F0 18
 (092.059052)  can0  462   [4]  FA 90 F0 18
 (092.059240)  can0  464   [8]  2B A7 68 02 A4 B3 05 F9
 (092.976402)  can0  460   [4]  00 00 D1 18
 (092.976606)  can0  462   [4]  6C 92 D1 18
 (092.976793)  can0  464   [8]  6F A8 68 02 28 AF 05 F9
 (093.992850)  can0  460   [4]  00 00 B6 18
 (093.993054)  can0  462   [4]  CC 93 B6 18
 (093.993239)  can0  464   [8]  9E A9 68 02 97 AA 05 F9
 (095.008767)  can0  460   [4]  D3 05 9E 18
 (095.008972)  can0  462   [4]  2C 95 9E 18
 (095.009159)  can0  464   [8]  BE AA 68 02 F2 A5 05 F9
 (096.016449)  can0  460   [4]  F4 06 0C 22
 (096.016659)  can0  462   [4]  04 07 0C 22
 (096.016846)  can0  464   [8]  31 5B 68 02 C7 10 06 F9
 (097.018735)  can0  460   [4]  F9 03 1E 22
 (097.018954)  can0  462   [4]  1F 04 1E 22
 (097.019141)  can0  464   [8]  99 5A 68 02 52 11 06 F9
 (098.020306)  can0  460   [4]  FD 00 25 22
 (098.020521)  can0  462   [4]  53 03 25 22
 (098.020708)  can0  464   [8]  65 5A 68 02 85 11 06 F9
 (099.022494)  can0  460   [4]  00 00 28 22
 (099.022705)  can0  462   [4]  F7 02 28 22
 (099.022895)  can0  464   [8]  4D 5A 68 02 9D 11 06 F9
 (100.022490)  can0  460   [4]  00 00 29 22
 (100.022698)  can0  462   [4]  BF 02 29 22
 (100.022885)  can0  464   [8]  42 5A 68 02 A8 11 06 F9
 (101.024315)  can0  460   [4]  44 02 2A 22
 (101.024525)  can0  462   [4]  9A 02 2A 22
 (101.024714)  can0  464   [8]  3C 5A 68 02 B0 11 06 F9
 (102.028518)  can0  460   [4]  00 00 2B 22
 (102.028728)  can0  462   [4]  AD 02 2B 22
 (102.028916)  can0  464   [8]  38 5A 68 02 B4 11 06 F9
 (103.028598)  can0  460   [4]  AE 00 2B 22
 (103.028807)  can0  462   [4]  88 02 2B 22
 (103.028996)  can0  464   [8]  35 5A 68 02 B8 11 06 F9
 (104.030526)  can0  460   [4]  00 00 2B 22
 (104.030732)  can0  462   [4]  75 02 2B 22
 (104.030920)  can0  464   [8]  34 5A 68 02 BA 11 06 F9
 (105.036547)  can0  460   [4]  00 00 2B 22
 (105.036761)  can0  462   [4]  75 02 2B 22
 (105.036947)  can0  464   [8]  33 5A 68 02 BB 11 06 F9
 (106.036725)  can0  460   [4]  00 00 2B 22
 (106.036939)  can0  462   [4]  88 02 2B 22
 (106.037128)  can0  464   [8]  32 5A 68 02 BB 11 06 F9
 (107.042205)  can0  460   [4]  BC 02 2B 22
 (107.042417)  can0  462   [4]  BF 02 2B 22
 (107.042606)  can0  464   [8]  32 5A 68 02 B9 11 06 F9
 (108.044383)  can0  460   [4]  A0 02 2B 22
 (108.044591)  can0  462   [4]  BF 02 2B 22
 (108.044778)  can0  464   [8]  32 5A 68 02 B8 11 06 F9
 (109.046672)  can0  460   [4]  65 02 2B 22
 (109.046888)  can0  462   [4]  9A 02 2B 22
 (109.047095)  can0  464   [8]  31 5A 68 02 B9 11 06 F9
 (110.052663)  can0  460   [4]  9D 01 2C 22
 (110.052870)  can0  462   [4]  9A 02 2C 22
 (110.053061)  can0  464   [8]  31 5A 68 02 B9 11 06 F9
 (111.058937)  can0  460   [4]  00 00 2C 22
 (111.059149)  can0  462   [4]  AD 02 2C 22
 (111.059349)  can0  464   [8]  31 5A 68 02 B9 11 06 F9
 (112.060613)  can0  460   [4]  00 00 2C 22
 (112.060821)  can0  462   [4]  BF 02 2C 22
 (112.061013)  can0  464   [8]  30 5A 68 02 B8 11 06 F9
 (113.060872)  can0  460   [4]  00 00 2C 22
 (113.061081)  can0  462   [4]  9A 02 2C 22
 (113.061274)  can0  464   [8]  30 5A 68 02 B8 11 06 F9
 (114.064472)  can0  460   [4]  E8 00 2C 22
 (114.064699)  can0  462   [4]  63 02 2C 22
 (114.064897)  can0  464   [8]  2F 5A 68 02 B9 11 06 F9
 (115.066643)  can0  460   [4]  22 02 2C 22
 (115.066859)  can0  462   [4]  2B 02 2C 22
 (115.067051)  can0  464   [8]  2F 5A 68 02 BC 11 06 F9
 (115.968660)  can0  460   [4]  00 00 2C 22
 (115.968869)  can0  462   [4]  3A 01 2C 22
 (115.969056)  can0  464   [8]  2F 5A 68 02 C2 11 06 F9
 (116.974729)  can0  460   [4]  D8 00 2C 22
 (116.974939)  can0  462   [4]  03 01 2C 22
 (116.975131)  can0  464   [8]  2F 5A 68 02 C7 11 06 F9
 (117.975206)  can0  460   [4]  00 00 2C 22
 (117.975422)  can0  464   [8]  2F 5A 68 02 CD 11 06 F9
 (117.976179)  can0  462   [4]  A6 00 2C 22
 (117.976363)  can0  468   [2]  C8 00
 (118.982861)  can0  460   [4]  00 00 2C 22
 (118.983075)  can0  462   [4]  5C 00 2C 22
 (118.983261)  can0  464   [8]  2F 5A 68 02 D1 11 06 F9
 (119.988687)  can0  460   [4]  2D 00 2C 22
 (119.988900)  can0  462   [4]  4A 00 2C 22
 (119.989090)  can0  464   [8]  30 5A 68 02 D5 11 06 F9
 (120.992879)  can0  460   [4]  26 00 2C 22
 (120.993102)  can0  462   [4]  37 00 2C 22
 (120.993292)  can0  464   [8]  30 5A 68 02 D7 11 06 F9
 (121.998721)  can0  460   [4]  00 00 2C 22
 (121.998927)  can0  462   [4]  25 00 2C 22
 (121.999114)  can0  464   [8]  30 5A 68 02 D9 11 06 F9
 (123.002540)  can0  460   [4]  00 00 2C 22
 (123.002748)  can0  462   [4]  12 00 2C 22
 (123.002936)  can0  464   [8]  30 5A 68 02 DA 11 06 F9
 (124.004819)  can0  460   [4]  11 00 2C 22
 (124.005031)  can0  462   [4]  12 00 2C 22
 (124.005223)  can0  464   [8]  30 5A 68 02 DB 11 06 F9
 (125.008580)  can0  460   [4]  04 00 2C 22
 (125.008793)  can0  462   [4]  12 00 2C 22
 (125.008986)  can0  464   [8]  30 5A 68 02 DB 11 06 F9
 (126.016763)  can0  460   [4]  00 00 2C 22
 (126.016982)  can0  462   [4]  12 00 2C 22
 (126.017179)  can0  464   [8]  30 5A 68 02 DC 11 06 F9
 (127.018599)  can0  460   [4]  00 00 2C 22
 (127.018820)  can0  462   [4]  12 00 2C 22
 (127.019019)  can0  464   [8]  30 5A 68 02 DC 11 06 F9
 (128.020783)  can0  460   [4]  0E 00 2C 22
 (128.021006)  can0  462   [4]  12 00 2C 22
 (128.021203)  can0  464   [8]  30 5A 68 02 DC 11 06 F9
 (129.024772)  can0  460   [4]  00 00 2C 22
 (129.024979)  can0  462   [4]  00 00 2C 22
 (129.025167)  can0  464   [8]  30 5A 68 02 DC 11 06 F9
 (130.028619)  can0  460   [4]  00 00 2C 22
 (130.028827)  can0  462   [4]  00 00 2C 22
 (130.029015)  can0  464   [8]  30 5A 68 02 DC 11 06 F9
 (131.034458)  can0  460   [4]  00 00 2C 22
 (131.034666)  can0  462   [4]  00 00 2C 22
 (131.034851)  can0  464   [8]  30 5A 68 02 DC 11 06 F9
 (132.034635)  can0  460   [4]  00 00 2C 22
 (132.034843)  can0  462   [4]  00 00 2C 22
 (132.035028)  can0  464   [8]  30 5A 68 02 DD 11 06 F9
 (133.042490)  can0  460   [4]  00 00 2C 22
 (133.042707)  can0  462   [4]  00 00 2C 22
 (133.042905)  can0  464   [8]  30 5A 68 02 DD 11 06 F9
 (134.046392)  can0  460   [4]  00 00 2C 22
 (134.046596)  can0  462   [4]  00 00 2C 22
 (134.046783)  can0  464   [8]  30 5A 68 02 DC 11 06 F9
 (135.050771)  can0  460   [4]  00 00 2C 22
 (135.050992)  can0  462   [4]  00 00 2C 22
 (135.051179)  can0  464   [8]  30 5A 68 02 DC 11 06 F9
 (136.054865)  can0  460   [4]  00 00 2C 22
 (136.055080)  can0  462   [4]  00 00 2C 22
 (136.055268)  can0  464   [8]  30 5A 68 02 DC 11 06 F9
 (137.060745)  can0  460   [4]  00 00 2C 22
 (137.060968)  can0  462   [4]  00 00 2C 22
 (137.061162)  can0  464   [8]  30 5A 68 02 DC 11 06 F9
 (138.062876)  can0  460   [4]  00 00 2C 22
 (138.063083)  can0  462   [4]  00 00 2C 22
 (138.063273)  can0  464   [8]  30 5A 68 02 DC 11 06 F9
 (139.066715)  can0  460   [4]  00 00 2C 22
 (139.066929)  can0  462   [4]  00 00 2C 22
 (139.067118)  can0  464   [8]  30 5A 68 02 DC 11 06 F9
 (139.971255)  can0  460   [4]  00 00 2C 22
 (139.971475)  can0  462   [4]  00 00 2C 22
 (139.971667)  can0  464   [8]  30 5A 68 02 DC 11 06 F9
 (140.977161)  can0  460   [4]  00 00 2C 22
 (140.977366)  can0  462   [4]  00 00 2C 22
 (140.977555)  can0  464   [8]  30 5A 68 02 DC 11 06 F9
 (141.982761)  can0  460   [4]  00 00 2C 22
 (141.982976)  can0  462   [4]  00 00 2C 22
 (141.983166)  can0  464   [8]  30 5A 68 02 DC 11 06 F9
 (142.986581)  can0  460   [4]  00 00 2C 22
 (142.986799)  can0  462   [4]  00 00 2C 22
 (142.986987)  can0  464   [8]  30 5A 68 02 DC 11 06 F9
 (143.988768)  can0  460   [4]  00 00 2C 22
 (143.988975)  can0  462   [4]  00 00 2C 22
 (143.989167)  can0  464   [8]  30 5A 68 02 DC 11 06 F9
 (144.990775)  can0  460   [4]  00 00 2C 22
 (144.990984)  can0  462   [4]  00 00 2C 22
 (144.991211)  can0  464   [8]  30 5A 68 02 DC 11 06 F9
 (145.990959)  can0  460   [4]  00 00 2C 22
 (145.991171)  can0  462   [4]  00 00 2C 22
 (145.991363)  can0  464   [8]  33 5A 68 02 D7 11 06 F9
 (146.994683)  can0  460   [4]  00 00 2C 22
 (146.994892)  can0  462   [4]  00 00 2C 22
 (146.995082)  can0  464   [8]  33 5A 68 02 D7 11 06 F9
 (147.996812)  can0  460   [4]  00 00 2C 22
 (147.997025)  can0  462   [4]  00 00 2C 22
 (147.997211)  can0  464   [8]  33 5A 68 02 D7 11 06 F9
 (149.000982)  can0  460   [4]  00 00 2C 22
 (149.001189)  can0  462   [4]  00 00 2C 22
 (149.001375)  can0  464   [8]  33 5A 68 02 D7 11 06 F9
 (150.002559)  can0  460   [4]  00 00 2C 22
 (150.002766)  can0  462   [4]  00 00 2C 22
 (150.002957)  can0  464   [8]  33 5A 68 02 D6 11 06 F9
 (151.007007)  can0  460   [4]  00 00 2C 22
 (151.007214)  can0  462   [4]  00 00 2C 22
 (151.007405)  can0  464   [8]  33 5A 68 02 D6 11 06 F9
 (152.008673)  can0  460   [4]  00 00 2C 22
 (152.008881)  can0  462   [4]  00 00 2C 22
 (152.009069)  can0  464   [8]  33 5A 68 02 D6 11 06 F9
 (153.011025)  can0  460   [4]  00 00 2C 22
 (153.011232)  can0  462   [4]  00 00 2C 22
 (153.011421)  can0  464   [8]  33 5A 68 02 D6 11 06 F9
 (154.012778)  can0  460   [4]  00 00 2C 22
 (154.013018)  can0  462   [4]  00 00 2C 22
 (154.013229)  can0  464   [8]  33 5A 68 02 D6 11 06 F9
 (155.014881)  can0  460   [4]  00 00 2C 22
 (155.015093)  can0  462   [4]  00 00 2C 22
 (155.015284)  can0  464   [8]  33 5A 68 02 D6 11 06 F9
 (156.018718)  can0  460   [4]  00 00 2C 22
 (156.018927)  can0  462   [4]  00 00 2C 22
 (156.019116)  can0  464   [8]  33 5A 68 02 D6 11 06 F9
 (157.018906)  can0  460   [4]  00 00 2C 22
 (157.019125)  can0  462   [4]  00 00 2C 22
 (157.019327)  can0  464   [8]  33 5A 68 02 D6 11 06 F9
 (158.020918)  can0  460   [4]  00 00 2C 22
 (158.021129)  can0  462   [4]  00 00 2C 22
 (158.021320)  can0  464   [8]  33 5A 68 02 D6 11 06 F9
 (159.020919)  can0  460   [4]  00 00 2C 22
 (159.021125)  can0  462   [4]  00 00 2C 22
 (159.021315)  can0  464   [8]  33 5A 68 02 D6 11 06 F9
 (160.023107)  can0  460   [4]  00 00 2C 22
 (160.023314)  can0  462   [4]  00 00 2C 22
 (160.023513)  can0  464   [8]  33 5A 68 02 D6 11 06 F9
 (161.026772)  can0  460   [4]  00 00 2C 22
 (161.026980)  can0  462   [4]  00 00 2C 22
 (161.027165)  can0  464   [8]  33 5A 68 02 D6 11 06 F9
 (162.033473)  can0  460   [4]  00 00 2C 22
 (162.033755)  can0  462   [4]  00 00 2C 22
 (162.034026)  can0  464   [8]  33 5A 68 02 D6 11 06 F9
 (163.036709)  can0  460   [4]  00 00 2C 22
 (163.036920)  can0  462   [4]  00 00 2C 22
 (163.037107)  can0  464   [8]  33 5A 68 02 D6 11 06 F9
 (164.040983)  can0  460   [4]  00 00 2C 22
 (164.041194)  can0  462   [4]  00 00 2C 22
 (164.041382)  can0  464   [8]  33 5A 68 02 D6 11 06 F9
 (165.044814)  can0  460   [4]  00 00 2C 22
 (165.045023)  can0  462   [4]  00 00 2C 22
 (165.045213)  can0  464   [8]  33 5A 68 02 D6 11 06 F9
 (166.047167)  can0  460   [4]  00 00 2C 22
 (166.047375)  can0  462   [4]  00 00 2C 22
 (166.047563)  can0  464   [8]  33 5A 68 02 D6 11 06 F9
 (167.050835)  can0  460   [4]  00 00 2C 22
 (167.051041)  can0  462   [4]  00 00 2C 22
 (167.051229)  can0  464   [8]  33 5A 68 02 D6 11 06 F9
 (168.057187)  can0  460   [4]  00 00 2C 22
 (168.057392)  can0  462   [4]  00 00 2C 22
 (168.057578)  can0  464   [8]  33 5A 68 02 D6 11 06 F9
 (169.059027)  can0  460   [4]  00 00 2C 22
 (169.059234)  can0  462   [4]  00 00 2C 22
 (169.059422)  can0  464   [8]  33 5A 68 02 D6 11 06 F9
 (170.064767)  can0  460   [4]  00 00 2C 22
 (170.064972)  can0  462   [4]  00 00 2C 22
 (170.065159)  can0  464   [8]  33 5A 68 02 D6 11 06 F9
 (171.067051)  can0  460   [4]  00 00 2C 22
 (171.067257)  can0  462   [4]  00 00 2C 22
 (171.067443)  can0  464   [8]  33 5A 68 02 D6 11 06 F9
 (171.973074)  can0  460   [4]  00 00 2C 22
 (171.973292)  can0  462   [4]  00 00 2C 22
 (171.973481)  can0  464   [8]  33 5A 68 02 D6 11 06 F9
 (172.973511)  can0  460   [4]  00 00 2C 22
 (172.973725)  can0  462   [4]  00 00 2C 22
 (172.973913)  can0  464   [8]  33 5A 68 02 D6 11 06 F9
 (173.979519)  can0  460   [4]  00 00 2C 22
 (173.979742)  can0  462   [4]  00 00 2C 22
 (173.979930)  can0  464   [8]  33 5A 68 02 D6 11 06 F9
 (174.981523)  can0  460   [4]  00 00 2C 22
 (174.981740)  can0  462   [4]  00 00 2C 22
 (174.981933)  can0  464   [8]  33 5A 68 02 D6 11 06 F9
 (175.980922)  can0  460   [4]  00 00 2C 22
 (175.981139)  can0  462   [4]  00 00 2C 22
 (175.981330)  can0  464   [8]  33 5A 68 02 D6 11 06 F9
 (176.981457)  can0  460   [4]  00 00 2C 22
 (176.981673)  can0  462   [4]  00 00 2C 22
 (176.981876)  can0  464   [8]  33 5A 68 02 D6 11 06 F9
 (177.982954)  can0  460   [4]  00 00 2C 22
 (177.983167)  can0  462   [4]  00 00 2C 22
 (177.983364)  can0  464   [8]  33 5A 68 02 D6 11 06 F9
 (178.985648)  can0  460   [4]  00 00 2C 22
 (178.985956)  can0  462   [4]  00 00 2C 22
 (178.986179)  can0  464   [8]  33 5A 68 02 D6 11 06 F9
 (179.989319)  can0  460   [4]  00 00 2C 22
 (179.989542)  can0  462   [4]  00 00 2C 22
 (179.989736)  can0  464   [8]  32 5A 68 02 D3 11 06 F9
 (180.990982)  can0  460   [4]  00 00 2C 22
 (180.991208)  can0  462   [4]  00 00 2C 22
 (180.991413)  can0  464   [8]  31 5A 68 02 D2 11 06 F9
 (181.991364)  can0  460   [4]  00 00 2C 22
 (181.991608)  can0  462   [4]  00 00 2C 22
 (181.991820)  can0  464   [8]  31 5A 68 02 D1 11 06 F9
 (182.995171)  can0  460   [4]  00 00 2C 22
 (182.995395)  can0  462   [4]  00 00 2C 22
 (182.995589)  can0  464   [8]  31 5A 68 02 D0 11 06 F9
 (183.997369)  can0  460   [4]  00 00 2C 22
 (183.997586)  can0  462   [4]  00 00 2C 22
 (183.997785)  can0  464   [8]  31 5A 68 02 D0 11 06 F9
 (184.999033)  can0  460   [4]  00 00 2C 22
 (184.999258)  can0  462   [4]  00 00 2C 22
 (184.999471)  can0  464   [8]  31 5A 68 02 D0 11 06 F9
 (186.003228)  can0  460   [4]  00 00 2C 22
 (186.003457)  can0  462   [4]  00 00 2C 22
 (186.003668)  can0  464   [8]  30 5A 68 02 D0 11 06 F9
 (187.007359)  can0  460   [4]  00 00 2C 22
 (187.007684)  can0  462   [4]  00 00 2C 22
 (187.007929)  can0  464   [8]  30 5A 68 02 D0 11 06 F9
 (188.011049)  can0  460   [4]  00 00 2C 22
 (188.011266)  can0  462   [4]  00 00 2C 22
 (188.011470)  can0  464   [8]  30 5A 68 02 D0 11 06 F9
 (189.014979)  can0  460   [4]  00 00 2C 22
 (189.015204)  can0  462   [4]  00 00 2C 22
 (189.015397)  can0  464   [8]  30 5A 68 02 D0 11 06 F9
 (190.020991)  can0  460   [4]  00 00 2C 22
 (190.021195)  can0  462   [4]  00 00 2C 22
 (190.021381)  can0  464   [8]  30 5A 68 02 D0 11 06 F9
 (191.021089)  can0  460   [4]  00 00 2C 22
 (191.021293)  can0  462   [4]  00 00 2C 22
 (191.021481)  can0  464   [8]  30 5A 68 02 D0 11 06 F9
 (192.023014)  can0  460   [4]  00 00 2C 22
 (192.023223)  can0  462   [4]  00 00 2C 22
 (192.023412)  can0  464   [8]  30 5A 68 02 D0 11 06 F9
 (193.023478)  can0  460   [4]  00 00 2C 22
 (193.023709)  can0  462   [4]  00 00 2C 22
 (193.023926)  can0  464   [8]  30 5A 68 02 D0 11 06 F9
 (194.027365)  can0  460   [4]  00 00 2C 22
 (194.027585)  can0  462   [4]  00 00 2C 22
 (194.027801)  can0  464   [8]  30 5A 68 02 D0 11 06 F9
 (195.031145)  can0  460   [4]  00 00 2C 22
 (195.031363)  can0  462   [4]  00 00 2C 22
 (195.031550)  can0  464   [8]  30 5A 68 02 D0 11 06 F9
 (196.031486)  can0  460   [4]  00 00 2C 22
 (196.031709)  can0  462   [4]  00 00 2C 22
 (196.031908)  can0  464   [8]  30 5A 68 02 D0 11 06 F9
 (197.033181)  can0  460   [4]  00 00 2C 22
 (197.033405)  can0  462   [4]  00 00 2C 22
 (197.033612)  can0  464   [8]  30 5A 68 02 D0 11 06 F9
 (198.037070)  can0  460   [4]  00 00 2C 22
 (198.037286)  can0  462   [4]  00 00 2C 22
 (198.037480)  can0  464   [8]  30 5A 68 02 D0 11 06 F9
 (199.039345)  can0  460   [4]  00 00 2C 22
 (199.039557)  can0  462   [4]  00 00 2C 22
 (199.039756)  can0  464   [8]  30 5A 68 02 D0 11 06 F9
 (200.041183)  can0  460   [4]  00 00 2C 22
 (200.041409)  can0  462   [4]  00 00 2C 22
 (200.041605)  can0  464   [8]  30 5A 68 02 D0 11 06 F9
 (201.041371)  can0  460   [4]  00 00 2C 22
 (201.041585)  can0  462   [4]  00 00 2C 22
 (201.041777)  can0  464   [8]  30 5A 68 02 D0 11 06 F9
 (202.047123)  can0  460   [4]  00 00 2C 22
 (202.047349)  can0  462   [4]  00 00 2C 22
 (202.047550)  can0  464   [8]  30 5A 68 02 D0 11 06 F9
 (203.049391)  can0  460   [4]  00 00 2C 22
 (203.049626)  can0  462   [4]  00 00 2C 22
 (203.049833)  can0  464   [8]  30 5A 68 02 D0 11 06 F9
 (204.049238)  can0  460   [4]  00 00 2C 22
 (204.049452)  can0  462   [4]  00 00 2C 22
 (204.049648)  can0  464   [8]  30 5A 68 02 D0 11 06 F9
 (205.051428)  can0  460   [4]  00 00 2C 22
 (205.051635)  can0  462   [4]  00 00 2C 22
 (205.051825)  can0  464   [8]  30 5A 68 02 D0 11 06 F9
 (206.051168)  can0  460   [4]  00 00 2C 22
 (206.051377)  can0  462   [4]  00 00 2C 22
 (206.051566)  can0  464   [8]  30 5A 68 02 D0 11 06 F9
 (207.053276)  can0  460   [4]  00 00 2C 22
 (207.053485)  can0  462   [4]  00 00 2C 22
 (207.053674)  can0  464   [8]  30 5A 68 02 D0 11 06 F9
 (208.053445)  can0  460   [4]  00 00 2C 22
 (208.053665)  can0  462   [4]  00 00 2C 22
 (208.053869)  can0  464   [8]  30 5A 68 02 D0 11 06 F9
 (209.051467)  can0  460   [4]  10 00 2C 22
 (209.051672)  can0  462   [4]  12 00 2C 22
 (209.051876)  can0  464   [8]  31 5A 68 02 CF 11 06 F9
 (210.053640)  can0  460   [4]  23 00 2C 22
 (210.053872)  can0  462   [4]  25 00 2C 22
 (210.054078)  can0  464   [8]  31 5A 68 02 CF 11 06 F9
 (211.055305)  can0  460   [4]  12 00 2C 22
 (211.055526)  can0  462   [4]  12 00 2C 22
 (211.055717)  can0  464   [8]  31 5A 68 02 CF 11 06 F9
 (212.059672)  can0  460   [4]  12 00 2C 22
 (212.059886)  can0  462   [4]  12 00 2C 22
 (212.060084)  can0  464   [8]  31 5A 68 02 CF 11 06 F9
 (213.059582)  can0  460   [4]  11 00 2C 22
 (213.059788)  can0  462   [4]  12 00 2C 22
 (213.059974)  can0  464   [8]  31 5A 68 02 CF 11 06 F9
 (214.057517)  can0  460   [4]  0F 00 2C 22
 (214.057749)  can0  462   [4]  12 00 2C 22
 (214.057956)  can0  464   [8]  31 5A 68 02 CF 11 06 F9
 (215.063705)  can0  460   [4]  0B 00 2C 22
 (215.063938)  can0  462   [4]  12 00 2C 22
 (215.064131)  can0  464   [8]  31 5A 68 02 CF 11 06 F9
 (216.067361)  can0  460   [4]  06 00 2C 22
 (216.067573)  can0  462   [4]  12 00 2C 22
 (216.067764)  can0  464   [8]  31 5A 68 02 CF 11 06 F9
 (217.067741)  can0  460   [4]  01 00 2C 22
 (217.067952)  can0  462   [4]  12 00 2C 22
 (217.068148)  can0  464   [8]  31 5A 68 02 CF 11 06 F9
 (217.968078)  can0  460   [4]  00 00 2C 22
 (217.968291)  can0  462   [4]  25 00 2C 22
 (217.968483)  can0  464   [8]  31 5A 68 02 CF 11 06 F9
 (218.969742)  can0  460   [4]  00 00 2C 22
 (218.969956)  can0  462   [4]  12 00 2C 22
 (218.970148)  can0  464   [8]  31 5A 68 02 CF 11 06 F9
 (219.971334)  can0  460   [4]  00 00 2C 22
 (219.971563)  can0  462   [4]  12 00 2C 22
 (219.971773)  can0  464   [8]  31 5A 68 02 D0 11 06 F9
 (220.976025)  can0  460   [4]  00 00 2C 22
 (220.976245)  can0  462   [4]  12 00 2C 22
 (220.976442)  can0  464   [8]  30 5A 68 02 D0 11 06 F9
 (221.978304)  can0  460   [4]  00 00 2C 22
 (221.978568)  can0  464   [8]  30 5A 68 02 D0 11 06 F9
 (221.979311)  can0  462   [4]  12 00 2C 22
 (221.979529)  can0  468   [2]  78 00
 (222.984146)  can0  460   [4]  00 00 2C 22
 (222.984361)  can0  462   [4]  00 00 2C 22
 (222.984549)  can0  464   [8]  30 5A 68 02 D0 11 06 F9
 (223.985797)  can0  460   [4]  00 00 2C 22
 (223.986008)  can0  462   [4]  00 00 2C 22
 (223.986196)  can0  464   [8]  30 5A 68 02 D1 11 06 F9
 (224.993628)  can0  460   [4]  00 00 2C 22
 (224.993834)  can0  462   [4]  00 00 2C 22
 (224.994026)  can0  464   [8]  30 5A 68 02 D1 11 06 F9
 (226.001468)  can0  460   [4]  00 00 2C 22
 (226.001669)  can0  462   [4]  00 00 2C 22
 (226.001858)  can0  464   [8]  30 5A 68 02 D1 11 06 F9
 (227.001834)  can0  460   [4]  00 00 2C 22
 (227.002097)  can0  462   [4]  00 00 2C 22
 (227.002294)  can0  464   [8]  30 5A 68 02 D1 11 06 F9
 (228.005660)  can0  460   [4]  00 00 2C 22
 (228.005868)  can0  462   [4]  00 00 2C 22
 (228.006057)  can0  464   [8]  2F 5A 68 02 D1 11 06 F9
 (229.007844)  can0  460   [4]  00 00 2C 22
 (229.008073)  can0  462   [4]  00 00 2C 22
 (229.008271)  can0  464   [8]  2F 5A 68 02 D1 11 06 F9
 (230.009516)  can0  460   [4]  00 00 2C 22
 (230.009753)  can0  462   [4]  00 00 2C 22
 (230.009964)  can0  464   [8]  2F 5A 68 02 D1 11 06 F9
 (231.011528)  can0  460   [4]  00 00 2C 22
 (231.011744)  can0  462   [4]  00 00 2C 22
 (231.011934)  can0  464   [8]  2F 5A 68 02 D1 11 06 F9
 (232.017878)  can0  460   [4]  00 00 2C 22
 (232.018089)  can0  462   [4]  00 00 2C 22
 (232.018285)  can0  464   [8]  2F 5A 68 02 D1 11 06 F9
 (233.023552)  can0  460   [4]  00 00 2C 22
 (233.023781)  can0  462   [4]  00 00 2C 22
 (233.023982)  can0  464   [8]  2F 5A 68 02 D1 11 06 F9
 (234.027896)  can0  460   [4]  00 00 2C 22
 (234.028102)  can0  462   [4]  00 00 2C 22
 (234.028296)  can0  464   [8]  2F 5A 68 02 D1 11 06 F9
 (235.031563)  can0  460   [4]  00 00 2C 22
 (235.031793)  can0  462   [4]  00 00 2C 22
 (235.032002)  can0  464   [8]  2F 5A 68 02 D1 11 06 F9
 (236.033936)  can0  460   [4]  00 00 2C 22
 (236.034180)  can0  462   [4]  00 00 2C 22
 (236.034375)  can0  464   [8]  30 5A 68 02 D1 11 06 F9
 (237.037795)  can0  460   [4]  17 00 2C 22
 (237.038025)  can0  462   [4]  25 00 2C 22
 (237.038219)  can0  464   [8]  30 5A 68 02 D0 11 06 F9
 (238.038050)  can0  460   [4]  0A 00 2C 22
 (238.038278)  can0  462   [4]  12 00 2C 22
 (238.038477)  can0  464   [8]  30 5A 68 02 D0 11 06 F9
 (239.041788)  can0  460   [4]  0D 00 2C 22
 (239.042002)  can0  462   [4]  25 00 2C 22
 (239.042197)  can0  464   [8]  30 5A 68 02 D0 11 06 F9
 (240.041994)  can0  460   [4]  03 00 2C 22
 (240.042198)  can0  462   [4]  12 00 2C 22
 (240.042386)  can0  464   [8]  30 5A 68 02 D0 11 06 F9
 (241.045813)  can0  460   [4]  01 00 2C 22
 (241.046047)  can0  462   [4]  12 00 2C 22
 (241.046258)  can0  464   [8]  30 5A 68 02 D0 11 06 F9
 (242.050008)  can0  460   [4]  00 00 2C 22
 (242.050230)  can0  462   [4]  12 00 2C 22
 (242.050426)  can0  464   [8]  30 5A 68 02 D0 11 06 F9
 (243.054111)  can0  460   [4]  00 00 2C 22
 (243.054332)  can0  462   [4]  12 00 2C 22
 (243.054525)  can0  464   [8]  30 5A 68 02 D1 11 06 F9
 (244.058105)  can0  460   [4]  00 00 2C 22
 (244.058323)  can0  462   [4]  12 00 2C 22
 (244.058517)  can0  464   [8]  30 5A 68 02 D0 11 06 F9
 (245.059674)  can0  460   [4]  00 00 2C 22
 (245.059887)  can0  462   [4]  00 00 2C 22
 (245.060086)  can0  464   [8]  30 5A 68 02 D0 11 06 F9
 (246.066035)  can0  460   [4]  00 00 2C 22
 (246.066261)  can0  462   [4]  00 00 2C 22
 (246.066457)  can0  464   [8]  30 5A 68 02 D1 11 06 F9
 (247.068235)  can0  460   [4]  00 00 2C 22
 (247.068452)  can0  462   [4]  12 00 2C 22
 (247.068651)  can0  464   [8]  30 5A 68 02 D1 11 06 F9
 (247.974152)  can0  460   [4]  00 00 2C 22
 (247.974370)  can0  462   [4]  12 00 2C 22
 (247.974564)  can0  464   [8]  30 5A 68 02 D0 11 06 F9
 (248.976152)  can0  460   [4]  00 00 2C 22
 (248.976368)  can0  462   [4]  12 00 2C 22
 (248.976558)  can0  464   [8]  30 5A 68 02 D1 11 06 F9
 (249.980265)  can0  460   [4]  00 00 2C 22
 (249.980494)  can0  462   [4]  12 00 2C 22
 (249.980690)  can0  464   [8]  30 5A 68 02 D1 11 06 F9
 (250.986265)  can0  460   [4]  00 00 2C 22
 (250.986481)  can0  462   [4]  12 00 2C 22
 (250.986681)  can0  464   [8]  30 5A 68 02 D1 11 06 F9
 (251.987922)  can0  460   [4]  00 00 2C 22
 (251.988138)  can0  462   [4]  00 00 2C 22
 (251.988334)  can0  464   [8]  30 5A 68 02 D1 11 06 F9
 (252.998304)  can0  460   [4]  00 00 2C 22
 (252.998536)  can0  462   [4]  12 00 2C 22
 (252.998735)  can0  464   [8]  30 5A 68 02 D0 11 06 F9
 (254.004125)  can0  460   [4]  00 00 2C 22
 (254.004335)  can0  462   [4]  12 00 2C 22
 (254.004528)  can0  464   [8]  30 5A 68 02 D0 11 06 F9
 (255.006314)  can0  460   [4]  00 00 2C 22
 (255.006539)  can0  462   [4]  25 00 2C 22
 (255.006736)  can0  464   [8]  31 5A 68 02 CF 11 06 F9
 (256.009998)  can0  460   [4]  00 00 2C 22
 (256.010227)  can0  462   [4]  12 00 2C 22
 (256.010417)  can0  464   [8]  30 5A 68 02 D0 11 06 F9
 (257.016155)  can0  460   [4]  00 00 2C 22
 (257.016379)  can0  462   [4]  00 00 2C 22
 (257.016578)  can0  464   [8]  30 5A 68 02 D0 11 06 F9
 (258.020161)  can0  460   [4]  00 00 2C 22
 (258.020373)  can0  462   [4]  00 00 2C 22
 (258.020563)  can0  464   [8]  30 5A 68 02 D1 11 06 F9
 (259.023832)  can0  460   [4]  00 00 2C 22
 (259.024040)  can0  462   [4]  00 00 2C 22
 (259.024229)  can0  464   [8]  30 5A 68 02 D1 11 06 F9
 (260.026062)  can0  460   [4]  00 00 2C 22
 (260.026350)  can0  462   [4]  00 00 2C 22
 (260.026560)  can0  464   [8]  30 5A 68 02 D1 11 06 F9
 (261.030027)  can0  460   [4]  00 00 2C 22
 (261.030247)  can0  462   [4]  00 00 2C 22
 (261.030444)  can0  464   [8]  31 5A 68 02 D1 11 06 F9
 (262.032037)  can0  460   [4]  00 00 2C 22
 (262.032260)  can0  462   [4]  00 00 2C 22
 (262.032468)  can0  464   [8]  31 5A 68 02 D0 11 06 F9
 (263.037873)  can0  460   [4]  00 00 2C 22
 (263.038091)  can0  462   [4]  00 00 2C 22
 (263.038291)  can0  464   [8]  31 5A 68 02 D0 11 06 F9
 (264.043789)  can0  460   [4]  00 00 2C 22
 (264.043994)  can0  462   [4]  00 00 2C 22
 (264.044178)  can0  464   [8]  31 5A 68 02 D0 11 06 F9
 (265.046265)  can0  460   [4]  00 00 2C 22
 (265.046478)  can0  462   [4]  00 00 2C 22
 (265.046664)  can0  464   [8]  31 5A 68 02 D0 11 06 F9
 (266.050253)  can0  460   [4]  00 00 2C 22
 (266.050459)  can0  462   [4]  00 00 2C 22
 (266.050645)  can0  464   [8]  31 5A 68 02 D0 11 06 F9
 (267.053927)  can0  460   [4]  00 00 2C 22
 (267.054152)  can0  462   [4]  00 00 2C 22
 (267.054349)  can0  464   [8]  31 5A 68 02 D0 11 06 F9
 (268.054275)  can0  460   [4]  00 00 2C 22
 (268.054491)  can0  462   [4]  00 00 2C 22
 (268.054687)  can0  464   [8]  31 5A 68 02 D0 11 06 F9
 (269.057943)  can0  460   [4]  00 00 2C 22
 (269.058155)  can0  462   [4]  00 00 2C 22
 (269.058343)  can0  464   [8]  31 5A 68 02 D0 11 06 F9
 (270.066300)  can0  460   [4]  00 00 2C 22
 (270.066522)  can0  462   [4]  00 00 2C 22
 (270.066717)  can0  464   [8]  31 5A 68 02 D0 11 06 F9
 (271.070310)  can0  460   [4]  00 00 2C 22
 (271.070533)  can0  462   [4]  00 00 2C 22
 (271.070739)  can0  464   [8]  31 5A 68 02 D0 11 06 F9
 (271.970850)  can0  460   [4]  00 00 2C 22
 (271.971113)  can0  464   [8]  31 5A 68 02 D0 11 06 F9
 (271.971867)  can0  462   [4]  12 00 2C 22
 (271.972074)  can0  468   [2]  78 00
 (272.974430)  can0  460   [4]  00 00 2C 22
 (272.974646)  can0  462   [4]  25 00 2C 22
 (272.974845)  can0  464   [8]  32 5A 68 02 CF 11 06 F9
 (273.978858)  can0  460   [4]  00 00 2C 22
 (273.979118)  can0  464   [8]  32 5A 68 02 CF 11 06 F9
 (273.979858)  can0  462   [4]  37 00 2C 22
 (273.980055)  can0  468   [2]  78 00
 (274.982540)  can0  460   [4]  00 00 2C 22
 (274.982759)  can0  462   [4]  25 00 2C 22
 (274.982958)  can0  464   [8]  32 5A 68 02 CE 11 06 F9
 (275.983945)  can0  460   [4]  00 00 2C 22
 (275.984178)  can0  462   [4]  25 00 2C 22
 (275.984372)  can0  464   [8]  32 5A 68 02 CE 11 06 F9
 (276.984463)  can0  460   [4]  00 00 2C 22
 (276.984681)  can0  462   [4]  25 00 2C 22
 (276.984875)  can0  464   [8]  32 5A 68 02 CF 11 06 F9
 (277.988392)  can0  460   [4]  00 00 2C 22
 (277.988610)  can0  462   [4]  25 00 2C 22
 (277.988805)  can0  464   [8]  32 5A 68 02 CE 11 06 F9
 (278.988590)  can0  460   [4]  00 00 2C 22
 (278.988813)  can0  462   [4]  25 00 2C 22
 (278.989008)  can0  464   [8]  32 5A 68 02 CE 11 06 F9
 (279.990419)  can0  460   [4]  00 00 2C 22
 (279.990636)  can0  462   [4]  37 00 2C 22
 (279.990829)  can0  464   [8]  33 5A 68 02 CE 11 06 F9
 (280.992424)  can0  460   [4]  00 00 2C 22
 (280.992639)  can0  462   [4]  25 00 2C 22
 (280.992833)  can0  464   [8]  33 5A 68 02 CE 11 06 F9
 (281.998614)  can0  460   [4]  00 00 2C 22
 (281.998831)  can0  462   [4]  37 00 2C 22
 (281.999028)  can0  464   [8]  33 5A 68 02 CE 11 06 F9
 (283.002633)  can0  460   [4]  00 00 2C 22
 (283.002848)  can0  462   [4]  37 00 2C 22
 (283.003034)  can0  464   [8]  33 5A 68 02 CE 11 06 F9
 (284.006282)  can0  460   [4]  00 00 2C 22
 (284.006490)  can0  462   [4]  25 00 2C 22
 (284.006677)  can0  464   [8]  33 5A 68 02 CE 11 06 F9
 (285.008467)  can0  460   [4]  00 00 2C 22
 (285.008670)  can0  462   [4]  25 00 2C 22
 (285.008856)  can0  464   [8]  32 5A 68 02 CE 11 06 F9
 (286.010305)  can0  460   [4]  0D 00 2C 22
 (286.010510)  can0  462   [4]  25 00 2C 22
 (286.010697)  can0  464   [8]  32 5A 68 02 CF 11 06 F9
 (287.012577)  can0  460   [4]  10 00 2C 22
 (287.012783)  can0  462   [4]  25 00 2C 22
 (287.012969)  can0  464   [8]  32 5A 68 02 CF 11 06 F9
 (288.018348)  can0  460   [4]  08 00 2C 22
 (288.018561)  can0  462   [4]  12 00 2C 22
 (288.018749)  can0  464   [8]  32 5A 68 02 CF 11 06 F9
 (289.018530)  can0  460   [4]  0B 00 2C 22
 (289.018740)  can0  462   [4]  12 00 2C 22
 (289.018931)  can0  464   [8]  32 5A 68 02 CF 11 06 F9
 (290.020606)  can0  460   [4]  0C 00 2C 22
 (290.020813)  can0  462   [4]  12 00 2C 22
 (290.021000)  can0  464   [8]  32 5A 68 02 CF 11 06 F9
 (291.026182)  can0  460   [4]  00 00 2C 22
 (291.026404)  can0  462   [4]  00 00 2C 22
 (291.026601)  can0  464   [8]  31 5A 68 02 D0 11 06 F9
 (292.026377)  can0  460   [4]  10 00 2C 22
 (292.026598)  can0  462   [4]  12 00 2C 22
 (292.026804)  can0  464   [8]  32 5A 68 02 CF 11 06 F9
 (293.030392)  can0  460   [4]  23 00 2C 22
 (293.030629)  can0  462   [4]  25 00 2C 22
 (293.030820)  can0  464   [8]  32 5A 68 02 CF 11 06 F9
 (294.032581)  can0  460   [4]  36 00 2C 22
 (294.032801)  can0  462   [4]  37 00 2C 22
 (294.032993)  can0  464   [8]  32 5A 68 02 CE 11 06 F9
 (295.034400)  can0  460   [4]  37 00 2C 22
 (295.034605)  can0  462   [4]  37 00 2C 22
 (295.034789)  can0  464   [8]  33 5A 68 02 CE 11 06 F9
 (296.034606)  can0  460   [4]  12 00 2C 22
 (296.034817)  can0  462   [4]  12 00 2C 22
 (296.035001)  can0  464   [8]  32 5A 68 02 CE 11 06 F9
 (297.038254)  can0  460   [4]  00 00 2C 22
 (297.038472)  can0  462   [4]  00 00 2C 22
 (297.038665)  can0  464   [8]  32 5A 68 02 CF 11 06 F9
 (298.040606)  can0  460   [4]  00 00 2C 22
 (298.040823)  can0  462   [4]  00 00 2C 22
 (298.041017)  can0  464   [8]  31 5A 68 02 D0 11 06 F9
 (299.046452)  can0  460   [4]  00 00 2C 22
 (299.046696)  can0  462   [4]  00 00 2C 22
 (299.046908)  can0  464   [8]  31 5A 68 02 D0 11 06 F9
 (300.048469)  can0  460   [4]  00 00 2C 22
 (300.048698)  can0  462   [4]  00 00 2C 22
 (300.048892)  can0  464   [8]  35 5A 68 02 D0 11 06 F9
 (301.056644)  can0  460   [4]  10 00 2B 22
 (301.056858)  can0  462   [4]  12 00 2B 22
 (301.057050)  can0  464   [8]  37 5A 68 02 D0 11 06 F9
 (302.058746)  can0  460   [4]  11 00 2B 22
 (302.058966)  can0  462   [4]  12 00 2B 22
 (302.059166)  can0  464   [8]  38 5A 68 02 CF 11 06 F9
 (303.062508)  can0  460   [4]  12 00 2B 22
 (303.062733)  can0  462   [4]  12 00 2B 22
 (303.062926)  can0  464   [8]  39 5A 68 02 CF 11 06 F9
 (303.968774)  can0  460   [4]  37 00 2B 22
 (303.969002)  can0  462   [4]  37 00 2B 22
 (303.969209)  can0  464   [8]  39 5A 68 02 CE 11 06 F9
 (304.973134)  can0  460   [4]  49 00 2B 22
 (304.973360)  can0  462   [4]  4A 00 2B 22
 (304.973553)  can0  464   [8]  3A 5A 68 02 CD 11 06 F9
 (305.976801)  can0  460   [4]  35 00 2B 22
 (305.977021)  can0  462   [4]  37 00 2B 22
 (305.977227)  can0  464   [8]  3A 5A 68 02 CD 11 06 F9
 (306.979237)  can0  460   [4]  20 00 2B 22
 (306.979517)  can0  464   [8]  3A 5A 68 02 CD 11 06 F9
 (306.980229)  can0  462   [4]  25 00 2B 22
 (306.980424)  can0  468   [2]  8B 00
 (307.983168)  can0  460   [4]  1C 00 2B 22
 (307.983393)  can0  462   [4]  25 00 2B 22
 (307.983596)  can0  464   [8]  3B 5A 68 02 CC 11 06 F9
 (308.984830)  can0  460   [4]  0C 00 2B 22
 (308.985058)  can0  462   [4]  12 00 2B 22
 (308.985260)  can0  464   [8]  3B 5A 68 02 CC 11 06 F9
 (309.984932)  can0  460   [4]  09 00 2B 22
 (309.985170)  can0  462   [4]  12 00 2B 22
 (309.985379)  can0  464   [8]  3B 5A 68 02 CC 11 06 F9
 (310.988592)  can0  460   [4]  00 00 2B 22
 (310.988808)  can0  462   [4]  00 00 2B 22
 (310.989004)  can0  464   [8]  3C 5A 68 02 CB 11 06 F9
 (311.992625)  can0  460   [4]  03 00 2B 22
 (311.992839)  can0  462   [4]  12 00 2B 22
 (311.993026)  can0  464   [8]  3C 5A 68 02 CB 11 06 F9
 (312.996440)  can0  460   [4]  00 00 2B 22
 (312.996663)  can0  462   [4]  00 00 2B 22
 (312.996855)  can0  464   [8]  3C 5A 68 02 CB 11 06 F9
 (313.998620)  can0  460   [4]  00 00 2B 22
 (313.998825)  can0  462   [4]  00 00 2B 22
 (313.999013)  can0  464   [8]  3C 5A 68 02 CB 11 06 F9
 (315.000455)  can0  460   [4]  00 00 2B 22
 (315.000680)  can0  462   [4]  00 00 2B 22
 (315.000880)  can0  464   [8]  3C 5A 68 02 CA 11 06 F9
 (316.004482)  can0  460   [4]  00 00 2B 22
 (316.004708)  can0  462   [4]  00 00 2B 22
 (316.004908)  can0  464   [8]  3C 5A 68 02 CA 11 06 F9
 (317.010656)  can0  460   [4]  00 00 2B 22
 (317.010877)  can0  462   [4]  00 00 2B 22
 (317.011073)  can0  464   [8]  39 5A 68 02 CF 11 06 F9
 (318.014659)  can0  460   [4]  00 00 2B 22
 (318.014866)  can0  462   [4]  00 00 2B 22
 (318.015052)  can0  464   [8]  39 5A 68 02 CF 11 06 F9
 (319.018866)  can0  460   [4]  00 00 2B 22
 (319.019088)  can0  462   [4]  12 00 2B 22
 (319.019276)  can0  464   [8]  39 5A 68 02 CF 11 06 F9
 (320.024859)  can0  460   [4]  00 00 2B 22
 (320.025063)  can0  462   [4]  12 00 2B 22
 (320.025249)  can0  464   [8]  39 5A 68 02 CF 11 06 F9
 (321.030870)  can0  460   [4]  00 00 2B 22
 (321.031075)  can0  462   [4]  12 00 2B 22
 (321.031281)  can0  464   [8]  39 5A 68 02 CF 11 06 F9
 (322.032535)  can0  460   [4]  00 00 2B 22
 (322.032757)  can0  462   [4]  00 00 2B 22
 (322.032965)  can0  464   [8]  39 5A 68 02 CF 11 06 F9
 (323.036914)  can0  460   [4]  00 00 2B 22
 (323.037145)  can0  462   [4]  25 00 2B 22
 (323.037335)  can0  464   [8]  39 5A 68 02 CF 11 06 F9
 (324.041033)  can0  460   [4]  00 00 2B 22
 (324.041239)  can0  462   [4]  12 00 2B 22
 (324.041426)  can0  464   [8]  39 5A 68 02 CF 11 06 F9
 (325.044921)  can0  460   [4]  00 00 2B 22
 (325.045125)  can0  462   [4]  12 00 2B 22
 (325.045311)  can0  464   [8]  39 5A 68 02 CF 11 06 F9
 (326.046950)  can0  460   [4]  00 00 2B 22
 (326.047172)  can0  462   [4]  12 00 2B 22
 (326.047373)  can0  464   [8]  39 5A 68 02 CF 11 06 F9
 (327.051114)  can0  460   [4]  00 00 2B 22
 (327.051327)  can0  462   [4]  12 00 2B 22
 (327.051518)  can0  464   [8]  39 5A 68 02 CF 11 06 F9
 (328.056971)  can0  460   [4]  00 00 2B 22
 (328.057190)  can0  462   [4]  00 00 2B 22
 (328.057378)  can0  464   [8]  39 5A 68 02 CF 11 06 F9
 (329.060613)  can0  460   [4]  00 00 2B 22
 (329.060840)  can0  462   [4]  00 00 2B 22
 (329.061032)  can0  464   [8]  39 5A 68 02 D0 11 06 F9
 (330.064970)  can0  460   [4]  00 00 2B 22
 (330.065179)  can0  462   [4]  00 00 2B 22
 (330.065384)  can0  464   [8]  39 5A 68 02 CF 11 06 F9
 (330.968989)  can0  460   [4]  00 00 2B 22
 (330.969207)  can0  462   [4]  00 00 2B 22
 (330.969404)  can0  464   [8]  39 5A 68 02 CF 11 06 F9
 (331.972819)  can0  460   [4]  00 00 2B 22
 (331.973035)  can0  462   [4]  00 00 2B 22
 (331.973226)  can0  464   [8]  39 5A 68 02 CF 11 06 F9
 (332.976842)  can0  460   [4]  00 00 2B 22
 (332.977062)  can0  462   [4]  00 00 2B 22
 (332.977261)  can0  464   [8]  39 5A 68 02 CF 11 06 F9
 (333.979299)  can0  460   [4]  00 00 2B 22
 (333.979539)  can0  462   [4]  00 00 2B 22
 (333.979737)  can0  464   [8]  39 5A 68 02 CF 11 06 F9
 (334.983041)  can0  460   [4]  00 00 2B 22
 (334.983261)  can0  462   [4]  00 00 2B 22
 (334.983465)  can0  464   [8]  39 5A 68 02 CF 11 06 F9
 (335.985398)  can0  460   [4]  00 00 2B 22
 (335.985605)  can0  462   [4]  00 00 2B 22
 (335.985789)  can0  464   [8]  39 5A 68 02 CF 11 06 F9
 (336.986885)  can0  460   [4]  00 00 2B 22
 (336.987102)  can0  462   [4]  00 00 2B 22
 (336.987301)  can0  464   [8]  39 5A 68 02 CF 11 06 F9
 (337.992725)  can0  460   [4]  00 00 2B 22
 (337.992934)  can0  462   [4]  00 00 2B 22
 (337.993128)  can0  464   [8]  39 5A 68 02 CF 11 06 F9
 (338.995082)  can0  460   [4]  00 00 2B 22
 (338.995300)  can0  462   [4]  00 00 2B 22
 (338.995497)  can0  464   [8]  39 5A 68 02 CF 11 06 F9
 (340.000912)  can0  460   [4]  00 00 2B 22
 (340.001124)  can0  462   [4]  00 00 2B 22
 (340.001317)  can0  464   [8]  39 5A 68 02 CF 11 06 F9
 (341.001111)  can0  460   [4]  00 00 2B 22
 (341.001336)  can0  462   [4]  00 00 2B 22
 (341.001525)  can0  464   [8]  39 5A 68 02 CF 11 06 F9
 (342.002949)  can0  460   [4]  00 00 2B 22
 (342.003174)  can0  462   [4]  00 00 2B 22
 (342.003368)  can0  464   [8]  39 5A 68 02 CF 11 06 F9
 (343.008788)  can0  460   [4]  00 00 2B 22
 (343.009009)  can0  462   [4]  00 00 2B 22
 (343.009203)  can0  464   [8]  39 5A 68 02 CF 11 06 F9
 (344.009142)  can0  460   [4]  00 00 2B 22
 (344.009370)  can0  462   [4]  00 00 2B 22
 (344.009564)  can0  464   [8]  39 5A 68 02 CF 11 06 F9
 (345.010977)  can0  460   [4]  00 00 2B 22
 (345.011190)  can0  462   [4]  00 00 2B 22
 (345.011386)  can0  464   [8]  36 5A 68 02 D1 11 06 F9
 (346.013173)  can0  460   [4]  00 00 2B 22
 (346.013398)  can0  462   [4]  12 00 2B 22
 (346.013591)  can0  464   [8]  36 5A 68 02 D1 11 06 F9
 (347.021175)  can0  460   [4]  00 00 2B 22
 (347.021390)  can0  462   [4]  12 00 2B 22
 (347.021582)  can0  464   [8]  36 5A 68 02 D1 11 06 F9
 (348.023010)  can0  460   [4]  00 00 2B 22
 (348.023235)  can0  462   [4]  00 00 2B 22
 (348.023448)  can0  464   [8]  36 5A 68 02 D1 11 06 F9
 (349.030868)  can0  460   [4]  00 00 2B 22
 (349.031094)  can0  462   [4]  00 00 2B 22
 (349.031291)  can0  464   [8]  37 5A 68 02 D0 11 06 F9
 (350.033201)  can0  460   [4]  00 00 2B 22
 (350.033417)  can0  462   [4]  00 00 2B 22
 (350.033612)  can0  464   [8]  37 5A 68 02 D0 11 06 F9
 (351.038869)  can0  460   [4]  00 00 2B 22
 (351.039102)  can0  462   [4]  00 00 2B 22
 (351.039307)  can0  464   [8]  37 5A 68 02 D0 11 06 F9
 (352.043093)  can0  460   [4]  00 00 2B 22
 (352.043345)  can0  462   [4]  00 00 2B 22
 (352.043539)  can0  464   [8]  37 5A 68 02 D0 11 06 F9
 (353.050884)  can0  460   [4]  00 00 2B 22
 (353.051092)  can0  462   [4]  00 00 2B 22
 (353.051283)  can0  464   [8]  37 5A 68 02 D0 11 06 F9
 (354.056909)  can0  460   [4]  00 00 2B 22
 (354.057115)  can0  462   [4]  00 00 2B 22
 (354.057302)  can0  464   [8]  37 5A 68 02 D0 11 06 F9
 (355.061277)  can0  460   [4]  00 00 2B 22
 (355.061489)  can0  462   [4]  00 00 2B 22
 (355.061682)  can0  464   [8]  37 5A 68 02 D0 11 06 F9
 (356.067103)  can0  460   [4]  00 00 2B 22
 (356.067327)  can0  462   [4]  00 00 2B 22
 (356.067515)  can0  464   [8]  37 5A 68 02 D0 11 06 F9
 (356.971118)  can0  460   [4]  00 00 2B 22
 (356.971330)  can0  462   [4]  00 00 2B 22
 (356.971521)  can0  464   [8]  37 5A 68 02 D0 11 06 F9
 (357.975309)  can0  460   [4]  00 00 2B 22
 (357.975520)  can0  462   [4]  00 00 2B 22
 (357.975706)  can0  464   [8]  37 5A 68 02 D0 11 06 F9
 (358.981305)  can0  460   [4]  00 00 2B 22
 (358.981527)  can0  462   [4]  00 00 2B 22
 (358.981728)  can0  464   [8]  37 5A 68 02 D0 11 06 F9
 (359.981575)  can0  460   [4]  00 00 2B 22
 (359.981787)  can0  462   [4]  00 00 2B 22
 (359.981989)  can0  464   [8]  37 5A 68 02 D0 11 06 F9
 (360.983432)  can0  460   [4]  00 00 2B 22
 (360.983650)  can0  462   [4]  00 00 2B 22
 (360.983843)  can0  464   [8]  37 5A 68 02 D0 11 06 F9
 (361.987351)  can0  460   [4]  00 00 2B 22
 (361.987563)  can0  462   [4]  00 00 2B 22
 (361.987750)  can0  464   [8]  37 5A 68 02 D0 11 06 F9
 (362.987625)  can0  460   [4]  00 00 2B 22
 (362.987835)  can0  462   [4]  00 00 2B 22
 (362.988022)  can0  464   [8]  37 5A 68 02 D0 11 06 F9
 (363.991017)  can0  460   [4]  00 00 2B 22
 (363.991225)  can0  462   [4]  00 00 2B 22
 (363.991416)  can0  464   [8]  37 5A 68 02 D0 11 06 F9
 (364.993202)  can0  460   [4]  00 00 2B 22
 (364.993411)  can0  462   [4]  00 00 2B 22
 (364.993598)  can0  464   [8]  37 5A 68 02 D0 11 06 F9
 (365.993035)  can0  460   [4]  00 00 2B 22
 (365.993241)  can0  462   [4]  00 00 2B 22
 (365.993427)  can0  464   [8]  37 5A 68 02 D0 11 06 F9
 (366.993230)  can0  460   [4]  00 00 2B 22
 (366.993440)  can0  462   [4]  00 00 2B 22
 (366.993626)  can0  464   [8]  37 5A 68 02 D0 11 06 F9
 (367.997776)  can0  460   [4]  00 00 21 22
 (367.998006)  can0  462   [4]  ED 10 21 22
 (367.998193)  can0  464   [8]  8A 5A 68 02 7B 11 06 F9
 (368.999274)  can0  460   [4]  89 08 1B 22
 (368.999494)  can0  462   [4]  AE 08 1B 22
 (368.999685)  can0  464   [8]  BA 5A 68 02 68 11 06 F9
 (370.007700)  can0  460   [4]  00 00 0B 22
 (370.007904)  can0  462   [4]  17 18 0B 22
 (370.008090)  can0  464   [8]  4B 5B 68 02 32 11 06 F9
 (371.009896)  can0  460   [4]  00 00 F8 21
 (371.010106)  can0  462   [4]  C4 1A F8 21
 (371.010295)  can0  464   [8]  E9 5B 68 02 F8 10 06 F9
 (372.017634)  can0  460   [4]  00 00 E4 21
 (372.017859)  can0  462   [4]  84 1D E4 21
 (372.018055)  can0  464   [8]  99 5C 68 02 B8 10 06 F9
 (373.021469)  can0  460   [4]  00 00 CE 21
 (373.021682)  can0  462   [4]  D8 20 CE 21
 (373.021873)  can0  464   [8]  5C 5D 68 02 72 10 06 F9
 (374.031749)  can0  460   [4]  00 00 B5 21
 (374.031964)  can0  462   [4]  2B 24 B5 21
 (374.032154)  can0  464   [8]  33 5E 68 02 24 10 06 F9
 (375.041753)  can0  460   [4]  00 00 9A 21
 (375.041967)  can0  462   [4]  92 27 9A 21
 (375.042159)  can0  464   [8]  1F 5F 68 02 D0 0F 06 F9
 (376.047777)  can0  460   [4]  00 00 7C 21
 (376.047993)  can0  462   [4]  F8 2A 7C 21
 (376.048186)  can0  464   [8]  21 60 68 02 74 0F 06 F9
 (377.059869)  can0  460   [4]  00 00 5C 21
 (377.060071)  can0  462   [4]  4C 2E 5C 21
 (377.060256)  can0  464   [8]  37 61 68 02 12 0F 06 F9
 (378.069881)  can0  460   [4]  00 00 3A 21
 (378.070113)  can0  462   [4]  8E 31 3A 21
 (378.070314)  can0  464   [8]  62 62 68 02 A9 0E 06 F9
 (378.975980)  can0  460   [4]  00 00 15 21
 (378.976195)  can0  462   [4]  BD 34 15 21
 (378.976391)  can0  464   [8]  A0 63 68 02 3B 0E 06 F9
 (379.987212)  can0  460   [4]  00 00 EE 20
 (379.987427)  can0  462   [4]  C6 37 EE 20
 (379.987622)  can0  464   [8]  F3 64 68 02 C7 0D 06 F9
 (380.999136)  can0  460   [4]  00 00 C6 20
 (380.999359)  can0  462   [4]  61 3A C6 20
 (380.999550)  can0  464   [8]  56 66 68 02 4F 0D 06 F9
 (382.010103)  can0  460   [4]  00 00 9B 20
 (382.010348)  can0  464   [8]  CA 67 68 02 D3 0C 06 F9
 (382.011096)  can0  462   [4]  E9 3C 9B 20
 (382.011281)  can0  468   [2]  50 00
 (383.019760)  can0  460   [4]  00 00 6F 20
 (383.019964)  can0  462   [4]  4D 3F 6F 20
 (383.020151)  can0  464   [8]  4D 69 68 02 53 0C 06 F9
 (384.028039)  can0  460   [4]  00 00 41 20
 (384.028245)  can0  462   [4]  8B 41 41 20
 (384.028432)  can0  464   [8]  DF 6A 68 02 CF 0B 06 F9
 (385.039877)  can0  460   [4]  00 00 11 20
 (385.040080)  can0  462   [4]  7F 43 11 20
 (385.040270)  can0  464   [8]  7D 6C 68 02 47 0B 06 F9
 (386.052146)  can0  460   [4]  00 00 E0 1F
 (386.052393)  can0  464   [8]  28 6E 68 02 BD 0A 06 F9
 (386.053143)  can0  462   [4]  4E 45 E0 1F
 (386.053329)  can0  468   [2]  50 00
 (387.065200)  can0  460   [4]  00 00 AE 1F
 (387.065401)  can0  462   [4]  0A 47 AE 1F
 (387.065586)  can0  464   [8]  DD 6F 68 02 2E 0A 06 F9
 (387.977474)  can0  460   [4]  00 00 7B 1F
 (387.977677)  can0  462   [4]  B4 48 7B 1F
 (387.977863)  can0  464   [8]  9D 71 68 02 9D 09 06 F9
 (389.004012)  can0  460   [4]  00 00 47 1F
 (389.004212)  can0  462   [4]  14 4A 47 1F
 (389.004398)  can0  464   [8]  66 73 68 02 09 09 06 F9
 (390.029235)  can0  460   [4]  00 00 12 1F
 (390.029439)  can0  462   [4]  74 4B 12 1F
 (390.029626)  can0  464   [8]  38 75 68 02 76 08 06 F9
 (391.055243)  can0  460   [4]  00 00 DB 1E
 (391.055447)  can0  462   [4]  AF 4C DB 1E
 (391.055636)  can0  464   [8]  13 77 68 02 E2 07 06 F9
 (391.977258)  can0  460   [4]  00 00 A4 1E
 (391.977460)  can0  462   [4]  EA 4D A4 1E
 (391.977647)  can0  464   [8]  F5 78 68 02 4D 07 06 F9
 (393.001980)  can0  460   [4]  00 00 6D 1E
 (393.002192)  can0  462   [4]  ED 4E 6D 1E
 (393.002382)  can0  464   [8]  DE 7A 68 02 B7 06 06 F9
 (394.028062)  can0  460   [4]  A2 05 34 1E
 (394.028265)  can0  462   [4]  CB 4F 34 1E
 (394.028453)  can0  464   [8]  CE 7C 68 02 22 06 06 F9
 (395.054075)  can0  460   [4]  91 15 FB 1D
 (395.054300)  can0  462   [4]  A9 50 FB 1D
 (395.054506)  can0  464   [8]  C3 7E 68 02 8E 05 06 F9
 (395.974018)  can0  460   [4]  81 1D C1 1D
 (395.974226)  can0  462   [4]  75 51 C1 1D
 (395.974414)  can0  464   [8]  BE 80 68 02 F9 04 06 F9
 (396.998106)  can0  460   [4]  3C 25 87 1D
 (396.998311)  can0  462   [4]  1C 52 87 1D
 (396.998500)  can0  464   [8]  BD 82 68 02 65 04 06 F9
 (398.023856)  can0  460   [4]  7F 25 4C 1D
 (398.024064)  can0  462   [4]  B0 52 4C 1D
 (398.024253)  can0  464   [8]  C1 84 68 02 D0 03 06 F9
 (399.028205)  can0  460   [4]  B4 33 11 1D
 (399.028409)  can0  462   [4]  31 53 11 1D
 (399.028596)  can0  464   [8]  C8 86 68 02 3C 03 06 F9
 (400.055787)  can0  460   [4]  F4 3F D6 1C
 (400.055992)  can0  462   [4]  A1 53 D6 1C
 (400.056185)  can0  464   [8]  D2 88 68 02 AA 02 06 F9
 (400.977631)  can0  460   [4]  50 45 9A 1C
 (400.977835)  can0  462   [4]  FD 53 9A 1C
 (400.978020)  can0  464   [8]  DF 8A 68 02 18 02 06 F9
 (402.002245)  can0  460   [4]  9F 4D 5E 1C
 (402.002449)  can0  462   [4]  47 54 5E 1C
 (402.002635)  can0  464   [8]  EF 8C 68 02 88 01 06 F9
 (403.027926)  can0  460   [4]  CA 50 22 1C
 (403.028137)  can0  462   [4]  91 54 22 1C
 (403.028326)  can0  464   [8]  00 8F 68 02 F9 00 06 F9
 (404.048094)  can0  460   [4]  4A 54 E6 1B
 (404.048297)  can0  462   [4]  B6 54 E6 1B
 (404.048484)  can0  464   [8]  13 91 68 02 6B 00 06 F9
 (405.067939)  can0  460   [4]  C9 54 AA 1B
 (405.068150)  can0  462   [4]  C9 54 AA 1B
 (405.068337)  can0  464   [8]  27 93 68 02 DF FF 05 F9
 (405.985411)  can0  460   [4]  6F 54 6D 1B
 (405.985615)  can0  462   [4]  DB 54 6D 1B
 (405.985803)  can0  464   [8]  3C 95 68 02 54 FF 05 F9
 (407.008126)  can0  460   [4]  12 51 31 1B
 (407.008327)  can0  462   [4]  DB 54 31 1B
 (407.008512)  can0  464   [8]  51 97 68 02 CB FE 05 F9
 (408.029974)  can0  460   [4]  19 4E F4 1A
 (408.030176)  can0  462   [4]  C9 54 F4 1A
 (408.030365)  can0  464   [8]  66 99 68 02 44 FE 05 F9
 (409.052238)  can0  460   [4]  59 4A B8 1A
 (409.052462)  can0  462   [4]  B6 54 B8 1A
 (409.052667)  can0  464   [8]  7A 9B 68 02 BE FD 05 F9
 (409.970267)  can0  460   [4]  B0 40 7C 1A
 (409.970487)  can0  462   [4]  91 54 7C 1A
 (409.970684)  can0  464   [8]  8F 9D 68 02 3B FD 05 F9
 (410.994089)  can0  460   [4]  B9 3A 40 1A
 (410.994301)  can0  462   [4]  47 54 40 1A
 (410.994489)  can0  464   [8]  A2 9F 68 02 B8 FC 05 F9
 (412.016276)  can0  460   [4]  6D 2D 04 1A
 (412.016480)  can0  462   [4]  10 54 04 1A
 (412.016667)  can0  464   [8]  B3 A1 68 02 39 FC 05 F9
 (413.040111)  can0  460   [4]  02 26 C8 19
 (413.040315)  can0  462   [4]  C6 53 C8 19
 (413.040503)  can0  464   [8]  C4 A3 68 02 BB FB 05 F9
 (414.064037)  can0  460   [4]  43 1E 8D 19
 (414.064238)  can0  462   [4]  7C 53 8D 19
 (414.064428)  can0  464   [8]  D2 A5 68 02 3F FB 05 F9
 (414.983528)  can0  460   [4]  23 0E 52 19
 (414.983732)  can0  462   [4]  1F 53 52 19
 (414.983919)  can0  464   [8]  DF A7 68 02 C5 FA 05 F9
 (416.004073)  can0  460   [4]  DB 05 17 19
 (416.004282)  can0  462   [4]  B0 52 17 19
 (416.004471)  can0  464   [8]  E9 A9 68 02 4E FA 05 F9
 (417.024257)  can0  460   [4]  00 00 DC 18
 (417.024475)  can0  462   [4]  41 52 DC 18
 (417.024665)  can0  464   [8]  F1 AB 68 02 D9 F9 05 F9
 (418.044264)  can0  460   [4]  00 00 A2 18
 (418.044478)  can0  462   [4]  BF 51 A2 18
 (418.044673)  can0  464   [8]  F6 AD 68 02 67 F9 05 F9
 (419.068542)  can0  460   [4]  00 00 68 18
 (419.068802)  can0  464   [8]  F9 AF 68 02 F6 F8 05 F9
 (419.069534)  can0  462   [4]  3D 51 68 18
 (419.069728)  can0  468   [2]  50 00
 (419.996376)  can0  460   [4]  00 00 2E 18
 (419.996589)  can0  462   [4]  BC 50 2E 18
 (419.996784)  can0  464   [8]  F8 B1 68 02 88 F8 05 F9
 (421.027602)  can0  460   [4]  00 00 F5 17
 (421.027819)  can0  462   [4]  28 50 F5 17
 (421.028022)  can0  464   [8]  F4 B3 68 02 1C F8 05 F9
 (422.058575)  can0  460   [4]  00 00 BC 17
 (422.058832)  can0  464   [8]  EC B5 68 02 B2 F7 05 F9
 (422.059570)  can0  462   [4]  94 4F BC 17
 (422.059764)  can0  468   [2]  50 00
 (422.986075)  can0  460   [4]  00 00 84 17
 (422.986288)  can0  462   [4]  ED 4E 84 17
 (422.986486)  can0  464   [8]  E0 B7 68 02 4A F7 05 F9
 (424.014603)  can0  460   [4]  00 00 4C 17
 (424.014861)  can0  464   [8]  D1 B9 68 02 E5 F6 05 F9
 (424.015609)  can0  462   [4]  46 4E 4C 17
 (424.015819)  can0  468   [2]  50 00
 (425.042443)  can0  460   [4]  00 00 15 17
 (425.042646)  can0  462   [4]  8D 4D 15 17
 (425.042841)  can0  464   [8]  BD BB 68 02 82 F6 05 F9
 (426.067664)  can0  460   [4]  00 00 DE 16
 (426.067874)  can0  462   [4]  D4 4C DE 16
 (426.068062)  can0  464   [8]  A6 BD 68 02 21 F6 05 F9
 (426.991688)  can0  460   [4]  00 00 A8 16
 (426.991896)  can0  462   [4]  1B 4C A8 16
 (426.992081)  can0  464   [8]  89 BF 68 02 C3 F5 05 F9
 (428.016650)  can0  460   [4]  00 00 72 16
 (428.016910)  can0  464   [8]  68 C1 68 02 67 F5 05 F9
 (428.017643)  can0  462   [4]  4F 4B 72 16
 (428.017835)  can0  468   [2]  50 00
 (429.048489)  can0  460   [4]  00 00 3D 16
 (429.048702)  can0  462   [4]  96 4A 3D 16
 (429.048893)  can0  464   [8]  42 C3 68 02 0D F5 05 F9
 (429.973976)  can0  460   [4]  00 00 08 16
 (429.974191)  can0  462   [4]  CA 49 08 16
 (429.974383)  can0  464   [8]  18 C5 68 02 B5 F4 05 F9
 (431.006526)  can0  460   [4]  00 00 D4 15
 (431.006743)  can0  462   [4]  FE 48 D4 15
 (431.006938)  can0  464   [8]  E9 C6 68 02 60 F4 05 F9
 (432.038520)  can0  460   [4]  00 00 A1 15
 (432.038735)  can0  462   [4]  32 48 A1 15
 (432.038926)  can0  464   [8]  B5 C8 68 02 0D F4 05 F9
 (433.062698)  can0  460   [4]  00 00 6E 15
 (433.062946)  can0  464   [8]  7C CA 68 02 BD F3 05 F9
 (433.063704)  can0  462   [4]  79 47 6E 15
 (433.063895)  can0  468   [2]  50 00
 (433.983760)  can0  460   [4]  00 00 3B 15
 (433.983967)  can0  462   [4]  AE 46 3B 15
 (433.984158)  can0  464   [8]  3F CC 68 02 6E F3 05 F9
 (435.005774)  can0  460   [4]  00 00 09 15
 (435.005986)  can0  462   [4]  E2 45 09 15
 (435.006178)  can0  464   [8]  FD CD 68 02 22 F3 05 F9
 (436.024742)  can0  460   [4]  00 00 D8 14
 (436.025000)  can0  464   [8]  B5 CF 68 02 D9 F2 05 F9
 (436.025739)  can0  462   [4]  16 45 D8 14
 (436.025929)  can0  468   [2]  50 00
 (437.042582)  can0  460   [4]  00 00 A7 14
 (437.042799)  can0  462   [4]  5D 44 A7 14
 (437.042998)  can0  464   [8]  69 D1 68 02 91 F2 05 F9
 (438.063815)  can0  460   [4]  00 00 77 14
 (438.064029)  can0  462   [4]  91 43 77 14
 (438.064222)  can0  464   [8]  18 D3 68 02 4B F2 05 F9
 (438.982771)  can0  460   [4]  00 00 48 14
 (438.983032)  can0  464   [8]  C3 D4 68 02 08 F2 05 F9
 (438.983769)  can0  462   [4]  C5 42 48 14
 (438.983965)  can0  468   [2]  50 00
 (440.004533)  can0  460   [4]  00 00 19 14
 (440.004738)  can0  462   [4]  FA 41 19 14
 (440.004932)  can0  464   [8]  68 D6 68 02 C7 F1 05 F9
 (441.026536)  can0  460   [4]  B3 05 EA 13
 (441.026742)  can0  462   [4]  41 41 EA 13
 (441.026929)  can0  464   [8]  08 D8 68 02 88 F1 05 F9
 (442.046289)  can0  460   [4]  03 0C BC 13
 (442.046494)  can0  462   [4]  75 40 BC 13
 (442.046680)  can0  464   [8]  A4 D9 68 02 4B F1 05 F9
 (443.066649)  can0  460   [4]  0D 12 8F 13
 (443.066852)  can0  462   [4]  A9 3F 8F 13
 (443.067041)  can0  464   [8]  3B DB 68 02 10 F1 05 F9
 (443.985867)  can0  460   [4]  72 1D 62 13
 (443.986070)  can0  462   [4]  DD 3E 62 13
 (443.986256)  can0  464   [8]  CD DC 68 02 D6 F0 05 F9
 (445.006505)  can0  460   [4]  71 22 36 13
 (445.006712)  can0  462   [4]  24 3E 36 13
 (445.006900)  can0  464   [8]  5B DE 68 02 9F F0 05 F9
 (446.026685)  can0  460   [4]  FA 26 0B 13
 (446.026887)  can0  462   [4]  6B 3D 0B 13
 (446.027073)  can0  464   [8]  E4 DF 68 02 69 F0 05 F9
 (447.044441)  can0  460   [4]  03 2F E0 12
 (447.044661)  can0  462   [4]  9F 3C E0 12
 (447.044859)  can0  464   [8]  68 E1 68 02 35 F0 05 F9
 (448.058795)  can0  460   [4]  FE 31 B5 12
 (448.058998)  can0  462   [4]  E6 3B B5 12
 (448.059186)  can0  464   [8]  E7 E2 68 02 04 F0 05 F9
 (448.975925)  can0  460   [4]  66 34 8B 12
 (448.976129)  can0  462   [4]  2D 3B 8B 12
 (448.976316)  can0  464   [8]  62 E4 68 02 D3 EF 05 F9
 (449.996635)  can0  460   [4]  36 36 62 12
 (449.996837)  can0  462   [4]  74 3A 62 12
 (449.997024)  can0  464   [8]  D8 E5 68 02 A5 EF 05 F9
 (451.016569)  can0  460   [4]  C3 38 39 12
 (451.016770)  can0  462   [4]  BA 39 39 12
 (451.016955)  can0  464   [8]  49 E7 68 02 78 EF 05 F9
 (452.034582)  can0  460   [4]  BC 38 10 12
 (452.034786)  can0  462   [4]  EF 38 10 12
 (452.034973)  can0  464   [8]  B6 E8 68 02 4D EF 05 F9
 (453.052769)  can0  460   [4]  E6 37 E8 11
 (453.052969)  can0  462   [4]  48 38 E8 11
 (453.053156)  can0  464   [8]  1E EA 68 02 23 EF 05 F9
 (454.068864)  can0  460   [4]  42 36 C1 11
 (454.069068)  can0  462   [4]  8F 37 C1 11
 (454.069256)  can0  464   [8]  82 EB 68 02 FC EE 05 F9
 (454.988089)  can0  460   [4]  1C 34 9A 11
 (454.988291)  can0  462   [4]  D6 36 9A 11
 (454.988478)  can0  464   [8]  E2 EC 68 02 D5 EE 05 F9
 (456.008632)  can0  460   [4]  0C 2F 74 11
 (456.008833)  can0  462   [4]  1C 36 74 11
 (456.009020)  can0  464   [8]  3D EE 68 02 B1 EE 05 F9
 (457.028814)  can0  460   [4]  8E 2B 4E 11
 (457.029016)  can0  462   [4]  63 35 4E 11
 (457.029202)  can0  464   [8]  94 EF 68 02 8E EE 05 F9
 (458.044561)  can0  460   [4]  B5 27 29 11
 (458.044767)  can0  462   [4]  AA 34 29 11
 (458.044954)  can0  464   [8]  E6 F0 68 02 6C EE 05 F9
 (459.062495)  can0  460   [4]  90 23 04 11
 (459.062698)  can0  462   [4]  F1 33 04 11
 (459.062887)  can0  464   [8]  33 F2 68 02 4C EE 05 F9
 (459.982061)  can0  460   [4]  F3 1A E0 10
 (459.982263)  can0  462   [4]  38 33 E0 10
 (459.982450)  can0  464   [8]  7C F3 68 02 2D EE 05 F9
 (461.000600)  can0  460   [4]  26 16 BC 10
 (461.000829)  can0  462   [4]  7E 32 BC 10
 (461.001028)  can0  464   [8]  C0 F4 68 02 0F EE 05 F9
 (462.016709)  can0  460   [4]  3B 11 99 10
 (462.016924)  can0  462   [4]  B3 31 99 10
 (462.017115)  can0  464   [8]  00 F6 68 02 F3 ED 05 F9
 (463.032724)  can0  460   [4]  50 0C 77 10
 (463.032949)  can0  462   [4]  FA 30 77 10
 (463.033140)  can0  464   [8]  3A F7 68 02 D9 ED 05 F9
 (464.044554)  can0  460   [4]  9C 02 55 10
 (464.044769)  can0  462   [4]  40 30 55 10
 (464.044959)  can0  464   [8]  70 F8 68 02 BF ED 05 F9
 (465.057008)  can0  460   [4]  00 00 33 10
 (465.057227)  can0  462   [4]  87 2F 33 10
 (465.057420)  can0  464   [8]  A2 F9 68 02 A7 ED 05 F9
 (466.070147)  can0  460   [4]  00 00 12 10
 (466.070361)  can0  462   [4]  CE 2E 12 10
 (466.070552)  can0  464   [8]  CF FA 68 02 90 ED 05 F9
 (466.984418)  can0  460   [4]  00 00 F2 0F
 (466.984633)  can0  462   [4]  27 2E F2 0F
 (466.984824)  can0  464   [8]  F7 FB 68 02 7A ED 05 F9
 (467.997042)  can0  460   [4]  00 00 D2 0F
 (467.997246)  can0  462   [4]  81 2D D2 0F
 (467.997432)  can0  464   [8]  1B FD 68 02 66 ED 05 F9
 (469.013056)  can0  460   [4]  00 00 B2 0F
 (469.013260)  can0  462   [4]  C7 2C B2 0F
 (469.013446)  can0  464   [8]  3B FE 68 02 52 ED 05 F9
 (470.028186)  can0  460   [4]  00 00 93 0F
 (470.028390)  can0  462   [4]  0E 2C 93 0F
 (470.028575)  can0  464   [8]  57 FF 68 02 40 ED 05 F9
 (471.042899)  can0  460   [4]  00 00 75 0F
 (471.043102)  can0  462   [4]  68 2B 75 0F
 (471.043287)  can0  464   [8]  6E 00 69 02 2F ED 05 F9
 (472.058999)  can0  460   [4]  00 00 57 0F
 (472.059203)  can0  462   [4]  AE 2A 57 0F
 (472.059390)  can0  464   [8]  81 01 69 02 20 ED 05 F9
 (472.976490)  can0  460   [4]  00 00 39 0F
 (472.976690)  can0  462   [4]  F5 29 39 0F
 (472.976876)  can0  464   [8]  8F 02 69 02 11 ED 05 F9
 (473.988330)  can0  460   [4]  00 00 1C 0F
 (473.988531)  can0  462   [4]  3C 29 1C 0F
 (473.988718)  can0  464   [8]  98 03 69 02 03 ED 05 F9
 (475.007123)  can0  460   [4]  00 00 00 0F
 (475.007329)  can0  462   [4]  83 28 00 0F
 (475.007517)  can0  464   [8]  9D 04 69 02 F6 EC 05 F9
 (476.031153)  can0  460   [4]  00 00 E4 0E
 (476.031362)  can0  462   [4]  CA 27 E4 0E
 (476.031552)  can0  464   [8]  9E 05 69 02 EB EC 05 F9
 (477.050275)  can0  460   [4]  00 00 C9 0E
 (477.050481)  can0  462   [4]  35 27 C9 0E
 (477.050668)  can0  464   [8]  9A 06 69 02 E0 EC 05 F9
 (478.067157)  can0  460   [4]  00 00 AE 0E
 (478.067360)  can0  462   [4]  8F 26 AE 0E
 (478.067546)  can0  464   [8]  92 07 69 02 D6 EC 05 F9
 (478.983085)  can0  460   [4]  00 00 94 0E
 (478.983286)  can0  462   [4]  E8 25 94 0E
 (478.983474)  can0  464   [8]  86 08 69 02 CD EC 05 F9
 (480.001184)  can0  460   [4]  00 00 7A 0E
 (480.001385)  can0  462   [4]  41 25 7A 0E
 (480.001572)  can0  464   [8]  76 09 69 02 C4 EC 05 F9
 (481.017104)  can0  460   [4]  00 00 60 0E
 (481.017308)  can0  462   [4]  9B 24 60 0E
 (481.017495)  can0  464   [8]  62 0A 69 02 BD EC 05 F9
 (482.035119)  can0  460   [4]  00 00 47 0E
 (482.035336)  can0  462   [4]  F4 23 47 0E
 (482.035525)  can0  464   [8]  49 0B 69 02 B6 EC 05 F9
 (483.052787)  can0  460   [4]  00 00 32 22
 (483.052991)  can0  462   [4]  25 00 32 22
 (483.053177)  can0  464   [8]  04 5A 68 02 33 12 06 F9
 (484.065316)  can0  460   [4]  00 00 2F 22
 (484.065563)  can0  464   [8]  20 5A 68 02 33 12 06 F9
 (484.066314)  can0  462   [4]  4C 0C 2F 22
 (484.066499)  can0  468   [2]  50 00
 (484.980633)  can0  460   [4]  00 00 27 22
 (484.980835)  can0  462   [4]  14 0C 27 22
 (484.981021)  can0  464   [8]  6E 5A 68 02 33 12 06 F9
 (485.997003)  can0  460   [4]  00 00 1F 22
 (485.997203)  can0  462   [4]  EF 0B 1F 22
 (485.997391)  can0  464   [8]  BB 5A 68 02 34 12 06 F9
 (487.008665)  can0  460   [4]  00 00 1D 22
 (487.008868)  can0  462   [4]  F4 01 1D 22
 (487.009054)  can0  464   [8]  C7 5A 68 02 34 12 06 F9
 (488.022847)  can0  460   [4]  00 00 1C 22
 (488.023049)  can0  462   [4]  E1 01 1C 22
 (488.023237)  can0  464   [8]  D3 5A 68 02 34 12 06 F9
 (489.037031)  can0  460   [4]  00 00 1C 22
 (489.037232)  can0  462   [4]  6F 00 1C 22
 (489.037417)  can0  464   [8]  D6 5A 68 02 34 12 06 F9
 (490.050884)  can0  460   [4]  00 00 1C 22
 (490.051090)  can0  462   [4]  25 00 1C 22
 (490.051279)  can0  464   [8]  D7 5A 68 02 34 12 06 F9
 (491.062883)  can0  460   [4]  00 00 1B 22
 (491.063088)  can0  462   [4]  12 00 1B 22
 (491.063274)  can0  464   [8]  D8 5A 68 02 34 12 06 F9
 (492.074987)  can0  460   [4]  00 00 1B 22
 (492.075189)  can0  462   [4]  12 00 1B 22
 (492.075377)  can0  464   [8]  D8 5A 68 02 34 12 06 F9
 (492.988908)  can0  460   [4]  00 00 1B 22
 (492.989110)  can0  462   [4]  12 00 1B 22
 (492.989297)  can0  464   [8]  D8 5A 68 02 34 12 06 F9
 (494.001023)  can0  460   [4]  00 00 1B 22
 (494.001233)  can0  462   [4]  25 00 1B 22
 (494.001423)  can0  464   [8]  D9 5A 68 02 34 12 06 F9
 (495.012757)  can0  460   [4]  00 00 1B 22
 (495.012960)  can0  462   [4]  25 00 1B 22
 (495.013148)  can0  464   [8]  DA 5A 68 02 34 12 06 F9
 (496.024781)  can0  460   [4]  02 00 1B 22
 (496.024990)  can0  462   [4]  37 00 1B 22
 (496.025177)  can0  464   [8]  DB 5A 68 02 35 12 06 F9
 (497.036956)  can0  460   [4]  03 00 1B 22
 (497.037158)  can0  462   [4]  4A 00 1B 22
 (497.037344)  can0  464   [8]  DD 5A 68 02 35 12 06 F9
 (498.052791)  can0  460   [4]  5C 00 1B 22
 (498.052995)  can0  462   [4]  81 00 1B 22
 (498.053181)  can0  464   [8]  DF 5A 68 02 35 12 06 F9
 (499.069252)  can0  460   [4]  19 00 1A 22
 (499.069463)  can0  462   [4]  25 00 1A 22
 (499.069680)  can0  464   [8]  E1 5A 68 02 35 12 06 F9
 (499.988553)  can0  460   [4]  00 00 1A 22
 (499.988767)  can0  462   [4]  25 00 1A 22
 (499.988958)  can0  464   [8]  E2 5A 68 02 36 12 06 F9
 (501.005005)  can0  460   [4]  00 00 1A 22
 (501.005220)  can0  462   [4]  4A 00 1A 22
 (501.005412)  can0  464   [8]  E3 5A 68 02 38 12 06 F9
 (502.015032)  can0  460   [4]  00 00 1A 22
 (502.015268)  can0  462   [4]  25 00 1A 22
 (502.015468)  can0  464   [8]  E4 5A 68 02 38 12 06 F9
 (503.029053)  can0  460   [4]  2F 08 17 22
 (503.029281)  can0  462   [4]  FB 09 17 22
 (503.029476)  can0  464   [8]  0A 5B 68 02 7C 12 06 F9
 (504.045047)  can0  460   [4]  67 02 13 22
 (504.045272)  can0  462   [4]  F9 0E 13 22
 (504.045484)  can0  464   [8]  41 5B 68 02 E3 12 06 F9
 (505.057050)  can0  460   [4]  3D 05 0F 22
 (505.057264)  can0  462   [4]  D4 0E 0F 22
 (505.057455)  can0  464   [8]  78 5B 68 02 49 13 06 F9
 (506.069158)  can0  460   [4]  80 06 0B 22
 (506.069374)  can0  462   [4]  9D 0E 0B 22
 (506.069567)  can0  464   [8]  AF 5B 68 02 AE 13 06 F9
 (506.980650)  can0  460   [4]  E2 08 06 22
 (506.980878)  can0  462   [4]  78 0E 06 22
 (506.981069)  can0  464   [8]  E5 5B 68 02 11 14 06 F9
 (507.987474)  can0  460   [4]  D4 09 02 22
 (507.987694)  can0  462   [4]  40 0E 02 22
 (507.987888)  can0  464   [8]  1B 5C 68 02 73 14 06 F9
 (508.999101)  can0  460   [4]  A5 0A FE 21
 (508.999308)  can0  462   [4]  08 0E FE 21
 (508.999501)  can0  464   [8]  50 5C 68 02 D3 14 06 F9
 (510.007120)  can0  460   [4]  6C 01 FE 21
 (510.007354)  can0  462   [4]  BC 01 FE 21
 (510.007547)  can0  464   [8]  56 5C 68 02 DF 14 06 F9
 (511.013235)  can0  460   [4]  73 01 FD 21
 (511.013458)  can0  462   [4]  A9 01 FD 21
 (511.013651)  can0  464   [8]  5C 5C 68 02 EA 14 06 F9
 (512.018963)  can0  460   [4]  65 00 FD 21
 (512.019186)  can0  462   [4]  6F 00 FD 21
 (512.019392)  can0  464   [8]  5E 5C 68 02 ED 14 06 F9
 (513.025170)  can0  460   [4]  23 00 FD 21
 (513.025397)  can0  462   [4]  25 00 FD 21
 (513.025594)  can0  464   [8]  5F 5C 68 02 EE 14 06 F9
 (514.031252)  can0  460   [4]  12 00 2A 22
 (514.031483)  can0  462   [4]  12 00 2A 22
 (514.031678)  can0  464   [8]  5D 5A 68 02 6D 12 06 F9
 (515.038842)  can0  460   [4]  00 00 2C 22
 (515.039068)  can0  462   [4]  00 00 2C 22
 (515.039259)  can0  464   [8]  49 5A 68 02 52 12 06 F9
