 (000.000000)  can0  421   [2]  00 00
 (000.070910)  can0  421   [2]  00 00
 (000.141851)  can0  421   [2]  00 00
 (000.212766)  can0  421   [2]  00 00
 (000.283681)  can0  421   [2]  00 00
 (000.354606)  can0  421   [2]  00 00
 (000.425527)  can0  421   [2]  00 00
 (000.496457)  can0  421   [2]  00 00
 (000.567384)  can0  421   [2]  00 00
 (000.638311)  can0  421   [2]  00 00
 (000.709236)  can0  421   [2]  00 00
 (000.780159)  can0  421   [2]  00 00
 (000.851086)  can0  421   [2]  00 00
 (000.922011)  can0  421   [2]  00 00
 (000.992945)  can0  421   [2]  00 00
 (001.063876)  can0  421   [2]  00 00
 (001.134801)  can0  421   [2]  00 00
 (001.205733)  can0  421   [2]  00 00
 (001.276662)  can0  421   [2]  00 00
 (001.347595)  can0  421   [2]  00 00
 (001.418548)  can0  421   [2]  00 00
 (001.489482)  can0  421   [2]  00 00
 (001.560397)  can0  421   [2]  00 00
 (001.631382)  can0  421   [2]  00 00
 (001.702275)  can0  421   [2]  00 00
 (001.773214)  can0  421   [2]  00 00
 (001.844122)  can0  421   [2]  00 00
 (001.915060)  can0  421   [2]  00 00
 (001.985996)  can0  421   [2]  00 00
 (002.056901)  can0  421   [2]  00 00
 (002.127821)  can0  421   [2]  00 00
 (002.198749)  can0  421   [2]  00 00
 (002.269680)  can0  421   [2]  00 00
 (002.340629)  can0  421   [2]  00 00
 (002.411538)  can0  421   [2]  00 00
 (002.482471)  can0  421   [2]  00 00
 (002.553397)  can0  421   [2]  00 00
 (002.624310)  can0  421   [2]  00 00
 (002.695231)  can0  421   [2]  00 00
 (002.766152)  can0  421   [2]  00 00
 (002.837079)  can0  421   [2]  00 00
 (002.908014)  can0  421   [2]  00 00
 (002.978927)  can0  421   [2]  00 00
 (003.049856)  can0  421   [2]  00 00
 (003.120780)  can0  421   [2]  00 00
 (003.191726)  can0  421   [2]  00 00
 (003.262646)  can0  421   [2]  00 00
 (003.333568)  can0  421   [2]  00 00
 (003.394826)  can0  422   [1]  00
 (003.404223)  can0  421   [2]  00 01
 (003.475146)  can0  421   [2]  00 01
 (003.546062)  can0  421   [2]  00 01
 (003.616965)  can0  421   [2]  00 01
 (003.687883)  can0  421   [2]  00 01
 (003.758825)  can0  421   [2]  00 01
 (003.829984)  can0  421   [2]  00 00
 (003.900897)  can0  421   [2]  00 00
 (003.971527)  can0  421   [2]  00 02
 (004.042447)  can0  421   [2]  00 02
 (004.113371)  can0  421   [2]  00 02
 (004.184275)  can0  421   [2]  00 02
 (004.255201)  can0  421   [2]  00 02
 (004.326381)  can0  421   [2]  00 00
 (004.394663)  can0  422   [1]  00
 (004.397263)  can0  421   [2]  00 00
 (004.468210)  can0  421   [2]  00 00
 (004.539122)  can0  421   [2]  00 00
 (004.610065)  can0  421   [2]  00 00
 (004.680979)  can0  421   [2]  00 00
 (004.751888)  can0  421   [2]  00 00
 (004.822811)  can0  421   [2]  00 00
 (004.893759)  can0  421   [2]  00 00
 (004.964684)  can0  421   [2]  00 00
 (005.035613)  can0  421   [2]  00 00
 (005.106529)  can0  421   [2]  00 00
 (005.177457)  can0  421   [2]  00 00
 (005.248378)  can0  421   [2]  00 00
 (005.319316)  can0  421   [2]  00 00
 (005.390233)  can0  421   [2]  00 00
 (005.394615)  can0  422   [1]  00
 (005.461166)  can0  421   [2]  00 00
 (005.532097)  can0  421   [2]  00 00
 (005.603019)  can0  421   [2]  00 00
 (005.673938)  can0  421   [2]  00 00
 (005.744857)  can0  421   [2]  00 00
 (005.815780)  can0  421   [2]  00 00
 (005.886712)  can0  421   [2]  00 00
 (005.957635)  can0  421   [2]  00 00
 (006.028581)  can0  421   [2]  00 00
 (006.099497)  can0  421   [2]  00 00
 (006.170413)  can0  421   [2]  00 00
 (006.241313)  can0  421   [2]  00 00
 (006.312263)  can0  421   [2]  00 00
 (006.383182)  can0  421   [2]  00 00
 (006.394581)  can0  422   [1]  00
 (006.454087)  can0  421   [2]  00 00
 (006.525038)  can0  421   [2]  00 00
 (006.596023)  can0  421   [2]  00 00
 (006.666871)  can0  421   [2]  00 00
 (006.737796)  can0  421   [2]  00 00
 (006.808719)  can0  421   [2]  00 00
 (006.879642)  can0  421   [2]  00 00
 (006.950566)  can0  421   [2]  00 00
 (007.021488)  can0  421   [2]  00 00
 (007.092407)  can0  421   [2]  00 00
 (007.163351)  can0  421   [2]  00 00
 (007.234267)  can0  421   [2]  00 00
 (007.305190)  can0  421   [2]  00 00
 (007.376117)  can0  421   [2]  00 00
 (007.394585)  can0  422   [1]  00
 (007.447048)  can0  421   [2]  00 00
 (007.517993)  can0  421   [2]  00 00
 (007.588907)  can0  421   [2]  00 00
 (007.659834)  can0  421   [2]  00 00
 (007.730763)  can0  421   [2]  00 00
 (007.801689)  can0  421   [2]  00 00
 (007.872622)  can0  421   [2]  00 00
 (007.943537)  can0  421   [2]  00 00
 (008.014466)  can0  421   [2]  00 00
 (008.085387)  can0  421   [2]  00 00
 (008.156306)  can0  421   [2]  00 00
 (008.227238)  can0  421   [2]  00 00
 (008.298162)  can0  421   [2]  00 00
 (008.369087)  can0  421   [2]  00 00
 (008.394550)  can0  422   [1]  00
 (008.440012)  can0  421   [2]  00 00
 (008.510947)  can0  421   [2]  00 00
 (008.581870)  can0  421   [2]  00 00
 (008.652793)  can0  421   [2]  00 00
 (008.723727)  can0  421   [2]  00 00
 (008.794642)  can0  421   [2]  00 00
 (008.865554)  can0  421   [2]  00 00
 (008.936484)  can0  421   [2]  00 00
 (009.007399)  can0  421   [2]  00 00
 (009.078326)  can0  421   [2]  00 00
 (009.149245)  can0  421   [2]  00 00
 (009.220165)  can0  421   [2]  00 00
 (009.291091)  can0  421   [2]  00 00
 (009.362016)  can0  421   [2]  00 00
 (009.394534)  can0  422   [1]  00
 (009.432957)  can0  421   [2]  00 00
 (009.503877)  can0  421   [2]  00 00
 (009.574811)  can0  421   [2]  00 00
 (009.645728)  can0  421   [2]  00 00
 (009.716652)  can0  421   [2]  00 00
 (009.787575)  can0  421   [2]  00 00
 (009.858495)  can0  421   [2]  00 00
 (009.929415)  can0  421   [2]  00 00
 (010.000329)  can0  421   [2]  00 00
 (010.071256)  can0  421   [2]  00 00
 (010.142178)  can0  421   [2]  00 00
 (010.213098)  can0  421   [2]  00 00
 (010.284027)  can0  421   [2]  00 00
 (010.354945)  can0  421   [2]  00 00
 (010.394497)  can0  422   [1]  00
 (010.425872)  can0  421   [2]  00 00
 (010.496799)  can0  421   [2]  00 00
 (010.567728)  can0  421   [2]  00 00
 (010.638668)  can0  421   [2]  00 00
 (010.709573)  can0  421   [2]  00 00
 (010.780504)  can0  421   [2]  00 00
 (010.851421)  can0  421   [2]  00 00
 (010.922350)  can0  421   [2]  00 00
 (010.993295)  can0  421   [2]  00 00
 (011.064214)  can0  421   [2]  00 00
 (011.135142)  can0  421   [2]  00 00
 (011.206059)  can0  421   [2]  00 00
 (011.276977)  can0  421   [2]  00 00
 (011.347891)  can0  421   [2]  00 00
 (011.394470)  can0  422   [1]  00
 (011.418817)  can0  421   [2]  00 00
 (011.489735)  can0  421   [2]  00 00
 (011.560638)  can0  421   [2]  00 00
 (011.631553)  can0  421   [2]  00 00
 (011.702457)  can0  421   [2]  00 00
 (011.773382)  can0  421   [2]  00 00
 (011.844290)  can0  421   [2]  00 00
 (011.915213)  can0  421   [2]  00 00
 (011.986118)  can0  421   [2]  00 00
 (012.057029)  can0  421   [2]  00 00
 (012.127943)  can0  421   [2]  00 00
 (012.198843)  can0  421   [2]  00 00
 (012.269745)  can0  421   [2]  00 00
 (012.340659)  can0  421   [2]  00 00
 (012.394454)  can0  422   [1]  00
 (012.411593)  can0  421   [2]  00 00
 (012.482476)  can0  421   [2]  00 00
 (012.553391)  can0  421   [2]  00 00
 (012.624305)  can0  421   [2]  00 00
 (012.695248)  can0  421   [2]  00 00
 (012.766149)  can0  421   [2]  00 00
 (012.837060)  can0  421   [2]  00 00
 (012.907982)  can0  421   [2]  00 00
 (012.978870)  can0  421   [2]  00 00
 (013.049788)  can0  421   [2]  00 00
 (013.120698)  can0  421   [2]  00 00
 (013.191613)  can0  421   [2]  00 00
 (013.262539)  can0  421   [2]  00 00
 (013.333460)  can0  421   [2]  00 00
 (013.394419)  can0  422   [1]  00
 (013.404385)  can0  421   [2]  00 00
 (013.475307)  can0  421   [2]  00 00
 (013.546245)  can0  421   [2]  00 00
 (013.617160)  can0  421   [2]  00 00
 (013.688088)  can0  421   [2]  00 00
 (013.759019)  can0  421   [2]  00 00
 (013.829934)  can0  421   [2]  00 00
 (013.900860)  can0  421   [2]  00 00
 (013.971763)  can0  421   [2]  00 00
 (014.042675)  can0  421   [2]  00 00
 (014.113597)  can0  421   [2]  00 00
 (014.184508)  can0  421   [2]  00 00
 (014.255434)  can0  421   [2]  00 00
 (014.326319)  can0  421   [2]  00 00
 (014.394381)  can0  422   [1]  00
 (014.397208)  can0  421   [2]  00 00
 (014.468227)  can0  421   [2]  00 00
 (014.539072)  can0  421   [2]  00 00
 (014.609995)  can0  421   [2]  00 00
 (014.680908)  can0  421   [2]  00 00
 (014.751825)  can0  421   [2]  00 00
 (014.822748)  can0  421   [2]  00 00
 (014.893658)  can0  421   [2]  00 00
 (014.964587)  can0  421   [2]  00 00
 (015.035508)  can0  421   [2]  00 00
 (015.106428)  can0  421   [2]  00 00
 (015.177362)  can0  421   [2]  00 00
 (015.248292)  can0  421   [2]  00 00
 (015.319218)  can0  421   [2]  00 00
 (015.390144)  can0  421   [2]  00 00
 (015.394336)  can0  422   [1]  00
 (015.461054)  can0  421   [2]  00 00
 (015.531979)  can0  421   [2]  00 00
 (015.602884)  can0  421   [2]  00 00
 (015.673813)  can0  421   [2]  00 00
 (015.744717)  can0  421   [2]  00 00
 (015.815658)  can0  421   [2]  00 00
 (015.886572)  can0  421   [2]  00 00
 (015.957517)  can0  421   [2]  00 00
 (016.028423)  can0  421   [2]  00 00
 (016.099350)  can0  421   [2]  00 00
 (016.170276)  can0  421   [2]  00 00
 (016.241193)  can0  421   [2]  00 00
 (016.312111)  can0  421   [2]  00 00
 (016.383045)  can0  421   [2]  00 00
 (016.394322)  can0  422   [1]  00
 (016.453952)  can0  421   [2]  00 00
 (016.524885)  can0  421   [2]  00 00
 (016.595797)  can0  421   [2]  00 00
 (016.666744)  can0  421   [2]  00 00
 (016.737654)  can0  421   [2]  00 00
 (016.808590)  can0  421   [2]  00 00
 (016.879508)  can0  421   [2]  00 00
 (016.950422)  can0  421   [2]  00 00
 (017.021329)  can0  421   [2]  00 00
 (017.092256)  can0  421   [2]  00 00
 (017.163175)  can0  421   [2]  00 00
 (017.234094)  can0  421   [2]  00 00
 (017.305011)  can0  421   [2]  00 00
 (017.375931)  can0  421   [2]  00 00
 (017.394295)  can0  422   [1]  00
 (017.446840)  can0  421   [2]  00 00
 (017.517756)  can0  421   [2]  00 00
 (017.588685)  can0  421   [2]  00 00
 (017.659610)  can0  421   [2]  00 00
 (017.730520)  can0  421   [2]  00 00
 (017.801437)  can0  421   [2]  00 00
 (017.872343)  can0  421   [2]  00 00
 (017.943267)  can0  421   [2]  00 00
 (018.014168)  can0  421   [2]  00 00
 (018.085096)  can0  421   [2]  00 00
 (018.156003)  can0  421   [2]  00 00
 (018.226920)  can0  421   [2]  00 00
 (018.297840)  can0  421   [2]  00 00
 (018.368747)  can0  421   [2]  00 00
 (018.394262)  can0  422   [1]  00
 (018.439655)  can0  421   [2]  00 00
 (018.510558)  can0  421   [2]  00 00
 (018.581475)  can0  421   [2]  00 00
 (018.652385)  can0  421   [2]  00 00
 (018.723302)  can0  421   [2]  00 00
 (018.794212)  can0  421   [2]  00 00
 (018.865137)  can0  421   [2]  00 00
 (018.936038)  can0  421   [2]  00 00
 (019.006963)  can0  421   [2]  00 00
 (019.077874)  can0  421   [2]  00 00
 (019.148804)  can0  421   [2]  00 00
 (019.219721)  can0  421   [2]  00 00
 (019.290645)  can0  421   [2]  00 00
 (019.361570)  can0  421   [2]  00 00
 (019.394243)  can0  422   [1]  00
 (019.432492)  can0  421   [2]  00 00
 (019.503400)  can0  421   [2]  00 00
 (019.574310)  can0  421   [2]  00 00
 (019.645227)  can0  421   [2]  00 00
 (019.716144)  can0  421   [2]  00 00
 (019.787060)  can0  421   [2]  00 00
 (019.857972)  can0  421   [2]  00 00
 (019.928888)  can0  421   [2]  00 00
 (019.999798)  can0  421   [2]  00 00
 (020.070716)  can0  421   [2]  00 00
 (020.141618)  can0  421   [2]  00 00
 (020.212538)  can0  421   [2]  00 00
 (020.283454)  can0  421   [2]  00 00
 (020.354363)  can0  421   [2]  00 00
 (020.394213)  can0  422   [1]  00
 (020.425270)  can0  421   [2]  00 00
 (020.496194)  can0  421   [2]  00 00
 (020.567103)  can0  421   [2]  00 00
 (020.638010)  can0  421   [2]  00 00
 (020.708944)  can0  421   [2]  00 00
 (020.779840)  can0  421   [2]  00 00
 (020.850766)  can0  421   [2]  00 00
 (020.921661)  can0  421   [2]  00 00
 (020.992581)  can0  421   [2]  00 00
 (021.063494)  can0  421   [2]  00 00
 (021.134413)  can0  421   [2]  00 00
 (021.205325)  can0  421   [2]  00 00
 (021.276243)  can0  421   [2]  00 00
 (021.347153)  can0  421   [2]  00 00
 (021.394183)  can0  422   [1]  00
 (021.418067)  can0  421   [2]  00 00
 (021.488985)  can0  421   [2]  00 00
 (021.559900)  can0  421   [2]  00 00
 (021.630819)  can0  421   [2]  00 00
 (021.701736)  can0  421   [2]  00 00
 (021.772662)  can0  421   [2]  00 00
 (021.843588)  can0  421   [2]  00 00
 (021.914495)  can0  421   [2]  00 00
 (021.985422)  can0  421   [2]  00 00
 (022.056341)  can0  421   [2]  00 00
 (022.127246)  can0  421   [2]  00 00
 (022.198164)  can0  421   [2]  00 00
 (022.269091)  can0  421   [2]  00 00
 (022.340007)  can0  421   [2]  00 00
 (022.394155)  can0  422   [1]  00
 (022.410940)  can0  421   [2]  00 00
 (022.481847)  can0  421   [2]  00 00
 (022.552762)  can0  421   [2]  00 00
 (022.623679)  can0  421   [2]  00 00
 (022.694596)  can0  421   [2]  00 00
 (022.765530)  can0  421   [2]  00 00
 (022.836439)  can0  421   [2]  00 00
 (022.907363)  can0  421   [2]  00 00
 (022.978283)  can0  421   [2]  00 00
 (023.049200)  can0  421   [2]  00 00
 (023.120119)  can0  421   [2]  00 00
 (023.191024)  can0  421   [2]  00 00
 (023.261932)  can0  421   [2]  00 00
 (023.332837)  can0  421   [2]  00 00
 (023.394124)  can0  422   [1]  00
 (023.403730)  can0  421   [2]  00 00
 (023.474669)  can0  421   [2]  00 00
 (023.545577)  can0  421   [2]  00 00
 (023.616486)  can0  421   [2]  00 00
 (023.687406)  can0  421   [2]  00 00
 (023.758313)  can0  421   [2]  00 00
 (023.829234)  can0  421   [2]  00 00
 (023.900133)  can0  421   [2]  00 00
 (023.971038)  can0  421   [2]  00 00
 (024.041959)  can0  421   [2]  00 00
 (024.112872)  can0  421   [2]  00 00
 (024.183789)  can0  421   [2]  00 00
 (024.254704)  can0  421   [2]  00 00
 (024.325629)  can0  421   [2]  00 00
 (024.394107)  can0  422   [1]  00
 (024.396543)  can0  421   [2]  00 00
 (024.467478)  can0  421   [2]  00 00
 (024.538387)  can0  421   [2]  00 00
 (024.609306)  can0  421   [2]  00 00
 (024.680225)  can0  421   [2]  00 00
 (024.751155)  can0  421   [2]  00 00
 (024.822053)  can0  421   [2]  00 00
 (024.892966)  can0  421   [2]  00 00
 (024.963886)  can0  421   [2]  00 00
 (025.034821)  can0  421   [2]  00 00
 (025.105736)  can0  421   [2]  00 00
 (025.176649)  can0  421   [2]  00 00
 (025.247567)  can0  421   [2]  00 00
 (025.318500)  can0  421   [2]  00 00
 (025.389418)  can0  421   [2]  00 00
 (025.394063)  can0  422   [1]  00
 (025.460341)  can0  421   [2]  00 00
 (025.531250)  can0  421   [2]  00 00
 (025.602174)  can0  421   [2]  00 00
 (025.673102)  can0  421   [2]  00 00
 (025.744012)  can0  421   [2]  00 00
 (025.814948)  can0  421   [2]  00 00
 (025.885861)  can0  421   [2]  00 00
 (025.956797)  can0  421   [2]  00 00
 (026.027709)  can0  421   [2]  00 00
 (026.098626)  can0  421   [2]  00 00
 (026.169546)  can0  421   [2]  00 00
 (026.240459)  can0  421   [2]  00 00
 (026.311372)  can0  421   [2]  00 00
 (026.382290)  can0  421   [2]  00 00
 (026.394030)  can0  422   [1]  00
 (026.453189)  can0  421   [2]  00 00
 (026.524104)  can0  421   [2]  00 00
 (026.595013)  can0  421   [2]  00 00
 (026.665938)  can0  421   [2]  00 00
 (026.736856)  can0  421   [2]  00 00
 (026.807769)  can0  421   [2]  00 00
 (026.878692)  can0  421   [2]  00 00
 (026.949607)  can0  421   [2]  00 00
 (027.020521)  can0  421   [2]  00 00
 (027.091447)  can0  421   [2]  00 00
 (027.162357)  can0  421   [2]  00 00
 (027.233292)  can0  421   [2]  00 00
 (027.304200)  can0  421   [2]  00 00
 (027.375127)  can0  421   [2]  00 00
 (027.394007)  can0  422   [1]  00
 (027.446047)  can0  421   [2]  00 00
 (027.516962)  can0  421   [2]  00 00
 (027.587877)  can0  421   [2]  00 00
 (027.658800)  can0  421   [2]  00 00
 (027.729729)  can0  421   [2]  00 00
 (027.800649)  can0  421   [2]  00 00
 (027.871585)  can0  421   [2]  00 00
 (027.942504)  can0  421   [2]  00 00
 (028.013451)  can0  421   [2]  00 00
 (028.084358)  can0  421   [2]  00 00
 (028.155290)  can0  421   [2]  00 00
 (028.226221)  can0  421   [2]  00 00
 (028.297143)  can0  421   [2]  00 00
 (028.368076)  can0  421   [2]  00 00
 (028.393979)  can0  422   [1]  00
 (028.439000)  can0  421   [2]  00 00
 (028.509928)  can0  421   [2]  00 00
 (028.580844)  can0  421   [2]  00 00
 (028.651763)  can0  421   [2]  00 00
 (028.722695)  can0  421   [2]  00 00
 (028.793612)  can0  421   [2]  00 00
 (028.864514)  can0  421   [2]  00 00
 (028.935425)  can0  421   [2]  00 00
 (029.006355)  can0  421   [2]  00 00
 (029.077279)  can0  421   [2]  00 00
 (029.148204)  can0  421   [2]  00 00
 (029.219138)  can0  421   [2]  00 00
 (029.290039)  can0  421   [2]  00 00
 (029.360951)  can0  421   [2]  00 00
 (029.393963)  can0  422   [1]  00
 (029.431886)  can0  421   [2]  00 00
 (029.502799)  can0  421   [2]  00 00
 (029.573708)  can0  421   [2]  00 00
 (029.644620)  can0  421   [2]  00 00
 (029.715532)  can0  421   [2]  00 00
 (029.786431)  can0  421   [2]  00 00
 (029.857324)  can0  421   [2]  00 00
 (029.928223)  can0  421   [2]  00 00
 (029.999128)  can0  421   [2]  00 00
 (030.070041)  can0  421   [2]  00 00
 (030.140952)  can0  421   [2]  00 00
 (030.211861)  can0  421   [2]  00 00
 (030.282765)  can0  421   [2]  00 00
 (030.353672)  can0  421   [2]  00 00
 (030.393924)  can0  422   [1]  00
 (030.424569)  can0  421   [2]  00 00
 (030.495474)  can0  421   [2]  00 00
 (030.566382)  can0  421   [2]  00 00
 (030.637293)  can0  421   [2]  00 00
 (030.708218)  can0  421   [2]  00 00
 (030.779130)  can0  421   [2]  00 00
 (030.850061)  can0  421   [2]  00 00
 (030.920981)  can0  421   [2]  00 00
 (030.991889)  can0  421   [2]  00 00
 (031.062821)  can0  421   [2]  00 00
 (031.133723)  can0  421   [2]  00 00
 (031.204632)  can0  421   [2]  00 00
 (031.275555)  can0  421   [2]  00 00
 (031.346486)  can0  421   [2]  00 00
 (031.393892)  can0  422   [1]  00
 (031.417400)  can0  421   [2]  00 00
 (031.488329)  can0  421   [2]  00 00
 (031.559246)  can0  421   [2]  00 00
 (031.630177)  can0  421   [2]  00 00
 (031.701101)  can0  421   [2]  00 00
 (031.772028)  can0  421   [2]  00 00
 (031.842957)  can0  421   [2]  00 00
 (031.913867)  can0  421   [2]  00 00
 (031.984789)  can0  421   [2]  00 00
 (032.055692)  can0  421   [2]  00 00
 (032.126606)  can0  421   [2]  00 00
 (032.197504)  can0  421   [2]  00 00
 (032.268417)  can0  421   [2]  00 00
 (032.339322)  can0  421   [2]  00 00
 (032.393871)  can0  422   [1]  00
 (032.410231)  can0  421   [2]  00 00
 (032.481154)  can0  421   [2]  00 00
 (032.552063)  can0  421   [2]  00 00
 (032.622982)  can0  421   [2]  00 00
 (032.693901)  can0  421   [2]  00 00
 (032.764816)  can0  421   [2]  00 00
 (032.835726)  can0  421   [2]  00 00
 (032.906636)  can0  421   [2]  00 00
 (032.977557)  can0  421   [2]  00 00
 (033.048465)  can0  421   [2]  00 00
 (033.119388)  can0  421   [2]  00 00
 (033.190313)  can0  421   [2]  00 00
 (033.261235)  can0  421   [2]  00 00
 (033.332141)  can0  421   [2]  00 00
 (033.393837)  can0  422   [1]  00
 (033.403044)  can0  421   [2]  00 00
 (033.473975)  can0  421   [2]  00 00
 (033.544871)  can0  421   [2]  00 00
 (033.615803)  can0  421   [2]  00 00
 (033.686686)  can0  421   [2]  00 00
 (033.757591)  can0  421   [2]  00 00
 (033.828498)  can0  421   [2]  00 00
 (033.899414)  can0  421   [2]  00 00
 (033.970318)  can0  421   [2]  00 00
 (034.041222)  can0  421   [2]  00 00
 (034.112138)  can0  421   [2]  00 00
 (034.183045)  can0  421   [2]  00 00
 (034.253955)  can0  421   [2]  00 00
 (034.324868)  can0  421   [2]  00 00
 (034.393821)  can0  422   [1]  00
 (034.395161)  can0  460   [4]  2B 02 00 00
 (034.395354)  can0  462   [4]  2B 02 00 00
 (034.395540)  can0  464   [8]  AF 00 B6 02 84 8C 7E 00
 (034.395770)  can0  421   [2]  00 00
 (034.466678)  can0  421   [2]  00 00
 (034.537570)  can0  421   [2]  00 00
 (034.608469)  can0  421   [2]  00 00
 (034.679374)  can0  421   [2]  00 00
 (034.750278)  can0  421   [2]  00 00
 (034.821183)  can0  421   [2]  00 00
 (034.892095)  can0  421   [2]  00 00
 (034.962997)  can0  421   [2]  00 00
 (035.033899)  can0  421   [2]  00 00
 (035.104803)  can0  421   [2]  00 00
 (035.175704)  can0  421   [2]  00 00
 (035.246609)  can0  421   [2]  00 00
 (035.317529)  can0  421   [2]  00 00
 (035.379643)  can0  460   [4]  3E 02 01 00
 (035.379849)  can0  462   [4]  3E 02 01 00
 (035.380037)  can0  464   [8]  BD 00 B6 02 7E 8C 7E 00
 (035.388400)  can0  421   [2]  00 00
 (035.393770)  can0  422   [1]  00
 (035.459369)  can0  421   [2]  00 00
 (035.530255)  can0  421   [2]  00 00
 (035.601150)  can0  421   [2]  00 00
 (035.672056)  can0  421   [2]  00 00
 (035.742957)  can0  421   [2]  00 00
 (035.813867)  can0  421   [2]  00 00
 (035.884777)  can0  421   [2]  00 00
 (035.955687)  can0  421   [2]  00 00
 (036.026612)  can0  421   [2]  00 00
 (036.097497)  can0  421   [2]  00 00
 (036.168398)  can0  421   [2]  00 00
 (036.239310)  can0  421   [2]  00 00
 (036.310228)  can0  421   [2]  00 00
 (036.381147)  can0  421   [2]  00 00
 (036.393744)  can0  422   [1]  00
 (036.437309)  can0  460   [4]  88 02 01 00
 (036.437567)  can0  464   [8]  CD 00 B6 02 79 8C 7E 00
 (036.438513)  can0  462   [4]  88 02 01 00
 (036.438710)  can0  468   [2]  AC 26
 (036.452065)  can0  421   [2]  00 00
 (036.522989)  can0  421   [2]  00 00
 (036.593898)  can0  421   [2]  00 00
 (036.664813)  can0  421   [2]  00 00
 (036.735712)  can0  421   [2]  00 00
 (036.806634)  can0  421   [2]  00 00
 (036.877533)  can0  421   [2]  00 00
 (036.948435)  can0  421   [2]  00 00
 (037.019345)  can0  421   [2]  00 00
 (037.090253)  can0  421   [2]  00 00
 (037.161162)  can0  421   [2]  00 00
 (037.232077)  can0  421   [2]  00 00
 (037.302979)  can0  421   [2]  00 00
 (037.373885)  can0  421   [2]  00 00
 (037.393736)  can0  422   [1]  00
 (037.408346)  can0  460   [4]  D2 02 01 00
 (037.408551)  can0  462   [4]  D2 02 01 00
 (037.408740)  can0  464   [8]  DE 00 B6 02 72 8C 7E 00
 (037.444797)  can0  421   [2]  00 00
 (037.515748)  can0  421   [2]  00 00
 (037.586610)  can0  421   [2]  00 00
 (037.657525)  can0  421   [2]  00 00
 (037.728439)  can0  421   [2]  00 00
 (037.799356)  can0  421   [2]  00 00
 (037.870262)  can0  421   [2]  00 00
 (037.941181)  can0  421   [2]  00 00
 (038.012081)  can0  421   [2]  00 00
 (038.082991)  can0  421   [2]  00 00
 (038.153899)  can0  421   [2]  00 00
 (038.224818)  can0  421   [2]  00 00
 (038.295722)  can0  421   [2]  00 00
 (038.366632)  can0  421   [2]  00 00
 (038.373511)  can0  460   [4]  1C 03 01 00
 (038.373754)  can0  464   [8]  F1 00 B6 02 6B 8C 7E 00
 (038.374530)  can0  462   [4]  1C 03 01 00
 (038.374722)  can0  468   [2]  AC 26
 (038.393695)  can0  422   [1]  00
 (038.437552)  can0  421   [2]  00 00
 (038.508456)  can0  421   [2]  00 00
 (038.579358)  can0  421   [2]  00 00
 (038.650278)  can0  421   [2]  00 00
 (038.720927)  can0  421   [2]  00 02
 (038.791835)  can0  421   [2]  00 02
 (038.862763)  can0  421   [2]  00 02
 (038.933665)  can0  421   [2]  00 02
 (039.004834)  can0  421   [2]  00 00
 (039.075747)  can0  421   [2]  00 00
 (039.146645)  can0  421   [2]  00 00
 (039.217562)  can0  421   [2]  00 00
 (039.288472)  can0  421   [2]  00 00
 (039.359390)  can0  421   [2]  00 00
 (039.393662)  can0  422   [1]  00
 (039.430047)  can0  421   [2]  00 01
 (039.500968)  can0  421   [2]  00 01
 (039.571885)  can0  421   [2]  00 01
 (039.642812)  can0  421   [2]  00 01
 (039.713721)  can0  421   [2]  00 01
 (039.784608)  can0  421   [2]  00 01
 (039.855780)  can0  421   [2]  00 00
 (039.926684)  can0  421   [2]  00 00
 (039.997588)  can0  421   [2]  00 00
 (040.068493)  can0  421   [2]  00 00
 (040.139397)  can0  421   [2]  00 00
 (040.210314)  can0  421   [2]  00 00
 (040.281243)  can0  421   [2]  00 00
 (040.352136)  can0  421   [2]  00 00
 (040.393637)  can0  422   [1]  00
 (040.423055)  can0  421   [2]  00 00
 (040.493973)  can0  421   [2]  00 00
 (040.564883)  can0  421   [2]  00 00
 (040.635792)  can0  421   [2]  00 00
 (040.706703)  can0  421   [2]  00 00
 (040.777619)  can0  421   [2]  00 00
 (040.848537)  can0  421   [2]  00 00
 (040.919443)  can0  421   [2]  00 00
 (040.990348)  can0  421   [2]  00 00
 (041.061256)  can0  421   [2]  00 00
 (041.132170)  can0  421   [2]  00 00
 (041.203081)  can0  421   [2]  00 00
 (041.274001)  can0  421   [2]  00 00
 (041.344936)  can0  421   [2]  00 00
 (041.393605)  can0  422   [1]  00
 (041.415844)  can0  421   [2]  00 00
 (041.486749)  can0  421   [2]  00 00
 (041.557653)  can0  421   [2]  00 00
 (041.628576)  can0  421   [2]  00 00
 (041.699488)  can0  421   [2]  00 00
 (041.770400)  can0  421   [2]  00 00
 (041.841307)  can0  421   [2]  00 00
 (041.912225)  can0  421   [2]  00 00
 (041.983139)  can0  421   [2]  00 00
 (042.054058)  can0  421   [2]  00 00
 (042.124960)  can0  421   [2]  00 00
 (042.195870)  can0  421   [2]  00 00
 (042.266774)  can0  421   [2]  00 00
 (042.337676)  can0  421   [2]  00 00
 (042.393581)  can0  422   [1]  00
 (042.408622)  can0  421   [2]  00 00
 (042.479504)  can0  421   [2]  00 00
