 (000.000000)  can0  460   [4]  00 00 AF 0D ::
whereamiData(
    Speed: 0.0 km/h,
    Distance: 3503 m
)
 (000.000275)  can0  462   [4]  00 00 AF 0D ::
whereamiRawData(
    RawSpeed: 0.0 km/h,
    RawDistance: 3503 m
)
 (000.000473)  can0  464   [8]  28 68 AF 02 8B 02 75 00 ::
whereamiCoords(
    Latitude: 45.049896 °,
    Longitude: 7.668362999999999 °
)
 (000.440603)  can0  422   [1]  00 ::
GbData(
    GbGear: 0
)
 (001.001949)  can0  460   [4]  00 00 AF 0D ::
whereamiData(
    Speed: 0.0 km/h,
    Distance: 3503 m
)
 (001.002182)  can0  462   [4]  00 00 AF 0D ::
whereamiRawData(
    RawSpeed: 0.0 km/h,
    RawDistance: 3503 m
)
 (001.002382)  can0  464   [8]  28 68 AF 02 8B 02 75 00 ::
whereamiCoords(
    Latitude: 45.049896 °,
    Longitude: 7.668362999999999 °
)
 (001.440541)  can0  422   [1]  00 ::
GbData(
    GbGear: 0
)
 (002.001965)  can0  460   [4]  00 00 AF 0D ::
whereamiData(
    Speed: 0.0 km/h,
    Distance: 3503 m
)
 (002.002191)  can0  462   [4]  00 00 AF 0D ::
whereamiRawData(
    RawSpeed: 0.0 km/h,
    RawDistance: 3503 m
)
 (002.002393)  can0  464   [8]  28 68 AF 02 8B 02 75 00 ::
whereamiCoords(
    Latitude: 45.049896 °,
    Longitude: 7.668362999999999 °
)
 (002.440499)  can0  422   [1]  00 ::
GbData(
    GbGear: 0
)
 (003.003881)  can0  460   [4]  00 00 AF 0D ::
whereamiData(
    Speed: 0.0 km/h,
    Distance: 3503 m
)
 (003.004104)  can0  462   [4]  00 00 AF 0D ::
whereamiRawData(
    RawSpeed: 0.0 km/h,
    RawDistance: 3503 m
)
 (003.004304)  can0  464   [8]  28 68 AF 02 8B 02 75 00 ::
whereamiCoords(
    Latitude: 45.049896 °,
    Longitude: 7.668362999999999 °
)
 (003.440341)  can0  422   [1]  00 ::
GbData(
    GbGear: 0
)
 (004.003877)  can0  460   [4]  00 00 AF 0D ::
whereamiData(
    Speed: 0.0 km/h,
    Distance: 3503 m
)
 (004.004153)  can0  462   [4]  00 00 AF 0D ::
whereamiRawData(
    RawSpeed: 0.0 km/h,
    RawDistance: 3503 m
)
 (004.004385)  can0  464   [8]  28 68 AF 02 8B 02 75 00 ::
whereamiCoords(
    Latitude: 45.049896 °,
    Longitude: 7.668362999999999 °
)
 (004.440253)  can0  422   [1]  00 ::
GbData(
    GbGear: 0
)
 (005.005802)  can0  460   [4]  00 00 AF 0D ::
whereamiData(
    Speed: 0.0 km/h,
    Distance: 3503 m
)
 (005.006024)  can0  462   [4]  00 00 AF 0D ::
whereamiRawData(
    RawSpeed: 0.0 km/h,
    RawDistance: 3503 m
)
 (005.006225)  can0  464   [8]  27 68 AF 02 8D 02 75 00 ::
whereamiCoords(
    Latitude: 45.049895 °,
    Longitude: 7.668365 °
)
 (005.440172)  can0  422   [1]  00 ::
GbData(
    GbGear: 0
)
 (006.005768)  can0  460   [4]  00 00 AF 0D ::
whereamiData(
    Speed: 0.0 km/h,
    Distance: 3503 m
)
 (006.005986)  can0  462   [4]  00 00 AF 0D ::
whereamiRawData(
    RawSpeed: 0.0 km/h,
    RawDistance: 3503 m
)
 (006.006185)  can0  464   [8]  27 68 AF 02 8D 02 75 00 ::
whereamiCoords(
    Latitude: 45.049895 °,
    Longitude: 7.668365 °
)
 (006.440086)  can0  422   [1]  00 ::
GbData(
    GbGear: 0
)
 (007.007730)  can0  460   [4]  00 00 AF 0D ::
whereamiData(
    Speed: 0.0 km/h,
    Distance: 3503 m
)
 (007.007950)  can0  462   [4]  00 00 AF 0D ::
whereamiRawData(
    RawSpeed: 0.0 km/h,
    RawDistance: 3503 m
)
 (007.008145)  can0  464   [8]  27 68 AF 02 8D 02 75 00 ::
whereamiCoords(
    Latitude: 45.049895 °,
    Longitude: 7.668365 °
)
 (007.439996)  can0  422   [1]  00 ::
GbData(
    GbGear: 0
)
 (008.007696)  can0  460   [4]  00 00 AF 0D ::
whereamiData(
    Speed: 0.0 km/h,
    Distance: 3503 m
)
 (008.007919)  can0  462   [4]  00 00 AF 0D ::
whereamiRawData(
    RawSpeed: 0.0 km/h,
    RawDistance: 3503 m
)
 (008.008122)  can0  464   [8]  27 68 AF 02 8D 02 75 00 ::
whereamiCoords(
    Latitude: 45.049895 °,
    Longitude: 7.668365 °
)
 (008.439915)  can0  422   [1]  00 ::
GbData(
    GbGear: 0
)
 (009.011646)  can0  460   [4]  00 00 AF 0D ::
whereamiData(
    Speed: 0.0 km/h,
    Distance: 3503 m
)
 (009.011864)  can0  462   [4]  00 00 AF 0D ::
whereamiRawData(
    RawSpeed: 0.0 km/h,
    RawDistance: 3503 m
)
 (009.012058)  can0  464   [8]  26 68 AF 02 8D 02 75 00 ::
whereamiCoords(
    Latitude: 45.049893999999995 °,
    Longitude: 7.668365 °
)
 (009.439829)  can0  422   [1]  00 ::
GbData(
    GbGear: 0
)
 (010.015702)  can0  460   [4]  00 00 AF 0D ::
whereamiData(
    Speed: 0.0 km/h,
    Distance: 3503 m
)
 (010.015920)  can0  462   [4]  00 00 AF 0D ::
whereamiRawData(
    RawSpeed: 0.0 km/h,
    RawDistance: 3503 m
)
 (010.016117)  can0  464   [8]  26 68 AF 02 8D 02 75 00 ::
whereamiCoords(
    Latitude: 45.049893999999995 °,
    Longitude: 7.668365 °
)
 (010.439745)  can0  422   [1]  00 ::
GbData(
    GbGear: 0
)
 (011.023579)  can0  460   [4]  00 00 AF 0D ::
whereamiData(
    Speed: 0.0 km/h,
    Distance: 3503 m
)
 (011.023798)  can0  462   [4]  00 00 AF 0D ::
whereamiRawData(
    RawSpeed: 0.0 km/h,
    RawDistance: 3503 m
)
 (011.023992)  can0  464   [8]  26 68 AF 02 8D 02 75 00 ::
whereamiCoords(
    Latitude: 45.049893999999995 °,
    Longitude: 7.668365 °
)
 (011.439662)  can0  422   [1]  00 ::
GbData(
    GbGear: 0
)
 (012.025544)  can0  460   [4]  00 00 AF 0D ::
whereamiData(
    Speed: 0.0 km/h,
    Distance: 3503 m
)
 (012.025762)  can0  462   [4]  00 00 AF 0D ::
whereamiRawData(
    RawSpeed: 0.0 km/h,
    RawDistance: 3503 m
)
 (012.025957)  can0  464   [8]  26 68 AF 02 8D 02 75 00 ::
whereamiCoords(
    Latitude: 45.049893999999995 °,
    Longitude: 7.668365 °
)
 (012.439574)  can0  422   [1]  00 ::
GbData(
    GbGear: 0
)
 (013.027516)  can0  460   [4]  00 00 AF 0D ::
whereamiData(
    Speed: 0.0 km/h,
    Distance: 3503 m
)
 (013.027751)  can0  462   [4]  00 00 AF 0D ::
whereamiRawData(
    RawSpeed: 0.0 km/h,
    RawDistance: 3503 m
)
 (013.027951)  can0  464   [8]  26 68 AF 02 8D 02 75 00 ::
whereamiCoords(
    Latitude: 45.049893999999995 °,
    Longitude: 7.668365 °
)
 (013.439489)  can0  422   [1]  00 ::
GbData(
    GbGear: 0
)
 (013.929470)  can0  460   [4]  00 00 AF 0D ::
whereamiData(
    Speed: 0.0 km/h,
    Distance: 3503 m
)
 (013.929681)  can0  462   [4]  00 00 AF 0D ::
whereamiRawData(
    RawSpeed: 0.0 km/h,
    RawDistance: 3503 m
)
 (013.929872)  can0  464   [8]  26 68 AF 02 8D 02 75 00 ::
whereamiCoords(
    Latitude: 45.049893999999995 °,
    Longitude: 7.668365 °
)
 (014.439407)  can0  422   [1]  00 ::
GbData(
    GbGear: 0
)
 (014.931506)  can0  460   [4]  00 00 AF 0D ::
whereamiData(
    Speed: 0.0 km/h,
    Distance: 3503 m
)
 (014.931780)  can0  462   [4]  00 00 AF 0D ::
whereamiRawData(
    RawSpeed: 0.0 km/h,
    RawDistance: 3503 m
)
 (014.932030)  can0  464   [8]  26 68 AF 02 8D 02 75 00 ::
whereamiCoords(
    Latitude: 45.049893999999995 °,
    Longitude: 7.668365 °
)
 (015.439322)  can0  422   [1]  00 ::
GbData(
    GbGear: 0
)
 (015.933662)  can0  460   [4]  00 00 AF 0D ::
whereamiData(
    Speed: 0.0 km/h,
    Distance: 3503 m
)
 (015.933881)  can0  462   [4]  00 00 AF 0D ::
whereamiRawData(
    RawSpeed: 0.0 km/h,
    RawDistance: 3503 m
)
 (015.934080)  can0  464   [8]  26 68 AF 02 8D 02 75 00 ::
whereamiCoords(
    Latitude: 45.049893999999995 °,
    Longitude: 7.668365 °
)
 (016.439238)  can0  422   [1]  00 ::
GbData(
    GbGear: 0
)
 (016.933363)  can0  460   [4]  00 00 AF 0D ::
whereamiData(
    Speed: 0.0 km/h,
    Distance: 3503 m
)
 (016.933579)  can0  462   [4]  00 00 AF 0D ::
whereamiRawData(
    RawSpeed: 0.0 km/h,
    RawDistance: 3503 m
)
 (016.933773)  can0  464   [8]  26 68 AF 02 8D 02 75 00 ::
whereamiCoords(
    Latitude: 45.049893999999995 °,
    Longitude: 7.668365 °
)
 (017.439165)  can0  422   [1]  00 ::
GbData(
    GbGear: 0
)
 (017.933768)  can0  460   [4]  00 00 AF 0D ::
whereamiData(
    Speed: 0.0 km/h,
    Distance: 3503 m
)
 (017.933984)  can0  462   [4]  00 00 AF 0D ::
whereamiRawData(
    RawSpeed: 0.0 km/h,
    RawDistance: 3503 m
)
 (017.934179)  can0  464   [8]  26 68 AF 02 8D 02 75 00 ::
whereamiCoords(
    Latitude: 45.049893999999995 °,
    Longitude: 7.668365 °
)
 (018.439061)  can0  422   [1]  00 ::
GbData(
    GbGear: 0
)
 (018.936244)  can0  460   [4]  00 00 AF 0D ::
whereamiData(
    Speed: 0.0 km/h,
    Distance: 3503 m
)
 (018.936464)  can0  462   [4]  00 00 AF 0D ::
whereamiRawData(
    RawSpeed: 0.0 km/h,
    RawDistance: 3503 m
)
 (018.936658)  can0  464   [8]  26 68 AF 02 8D 02 75 00 ::
whereamiCoords(
    Latitude: 45.049893999999995 °,
    Longitude: 7.668365 °
)
 (019.438982)  can0  422   [1]  00 ::
GbData(
    GbGear: 0
)
 (019.937515)  can0  460   [4]  00 00 AF 0D ::
whereamiData(
    Speed: 0.0 km/h,
    Distance: 3503 m
)
 (019.937734)  can0  462   [4]  00 00 AF 0D ::
whereamiRawData(
    RawSpeed: 0.0 km/h,
    RawDistance: 3503 m
)
 (019.937931)  can0  464   [8]  26 68 AF 02 8D 02 75 00 ::
whereamiCoords(
    Latitude: 45.049893999999995 °,
    Longitude: 7.668365 °
)
 (020.438897)  can0  422   [1]  00 ::
GbData(
    GbGear: 0
)
 (020.938182)  can0  460   [4]  00 00 AF 0D ::
whereamiData(
    Speed: 0.0 km/h,
    Distance: 3503 m
)
 (020.938402)  can0  462   [4]  00 00 AF 0D ::
whereamiRawData(
    RawSpeed: 0.0 km/h,
    RawDistance: 3503 m
)
 (020.938597)  can0  464   [8]  26 68 AF 02 8D 02 75 00 ::
whereamiCoords(
    Latitude: 45.049893999999995 °,
    Longitude: 7.668365 °
)
 (020.939145)  can0  468   [2]  64 00 ::
whereamiPosUncert(
    PosUncertainty: 1.0 m
)
 (021.438811)  can0  422   [1]  00 ::
GbData(
    GbGear: 0
)
 (021.939184)  can0  460   [4]  00 00 AF 0D ::
whereamiData(
    Speed: 0.0 km/h,
    Distance: 3503 m
)
 (021.939401)  can0  462   [4]  00 00 AF 0D ::
whereamiRawData(
    RawSpeed: 0.0 km/h,
    RawDistance: 3503 m
)
 (021.939596)  can0  464   [8]  26 68 AF 02 8D 02 75 00 ::
whereamiCoords(
    Latitude: 45.049893999999995 °,
    Longitude: 7.668365 °
)
 (022.438729)  can0  422   [1]  00 ::
GbData(
    GbGear: 0
)
 (022.941590)  can0  460   [4]  00 00 AF 0D ::
whereamiData(
    Speed: 0.0 km/h,
    Distance: 3503 m
)
 (022.941812)  can0  462   [4]  00 00 AF 0D ::
whereamiRawData(
    RawSpeed: 0.0 km/h,
    RawDistance: 3503 m
)
 (022.942012)  can0  464   [8]  26 68 AF 02 8D 02 75 00 ::
whereamiCoords(
    Latitude: 45.049893999999995 °,
    Longitude: 7.668365 °
)
 (023.438651)  can0  422   [1]  00 ::
GbData(
    GbGear: 0
)
 (023.940070)  can0  460   [4]  00 00 AF 0D ::
whereamiData(
    Speed: 0.0 km/h,
    Distance: 3503 m
)
 (023.940289)  can0  462   [4]  00 00 AF 0D ::
whereamiRawData(
    RawSpeed: 0.0 km/h,
    RawDistance: 3503 m
)
 (023.940482)  can0  464   [8]  26 68 AF 02 8D 02 75 00 ::
whereamiCoords(
    Latitude: 45.049893999999995 °,
    Longitude: 7.668365 °
)
 (024.438561)  can0  422   [1]  00 ::
GbData(
    GbGear: 0
)
 (024.941524)  can0  460   [4]  00 00 AF 0D ::
whereamiData(
    Speed: 0.0 km/h,
    Distance: 3503 m
)
 (024.941743)  can0  462   [4]  12 00 AF 0D ::
whereamiRawData(
    RawSpeed: 0.18 km/h,
    RawDistance: 3503 m
)
 (024.941937)  can0  464   [8]  26 68 AF 02 8E 02 75 00 ::
whereamiCoords(
    Latitude: 45.049893999999995 °,
    Longitude: 7.668366 °
)
 (025.438523)  can0  422   [1]  00 ::
GbData(
    GbGear: 0
)
 (025.939993)  can0  460   [4]  00 00 AF 0D ::
whereamiData(
    Speed: 0.0 km/h,
    Distance: 3503 m
)
 (025.940209)  can0  462   [4]  00 00 AF 0D ::
whereamiRawData(
    RawSpeed: 0.0 km/h,
    RawDistance: 3503 m
)
 (025.940402)  can0  464   [8]  26 68 AF 02 8E 02 75 00 ::
whereamiCoords(
    Latitude: 45.049893999999995 °,
    Longitude: 7.668366 °
)
 (026.438391)  can0  422   [1]  00 ::
GbData(
    GbGear: 0
)
 (026.939966)  can0  460   [4]  00 00 AF 0D ::
whereamiData(
    Speed: 0.0 km/h,
    Distance: 3503 m
)
 (026.940194)  can0  462   [4]  00 00 AF 0D ::
whereamiRawData(
    RawSpeed: 0.0 km/h,
    RawDistance: 3503 m
)
 (026.940409)  can0  464   [8]  26 68 AF 02 8E 02 75 00 ::
whereamiCoords(
    Latitude: 45.049893999999995 °,
    Longitude: 7.668366 °
)
 (026.940929)  can0  468   [2]  64 00 ::
whereamiPosUncert(
    PosUncertainty: 1.0 m
)
 (027.438304)  can0  422   [1]  00 ::
GbData(
    GbGear: 0
)
 (027.941240)  can0  460   [4]  00 00 AF 0D ::
whereamiData(
    Speed: 0.0 km/h,
    Distance: 3503 m
)
 (027.941459)  can0  462   [4]  00 00 AF 0D ::
whereamiRawData(
    RawSpeed: 0.0 km/h,
    RawDistance: 3503 m
)
 (027.941651)  can0  464   [8]  26 68 AF 02 8D 02 75 00 ::
whereamiCoords(
    Latitude: 45.049893999999995 °,
    Longitude: 7.668365 °
)
 (028.438217)  can0  422   [1]  00 ::
GbData(
    GbGear: 0
)
 (028.942938)  can0  460   [4]  00 00 AF 0D ::
whereamiData(
    Speed: 0.0 km/h,
    Distance: 3503 m
)
 (028.943158)  can0  462   [4]  00 00 AF 0D ::
whereamiRawData(
    RawSpeed: 0.0 km/h,
    RawDistance: 3503 m
)
 (028.943353)  can0  464   [8]  26 68 AF 02 8D 02 75 00 ::
whereamiCoords(
    Latitude: 45.049893999999995 °,
    Longitude: 7.668365 °
)
 (029.438140)  can0  422   [1]  00 ::
GbData(
    GbGear: 0
)
 (029.946895)  can0  460   [4]  00 00 AF 0D ::
whereamiData(
    Speed: 0.0 km/h,
    Distance: 3503 m
)
 (029.947108)  can0  462   [4]  00 00 AF 0D ::
whereamiRawData(
    RawSpeed: 0.0 km/h,
    RawDistance: 3503 m
)
 (029.947305)  can0  464   [8]  26 68 AF 02 8D 02 75 00 ::
whereamiCoords(
    Latitude: 45.049893999999995 °,
    Longitude: 7.668365 °
)
 (030.438115)  can0  422   [1]  00 ::
GbData(
    GbGear: 0
)
 (030.948945)  can0  460   [4]  00 00 AF 0D ::
whereamiData(
    Speed: 0.0 km/h,
    Distance: 3503 m
)
 (030.949185)  can0  462   [4]  00 00 AF 0D ::
whereamiRawData(
    RawSpeed: 0.0 km/h,
    RawDistance: 3503 m
)
 (030.949403)  can0  464   [8]  26 68 AF 02 8D 02 75 00 ::
whereamiCoords(
    Latitude: 45.049893999999995 °,
    Longitude: 7.668365 °
)
 (031.437971)  can0  422   [1]  00 ::
GbData(
    GbGear: 0
)
 (031.950830)  can0  460   [4]  00 00 AF 0D ::
whereamiData(
    Speed: 0.0 km/h,
    Distance: 3503 m
)
 (031.951066)  can0  462   [4]  00 00 AF 0D ::
whereamiRawData(
    RawSpeed: 0.0 km/h,
    RawDistance: 3503 m
)
 (031.951270)  can0  464   [8]  26 68 AF 02 8D 02 75 00 ::
whereamiCoords(
    Latitude: 45.049893999999995 °,
    Longitude: 7.668365 °
)
 (032.437888)  can0  422   [1]  00 ::
GbData(
    GbGear: 0
)
 (032.956803)  can0  460   [4]  00 00 AF 0D ::
whereamiData(
    Speed: 0.0 km/h,
    Distance: 3503 m
)
 (032.957037)  can0  462   [4]  00 00 AF 0D ::
whereamiRawData(
    RawSpeed: 0.0 km/h,
    RawDistance: 3503 m
)
 (032.957246)  can0  464   [8]  26 68 AF 02 8D 02 75 00 ::
whereamiCoords(
    Latitude: 45.049893999999995 °,
    Longitude: 7.668365 °
)
 (033.437812)  can0  422   [1]  00 ::
GbData(
    GbGear: 0
)
 (033.958816)  can0  460   [4]  00 00 AF 0D ::
whereamiData(
    Speed: 0.0 km/h,
    Distance: 3503 m
)
 (033.959083)  can0  462   [4]  00 00 AF 0D ::
whereamiRawData(
    RawSpeed: 0.0 km/h,
    RawDistance: 3503 m
)
 (033.959321)  can0  464   [8]  26 68 AF 02 8D 02 75 00 ::
whereamiCoords(
    Latitude: 45.049893999999995 °,
    Longitude: 7.668365 °
)
 (034.437716)  can0  422   [1]  00 ::
GbData(
    GbGear: 0
)
 (034.960733)  can0  460   [4]  00 00 AF 0D ::
whereamiData(
    Speed: 0.0 km/h,
    Distance: 3503 m
)
 (034.960965)  can0  462   [4]  00 00 AF 0D ::
whereamiRawData(
    RawSpeed: 0.0 km/h,
    RawDistance: 3503 m
)
 (034.961167)  can0  464   [8]  26 68 AF 02 8D 02 75 00 ::
whereamiCoords(
    Latitude: 45.049893999999995 °,
    Longitude: 7.668365 °
)
 (035.437697)  can0  422   [1]  00 ::
GbData(
    GbGear: 0
)
 (035.962691)  can0  460   [4]  00 00 AF 0D ::
whereamiData(
    Speed: 0.0 km/h,
    Distance: 3503 m
)
 (035.962914)  can0  462   [4]  00 00 AF 0D ::
whereamiRawData(
    RawSpeed: 0.0 km/h,
    RawDistance: 3503 m
)
 (035.963114)  can0  464   [8]  26 68 AF 02 8D 02 75 00 ::
whereamiCoords(
    Latitude: 45.049893999999995 °,
    Longitude: 7.668365 °
)
 (036.437616)  can0  422   [1]  00 ::
GbData(
    GbGear: 0
)
 (036.966736)  can0  460   [4]  00 00 B0 0D ::
whereamiData(
    Speed: 0.0 km/h,
    Distance: 3504 m
)
 (036.967025)  can0  462   [4]  25 00 B0 0D ::
whereamiRawData(
    RawSpeed: 0.37 km/h,
    RawDistance: 3504 m
)
 (036.967268)  can0  464   [8]  22 68 AF 02 93 02 75 00 ::
whereamiCoords(
    Latitude: 45.04989 °,
    Longitude: 7.668371 °
)
 (037.437519)  can0  422   [1]  00 ::
GbData(
    GbGear: 0
)
 (037.970719)  can0  460   [4]  00 00 B0 0D ::
whereamiData(
    Speed: 0.0 km/h,
    Distance: 3504 m
)
 (037.970944)  can0  462   [4]  12 00 B0 0D ::
whereamiRawData(
    RawSpeed: 0.18 km/h,
    RawDistance: 3504 m
)
 (037.971142)  can0  464   [8]  20 68 AF 02 96 02 75 00 ::
whereamiCoords(
    Latitude: 45.049887999999996 °,
    Longitude: 7.668374 °
)
 (038.437458)  can0  422   [1]  00 ::
GbData(
    GbGear: 0
)
 (038.980593)  can0  460   [4]  00 00 B0 0D ::
whereamiData(
    Speed: 0.0 km/h,
    Distance: 3504 m
)
 (038.980828)  can0  462   [4]  00 00 B0 0D ::
whereamiRawData(
    RawSpeed: 0.0 km/h,
    RawDistance: 3504 m
)
 (038.981027)  can0  464   [8]  1F 68 AF 02 97 02 75 00 ::
whereamiCoords(
    Latitude: 45.049887 °,
    Longitude: 7.668374999999999 °
)
 (039.437306)  can0  422   [1]  00 ::
GbData(
    GbGear: 0
)
 (039.984558)  can0  460   [4]  00 00 B0 0D ::
whereamiData(
    Speed: 0.0 km/h,
    Distance: 3504 m
)
 (039.984779)  can0  462   [4]  00 00 B0 0D ::
whereamiRawData(
    RawSpeed: 0.0 km/h,
    RawDistance: 3504 m
)
 (039.984981)  can0  464   [8]  1F 68 AF 02 97 02 75 00 ::
whereamiCoords(
    Latitude: 45.049887 °,
    Longitude: 7.668374999999999 °
)
 (040.437217)  can0  422   [1]  00 ::
GbData(
    GbGear: 0
)
 (040.986529)  can0  460   [4]  00 00 B0 0D ::
whereamiData(
    Speed: 0.0 km/h,
    Distance: 3504 m
)
 (040.986757)  can0  462   [4]  00 00 B0 0D ::
whereamiRawData(
    RawSpeed: 0.0 km/h,
    RawDistance: 3504 m
)
 (040.986962)  can0  464   [8]  1F 68 AF 02 97 02 75 00 ::
whereamiCoords(
    Latitude: 45.049887 °,
    Longitude: 7.668374999999999 °
)
 (041.437126)  can0  422   [1]  00 ::
GbData(
    GbGear: 0
)
 (041.992542)  can0  460   [4]  00 00 B0 0D ::
whereamiData(
    Speed: 0.0 km/h,
    Distance: 3504 m
)
 (041.992813)  can0  462   [4]  00 00 B0 0D ::
whereamiRawData(
    RawSpeed: 0.0 km/h,
    RawDistance: 3504 m
)
 (041.993048)  can0  464   [8]  1E 68 AF 02 97 02 75 00 ::
whereamiCoords(
    Latitude: 45.049886 °,
    Longitude: 7.668374999999999 °
)
 (042.437111)  can0  422   [1]  00 ::
GbData(
    GbGear: 0
)
 (042.992455)  can0  460   [4]  00 00 B0 0D ::
whereamiData(
    Speed: 0.0 km/h,
    Distance: 3504 m
)
 (042.992673)  can0  462   [4]  00 00 B0 0D ::
whereamiRawData(
    RawSpeed: 0.0 km/h,
    RawDistance: 3504 m
)
 (042.992867)  can0  464   [8]  1E 68 AF 02 98 02 75 00 ::
whereamiCoords(
    Latitude: 45.049886 °,
    Longitude: 7.668375999999999 °
)
 (043.436959)  can0  422   [1]  00 ::
GbData(
    GbGear: 0
)
 (043.994413)  can0  460   [4]  00 00 B0 0D ::
whereamiData(
    Speed: 0.0 km/h,
    Distance: 3504 m
)
 (043.994628)  can0  462   [4]  00 00 B0 0D ::
whereamiRawData(
    RawSpeed: 0.0 km/h,
    RawDistance: 3504 m
)
 (043.994824)  can0  464   [8]  1E 68 AF 02 98 02 75 00 ::
whereamiCoords(
    Latitude: 45.049886 °,
    Longitude: 7.668375999999999 °
)
 (044.436875)  can0  422   [1]  00 ::
GbData(
    GbGear: 0
)
 (044.994375)  can0  460   [4]  00 00 B0 0D ::
whereamiData(
    Speed: 0.0 km/h,
    Distance: 3504 m
)
 (044.994593)  can0  462   [4]  00 00 B0 0D ::
whereamiRawData(
    RawSpeed: 0.0 km/h,
    RawDistance: 3504 m
)
 (044.994789)  can0  464   [8]  1E 68 AF 02 98 02 75 00 ::
whereamiCoords(
    Latitude: 45.049886 °,
    Longitude: 7.668375999999999 °
)
 (045.436788)  can0  422   [1]  00 ::
GbData(
    GbGear: 0
)
 (046.000331)  can0  460   [4]  00 00 B0 0D ::
whereamiData(
    Speed: 0.0 km/h,
    Distance: 3504 m
)
 (046.000544)  can0  462   [4]  00 00 B0 0D ::
whereamiRawData(
    RawSpeed: 0.0 km/h,
    RawDistance: 3504 m
)
 (046.000742)  can0  464   [8]  1E 68 AF 02 98 02 75 00 ::
whereamiCoords(
    Latitude: 45.049886 °,
    Longitude: 7.668375999999999 °
)
 (046.436696)  can0  422   [1]  00 ::
GbData(
    GbGear: 0
)
 (047.004298)  can0  460   [4]  00 00 B0 0D ::
whereamiData(
    Speed: 0.0 km/h,
    Distance: 3504 m
)
 (047.004518)  can0  462   [4]  00 00 B0 0D ::
whereamiRawData(
    RawSpeed: 0.0 km/h,
    RawDistance: 3504 m
)
 (047.004719)  can0  464   [8]  1E 68 AF 02 98 02 75 00 ::
whereamiCoords(
    Latitude: 45.049886 °,
    Longitude: 7.668375999999999 °
)
 (047.436618)  can0  422   [1]  00 ::
GbData(
    GbGear: 0
)
 (048.008260)  can0  460   [4]  00 00 B0 0D ::
whereamiData(
    Speed: 0.0 km/h,
    Distance: 3504 m
)
 (048.008476)  can0  462   [4]  00 00 B0 0D ::
whereamiRawData(
    RawSpeed: 0.0 km/h,
    RawDistance: 3504 m
)
 (048.008676)  can0  464   [8]  1E 68 AF 02 98 02 75 00 ::
whereamiCoords(
    Latitude: 45.049886 °,
    Longitude: 7.668375999999999 °
)
 (048.436530)  can0  422   [1]  00 ::
GbData(
    GbGear: 0
)
 (049.012224)  can0  460   [4]  00 00 B0 0D ::
whereamiData(
    Speed: 0.0 km/h,
    Distance: 3504 m
)
 (049.012440)  can0  462   [4]  00 00 B0 0D ::
whereamiRawData(
    RawSpeed: 0.0 km/h,
    RawDistance: 3504 m
)
 (049.012641)  can0  464   [8]  1E 68 AF 02 98 02 75 00 ::
whereamiCoords(
    Latitude: 45.049886 °,
    Longitude: 7.668375999999999 °
)
 (049.436448)  can0  422   [1]  00 ::
GbData(
    GbGear: 0
)
 (050.014184)  can0  460   [4]  00 00 B0 0D ::
whereamiData(
    Speed: 0.0 km/h,
    Distance: 3504 m
)
 (050.014400)  can0  462   [4]  00 00 B0 0D ::
whereamiRawData(
    RawSpeed: 0.0 km/h,
    RawDistance: 3504 m
)
 (050.014599)  can0  464   [8]  1E 68 AF 02 98 02 75 00 ::
whereamiCoords(
    Latitude: 45.049886 °,
    Longitude: 7.668375999999999 °
)
 (050.436373)  can0  422   [1]  00 ::
GbData(
    GbGear: 0
)
 (051.018159)  can0  460   [4]  00 00 B0 0D ::
whereamiData(
    Speed: 0.0 km/h,
    Distance: 3504 m
)
 (051.018379)  can0  462   [4]  00 00 B0 0D ::
whereamiRawData(
    RawSpeed: 0.0 km/h,
    RawDistance: 3504 m
)
 (051.018579)  can0  464   [8]  1E 68 AF 02 98 02 75 00 ::
whereamiCoords(
    Latitude: 45.049886 °,
    Longitude: 7.668375999999999 °
)
 (051.436277)  can0  422   [1]  00 ::
GbData(
    GbGear: 0
)
 (052.022197)  can0  460   [4]  00 00 B0 0D ::
whereamiData(
    Speed: 0.0 km/h,
    Distance: 3504 m
)
 (052.022466)  can0  462   [4]  00 00 B0 0D ::
whereamiRawData(
    RawSpeed: 0.0 km/h,
    RawDistance: 3504 m
)
 (052.022706)  can0  464   [8]  1E 68 AF 02 98 02 75 00 ::
whereamiCoords(
    Latitude: 45.049886 °,
    Longitude: 7.668375999999999 °
)
 (052.436198)  can0  422   [1]  00 ::
GbData(
    GbGear: 0
)
 (053.024084)  can0  460   [4]  00 00 B0 0D ::
whereamiData(
    Speed: 0.0 km/h,
    Distance: 3504 m
)
 (053.024307)  can0  462   [4]  00 00 B0 0D ::
whereamiRawData(
    RawSpeed: 0.0 km/h,
    RawDistance: 3504 m
)
 (053.024518)  can0  464   [8]  1E 68 AF 02 98 02 75 00 ::
whereamiCoords(
    Latitude: 45.049886 °,
    Longitude: 7.668375999999999 °
)
 (053.436111)  can0  422   [1]  00 ::
GbData(
    GbGear: 0
)
 (053.928497)  can0  460   [4]  00 00 B0 0D ::
whereamiData(
    Speed: 0.0 km/h,
    Distance: 3504 m
)
 (053.928715)  can0  462   [4]  00 00 B0 0D ::
whereamiRawData(
    RawSpeed: 0.0 km/h,
    RawDistance: 3504 m
)
 (053.928920)  can0  464   [8]  1E 68 AF 02 98 02 75 00 ::
whereamiCoords(
    Latitude: 45.049886 °,
    Longitude: 7.668375999999999 °
)
 (054.436027)  can0  422   [1]  00 ::
GbData(
    GbGear: 0
)
 (054.934022)  can0  460   [4]  00 00 B0 0D ::
whereamiData(
    Speed: 0.0 km/h,
    Distance: 3504 m
)
 (054.934244)  can0  462   [4]  00 00 B0 0D ::
whereamiRawData(
    RawSpeed: 0.0 km/h,
    RawDistance: 3504 m
)
 (054.934449)  can0  464   [8]  1E 68 AF 02 98 02 75 00 ::
whereamiCoords(
    Latitude: 45.049886 °,
    Longitude: 7.668375999999999 °
)
 (055.435947)  can0  422   [1]  00 ::
GbData(
    GbGear: 0
)
 (055.938050)  can0  460   [4]  00 00 B0 0D ::
whereamiData(
    Speed: 0.0 km/h,
    Distance: 3504 m
)
 (055.938337)  can0  462   [4]  00 00 B0 0D ::
whereamiRawData(
    RawSpeed: 0.0 km/h,
    RawDistance: 3504 m
)
 (055.938593)  can0  464   [8]  1E 68 AF 02 98 02 75 00 ::
whereamiCoords(
    Latitude: 45.049886 °,
    Longitude: 7.668375999999999 °
)
 (056.435857)  can0  422   [1]  00 ::
GbData(
    GbGear: 0
)
 (056.939943)  can0  460   [4]  00 00 B0 0D ::
whereamiData(
    Speed: 0.0 km/h,
    Distance: 3504 m
)
 (056.940158)  can0  462   [4]  00 00 B0 0D ::
whereamiRawData(
    RawSpeed: 0.0 km/h,
    RawDistance: 3504 m
)
 (056.940356)  can0  464   [8]  1E 68 AF 02 98 02 75 00 ::
whereamiCoords(
    Latitude: 45.049886 °,
    Longitude: 7.668375999999999 °
)
 (057.435772)  can0  422   [1]  00 ::
GbData(
    GbGear: 0
)
 (057.940349)  can0  460   [4]  00 00 B0 0D ::
whereamiData(
    Speed: 0.0 km/h,
    Distance: 3504 m
)
 (057.940565)  can0  462   [4]  00 00 B0 0D ::
whereamiRawData(
    RawSpeed: 0.0 km/h,
    RawDistance: 3504 m
)
 (057.940765)  can0  464   [8]  1E 68 AF 02 98 02 75 00 ::
whereamiCoords(
    Latitude: 45.049886 °,
    Longitude: 7.668375999999999 °
)
 (058.435690)  can0  422   [1]  00 ::
GbData(
    GbGear: 0
)
 (058.945875)  can0  460   [4]  00 00 B0 0D ::
whereamiData(
    Speed: 0.0 km/h,
