
 (000.000000)  can0  421   [2]  00 00
 (000.070660)  can0  421   [2]  00 00
 (000.141337)  can0  421   [2]  00 00
 (000.212005)  can0  421   [2]  00 00
 (000.282683)  can0  421   [2]  00 00
 (000.353356)  can0  421   [2]  00 00
 (000.424040)  can0  421   [2]  00 00
 (000.494716)  can0  421   [2]  00 00
 (000.565403)  can0  421   [2]  00 00
 (000.636104)  can0  421   [2]  00 00
 (000.706761)  can0  421   [2]  00 00
 (000.766265)  can0  422   [1]  00
 (000.777443)  can0  421   [2]  00 00
 (000.848123)  can0  421   [2]  00 00
 (000.918804)  can0  421   [2]  00 00
 (000.948793)  can0  460   [4]  12 00 26 00
 (000.948992)  can0  462   [4]  12 00 26 00
 (000.949178)  can0  464   [8]  58 00 B6 02 C3 8C 7E 00
 (000.989484)  can0  421   [2]  00 00
 (001.060151)  can0  421   [2]  00 00
 (001.130819)  can0  421   [2]  00 00
 (001.201493)  can0  421   [2]  00 00
 (001.272173)  can0  421   [2]  00 00
 (001.342827)  can0  421   [2]  00 00
 (001.413514)  can0  421   [2]  00 00
 (001.484178)  can0  421   [2]  00 00
 (001.554844)  can0  421   [2]  00 00
 (001.625576)  can0  421   [2]  00 00
 (001.696192)  can0  421   [2]  00 00
 (001.766261)  can0  422   [1]  00
 (001.766848)  can0  421   [2]  00 00
 (001.837543)  can0  421   [2]  00 00
 (001.880812)  can0  460   [4]  12 00 26 00
 (001.881015)  can0  462   [4]  12 00 26 00
 (001.881204)  can0  464   [8]  58 00 B6 02 C4 8C 7E 00
 (001.908233)  can0  421   [2]  00 00
 (001.978911)  can0  421   [2]  00 00
 (002.049592)  can0  421   [2]  00 00
 (002.120283)  can0  421   [2]  00 00
 (002.190978)  can0  421   [2]  00 00
 (002.261664)  can0  421   [2]  00 00
 (002.332337)  can0  421   [2]  00 00
 (002.403021)  can0  421   [2]  00 00
 (002.473685)  can0  421   [2]  00 00
 (002.544367)  can0  421   [2]  00 00
 (002.615040)  can0  421   [2]  00 00
 (002.685719)  can0  421   [2]  00 00
 (002.756388)  can0  421   [2]  00 00
 (002.766229)  can0  422   [1]  00
 (002.827065)  can0  421   [2]  00 00
 (002.897753)  can0  421   [2]  00 00
 (002.920576)  can0  460   [4]  12 00 26 00
 (002.920786)  can0  462   [4]  12 00 26 00
 (002.920982)  can0  464   [8]  58 00 B6 02 C3 8C 7E 00
 (002.968419)  can0  421   [2]  00 00
 (003.039099)  can0  421   [2]  00 00
 (003.109770)  can0  421   [2]  00 00
 (003.180448)  can0  421   [2]  00 00
 (003.251156)  can0  421   [2]  00 00
 (003.321816)  can0  421   [2]  00 00
 (003.392505)  can0  421   [2]  00 00
 (003.463188)  can0  421   [2]  00 00
 (003.533838)  can0  421   [2]  00 00
 (003.604524)  can0  421   [2]  00 00
 (003.675181)  can0  421   [2]  00 00
 (003.745866)  can0  421   [2]  00 00
 (003.766178)  can0  422   [1]  00
 (003.816529)  can0  421   [2]  00 00
 (003.887211)  can0  421   [2]  00 00
 (003.952880)  can0  460   [4]  12 00 26 00
 (003.953105)  can0  462   [4]  12 00 26 00
 (003.953300)  can0  464   [8]  58 00 B6 02 C3 8C 7E 00
 (003.957870)  can0  421   [2]  00 00
 (004.028556)  can0  421   [2]  00 00
 (004.099257)  can0  421   [2]  00 00
 (004.169930)  can0  421   [2]  00 00
 (004.240603)  can0  421   [2]  00 00
 (004.311280)  can0  421   [2]  00 00
 (004.381955)  can0  421   [2]  00 00
 (004.452620)  can0  421   [2]  00 00
 (004.523313)  can0  421   [2]  00 00
 (004.593984)  can0  421   [2]  00 00
 (004.664661)  can0  421   [2]  00 00
 (004.735340)  can0  421   [2]  00 00
 (004.766175)  can0  422   [1]  00
 (004.805997)  can0  421   [2]  00 00
 (004.876687)  can0  421   [2]  00 00
 (004.884859)  can0  460   [4]  12 00 26 00
 (004.885051)  can0  462   [4]  12 00 26 00
 (004.885239)  can0  464   [8]  58 00 B6 02 C3 8C 7E 00
 (004.947356)  can0  421   [2]  00 00
 (005.018040)  can0  421   [2]  00 00
 (005.088712)  can0  421   [2]  00 00
 (005.159394)  can0  421   [2]  00 00
 (005.230047)  can0  421   [2]  00 00
 (005.300704)  can0  421   [2]  00 00
 (005.371366)  can0  421   [2]  00 00
 (005.442036)  can0  421   [2]  00 00
 (005.512690)  can0  421   [2]  00 00
 (005.583347)  can0  421   [2]  00 00
 (005.654009)  can0  421   [2]  00 00
 (005.724677)  can0  421   [2]  00 00
 (005.766152)  can0  422   [1]  00
 (005.795325)  can0  421   [2]  00 00
 (005.865966)  can0  421   [2]  00 00
 (005.924637)  can0  460   [4]  12 00 26 00
 (005.924840)  can0  462   [4]  12 00 26 00
 (005.925028)  can0  464   [8]  58 00 B6 02 C3 8C 7E 00
 (005.936619)  can0  421   [2]  00 00
 (006.007285)  can0  421   [2]  00 00
 (006.077946)  can0  421   [2]  00 00
 (006.148613)  can0  421   [2]  00 00
 (006.219273)  can0  421   [2]  00 00
 (006.289926)  can0  421   [2]  00 00
 (006.360593)  can0  421   [2]  00 00
 (006.431252)  can0  421   [2]  00 00
 (006.501912)  can0  421   [2]  00 00
 (006.572557)  can0  421   [2]  00 00
 (006.643210)  can0  421   [2]  00 00
 (006.713865)  can0  421   [2]  00 00
 (006.766116)  can0  422   [1]  00
 (006.784524)  can0  421   [2]  00 00
 (006.855182)  can0  421   [2]  00 00
 (006.925852)  can0  421   [2]  00 00
 (006.967008)  can0  460   [4]  12 00 26 00
 (006.967213)  can0  462   [4]  12 00 26 00
 (006.967401)  can0  464   [8]  58 00 B6 02 C3 8C 7E 00
 (006.996497)  can0  421   [2]  00 00
 (007.067192)  can0  421   [2]  00 00
 (007.137856)  can0  421   [2]  00 00
 (007.208524)  can0  421   [2]  00 00
 (007.279191)  can0  421   [2]  00 00
 (007.349839)  can0  421   [2]  00 00
 (007.420492)  can0  421   [2]  00 00
 (007.491136)  can0  421   [2]  00 00
 (007.561812)  can0  421   [2]  00 00
 (007.632655)  can0  421   [2]  00 00
 (007.703126)  can0  421   [2]  00 00
 (007.766179)  can0  422   [1]  00
 (007.773801)  can0  421   [2]  00 00
 (007.844449)  can0  421   [2]  00 00
 (007.902964)  can0  460   [4]  12 00 26 00
 (007.903197)  can0  462   [4]  12 00 26 00
 (007.903389)  can0  464   [8]  58 00 B6 02 C4 8C 7E 00
 (007.915136)  can0  421   [2]  00 00
 (007.985782)  can0  421   [2]  00 00
 (008.056408)  can0  421   [2]  00 00
 (008.127062)  can0  421   [2]  00 00
 (008.197737)  can0  421   [2]  00 00
 (008.268391)  can0  421   [2]  00 00
 (008.339045)  can0  421   [2]  00 00
 (008.409719)  can0  421   [2]  00 00
 (008.480380)  can0  421   [2]  00 00
 (008.551057)  can0  421   [2]  00 00
 (008.621708)  can0  421   [2]  00 00
 (008.692378)  can0  421   [2]  00 00
 (008.763030)  can0  421   [2]  00 00
 (008.766068)  can0  422   [1]  00
 (008.833681)  can0  421   [2]  00 00
 (008.904331)  can0  421   [2]  00 00
 (008.940698)  can0  460   [4]  25 00 26 00
 (008.940918)  can0  462   [4]  25 00 26 00
 (008.941116)  can0  464   [8]  59 00 B6 02 C4 8C 7E 00
 (008.974995)  can0  421   [2]  00 00
 (009.045665)  can0  421   [2]  00 00
 (009.116337)  can0  421   [2]  00 00
 (009.187025)  can0  421   [2]  00 00
 (009.257697)  can0  421   [2]  00 00
 (009.328383)  can0  421   [2]  00 00
 (009.399055)  can0  421   [2]  00 00
 (009.469738)  can0  421   [2]  00 00
 (009.540431)  can0  421   [2]  00 00
 (009.611111)  can0  421   [2]  00 00
 (009.681773)  can0  421   [2]  00 00
 (009.752440)  can0  421   [2]  00 00
 (009.766064)  can0  422   [1]  00
 (009.823119)  can0  421   [2]  00 00
 (009.893792)  can0  421   [2]  00 00
 (009.964453)  can0  421   [2]  00 00
 (009.974990)  can0  460   [4]  37 00 26 00
 (009.975207)  can0  462   [4]  37 00 26 00
 (009.975399)  can0  464   [8]  59 00 B6 02 C5 8C 7E 00
 (010.035112)  can0  421   [2]  00 00
 (010.105790)  can0  421   [2]  00 00
 (010.176464)  can0  421   [2]  00 00
 (010.247129)  can0  421   [2]  00 00
 (010.317798)  can0  421   [2]  00 00
 (010.388480)  can0  421   [2]  00 00
 (010.459157)  can0  421   [2]  00 00
 (010.529815)  can0  421   [2]  00 00
 (010.600483)  can0  421   [2]  00 00
 (010.671142)  can0  421   [2]  00 00
 (010.741811)  can0  421   [2]  00 00
 (010.766038)  can0  422   [1]  00
 (010.812522)  can0  421   [2]  00 00
 (010.883160)  can0  421   [2]  00 00
 (010.910837)  can0  460   [4]  25 00 27 00
 (010.911054)  can0  462   [4]  25 00 27 00
 (010.911246)  can0  464   [8]  59 00 B6 02 C5 8C 7E 00
 (010.953877)  can0  421   [2]  00 00
 (011.024510)  can0  421   [2]  00 00
 (011.095181)  can0  421   [2]  00 00
 (011.165841)  can0  421   [2]  00 00
 (011.236515)  can0  421   [2]  00 00
 (011.307195)  can0  421   [2]  00 00
 (011.377854)  can0  421   [2]  00 00
 (011.448547)  can0  421   [2]  00 00
 (011.519212)  can0  421   [2]  00 00
 (011.589872)  can0  421   [2]  00 00
 (011.660563)  can0  421   [2]  00 00
 (011.731214)  can0  421   [2]  00 00
 (011.766012)  can0  422   [1]  00
 (011.801892)  can0  421   [2]  00 00
 (011.872580)  can0  421   [2]  00 00
 (011.943244)  can0  421   [2]  00 00
 (011.949045)  can0  460   [4]  25 00 27 00
 (011.949267)  can0  462   [4]  25 00 27 00
 (011.949460)  can0  464   [8]  59 00 B6 02 C5 8C 7E 00
 (012.013910)  can0  421   [2]  00 00
 (012.084588)  can0  421   [2]  00 00
 (012.155280)  can0  421   [2]  00 00
 (012.225947)  can0  421   [2]  00 00
 (012.296630)  can0  421   [2]  00 00
 (012.367315)  can0  421   [2]  00 00
 (012.437978)  can0  421   [2]  00 00
 (012.508693)  can0  421   [2]  00 00
 (012.579329)  can0  421   [2]  00 00
 (012.649991)  can0  421   [2]  00 00
 (012.720657)  can0  421   [2]  00 00
 (012.765990)  can0  422   [1]  00
 (012.791356)  can0  421   [2]  00 00
 (012.862007)  can0  421   [2]  00 00
 (012.885056)  can0  460   [4]  12 00 27 00
 (012.885282)  can0  462   [4]  12 00 27 00
 (012.885476)  can0  464   [8]  59 00 B6 02 C4 8C 7E 00
 (012.932689)  can0  421   [2]  00 00
 (013.003346)  can0  421   [2]  00 00
 (013.074038)  can0  421   [2]  00 00
 (013.144722)  can0  421   [2]  00 00
 (013.215405)  can0  421   [2]  00 00
 (013.286080)  can0  421   [2]  00 00
 (013.356754)  can0  421   [2]  00 00
 (013.427436)  can0  421   [2]  00 00
 (013.498114)  can0  421   [2]  00 00
 (013.568784)  can0  421   [2]  00 00
 (013.639471)  can0  421   [2]  00 00
 (013.710133)  can0  421   [2]  00 00
 (013.765963)  can0  422   [1]  00
 (013.780800)  can0  421   [2]  00 00
 (013.851489)  can0  421   [2]  00 00
 (013.922176)  can0  421   [2]  00 00
 (013.924793)  can0  460   [4]  12 00 27 00
 (013.924996)  can0  462   [4]  12 00 27 00
 (013.925185)  can0  464   [8]  59 00 B6 02 C4 8C 7E 00
 (013.992829)  can0  421   [2]  00 00
 (014.063511)  can0  421   [2]  00 00
 (014.134206)  can0  421   [2]  00 00
 (014.204856)  can0  421   [2]  00 00
 (014.275526)  can0  421   [2]  00 00
 (014.346195)  can0  421   [2]  00 00
 (014.416862)  can0  421   [2]  00 00
 (014.487539)  can0  421   [2]  00 00
 (014.558224)  can0  421   [2]  00 00
 (014.628908)  can0  421   [2]  00 00
 (014.699569)  can0  421   [2]  00 00
 (014.765929)  can0  422   [1]  00
 (014.770244)  can0  421   [2]  00 00
 (014.840914)  can0  421   [2]  00 00
 (014.911600)  can0  421   [2]  00 00
 (014.962817)  can0  460   [4]  25 00 27 00
 (014.963036)  can0  462   [4]  25 00 27 00
 (014.963237)  can0  464   [8]  59 00 B6 02 C4 8C 7E 00
 (014.982252)  can0  421   [2]  00 00
 (015.052941)  can0  421   [2]  00 00
 (015.123613)  can0  421   [2]  00 00
 (015.194298)  can0  421   [2]  00 00
 (015.264958)  can0  421   [2]  00 00
 (015.335640)  can0  421   [2]  00 00
 (015.406327)  can0  421   [2]  00 00
 (015.476990)  can0  421   [2]  00 00
 (015.547654)  can0  421   [2]  00 00
 (015.618320)  can0  421   [2]  00 00
 (015.688995)  can0  421   [2]  00 00
 (015.759676)  can0  421   [2]  00 00
 (015.765913)  can0  422   [1]  00
 (015.830333)  can0  421   [2]  00 00
 (015.897106)  can0  460   [4]  37 00 27 00
 (015.897323)  can0  462   [4]  37 00 27 00
 (015.897520)  can0  464   [8]  59 00 B6 02 C5 8C 7E 00
 (015.900993)  can0  421   [2]  00 00
 (015.971676)  can0  421   [2]  00 00
 (016.042327)  can0  421   [2]  00 00
 (016.112999)  can0  421   [2]  00 00
 (016.183664)  can0  421   [2]  00 00
 (016.254328)  can0  421   [2]  00 00
 (016.325003)  can0  421   [2]  00 00
 (016.395670)  can0  421   [2]  00 00
 (016.466341)  can0  421   [2]  00 00
 (016.536998)  can0  421   [2]  00 00
 (016.607683)  can0  421   [2]  00 00
 (016.678338)  can0  421   [2]  00 00
 (016.748991)  can0  421   [2]  00 00
 (016.765897)  can0  422   [1]  00
 (016.819677)  can0  421   [2]  00 00
 (016.890322)  can0  421   [2]  00 00
 (016.932854)  can0  460   [4]  25 00 27 00
 (016.933072)  can0  462   [4]  25 00 27 00
 (016.933273)  can0  464   [8]  59 00 B6 02 C5 8C 7E 00
 (016.960994)  can0  421   [2]  00 00
 (017.031655)  can0  421   [2]  00 00
 (017.102327)  can0  421   [2]  00 00
 (017.172986)  can0  421   [2]  00 00
 (017.243676)  can0  421   [2]  00 00
 (017.314333)  can0  421   [2]  00 00
 (017.385003)  can0  421   [2]  00 00
 (017.455679)  can0  421   [2]  00 00
 (017.526333)  can0  421   [2]  00 00
 (017.597005)  can0  421   [2]  00 00
 (017.667685)  can0  421   [2]  00 00
 (017.738335)  can0  421   [2]  00 00
 (017.765862)  can0  422   [1]  00
 (017.809007)  can0  421   [2]  00 00
 (017.879676)  can0  421   [2]  00 00
 (017.950326)  can0  421   [2]  00 00
 (018.020993)  can0  421   [2]  00 00
 (018.091650)  can0  421   [2]  00 00
 (018.162326)  can0  421   [2]  00 00
 (018.232986)  can0  421   [2]  00 00
 (018.303642)  can0  421   [2]  00 00
 (018.374302)  can0  421   [2]  00 00
 (018.444957)  can0  421   [2]  00 00
 (018.515648)  can0  421   [2]  00 00
 (018.586302)  can0  421   [2]  00 00
 (018.656971)  can0  421   [2]  00 00
 (018.727631)  can0  421   [2]  00 00
 (018.765846)  can0  422   [1]  00
 (018.798583)  can0  421   [2]  00 00
 (018.868960)  can0  421   [2]  00 00
 (018.939636)  can0  421   [2]  00 00
 (019.010278)  can0  421   [2]  00 00
 (019.080945)  can0  421   [2]  00 00
 (019.151607)  can0  421   [2]  00 00
 (019.222263)  can0  421   [2]  00 00
 (019.292916)  can0  421   [2]  00 00
 (019.363577)  can0  421   [2]  00 00
 (019.434246)  can0  421   [2]  00 00
 (019.504905)  can0  421   [2]  00 00
 (019.575572)  can0  421   [2]  00 00
 (019.646225)  can0  421   [2]  00 00
 (019.716893)  can0  421   [2]  00 00
 (019.765824)  can0  422   [1]  00
 (019.787935)  can0  421   [2]  00 00
 (019.858203)  can0  421   [2]  00 00
 (019.928862)  can0  421   [2]  00 00
 (019.999518)  can0  421   [2]  00 00
 (020.070174)  can0  421   [2]  00 00
 (020.140822)  can0  421   [2]  00 00
 (020.211492)  can0  421   [2]  00 00
 (020.282125)  can0  421   [2]  00 00
 (020.352811)  can0  421   [2]  00 00
 (020.423449)  can0  421   [2]  00 00
 (020.494110)  can0  421   [2]  00 00
 (020.564793)  can0  421   [2]  00 00
 (020.635442)  can0  421   [2]  00 00
 (020.706095)  can0  421   [2]  00 00
 (020.765796)  can0  422   [1]  00
 (020.776772)  can0  421   [2]  00 00
 (020.847430)  can0  421   [2]  00 00
 (020.918096)  can0  421   [2]  00 00
 (020.988756)  can0  421   [2]  00 00
 (021.027572)  can0  460   [4]  00 00 00 00
 (021.027788)  can0  462   [4]  00 00 00 00
 (021.027985)  can0  464   [8]  00 00 00 00 00 00 00 00
 (021.058876)  can0  460   [4]  00 00 00 00
 (021.059090)  can0  462   [4]  00 00 00 00
 (021.059285)  can0  464   [8]  00 00 00 00 00 00 00 00
 (021.059477)  can0  421   [2]  00 00
 (021.130077)  can0  421   [2]  00 00
 (021.200737)  can0  421   [2]  00 00
 (021.271396)  can0  421   [2]  00 00
 (021.342049)  can0  421   [2]  00 00
 (021.412723)  can0  421   [2]  00 00
 (021.483389)  can0  421   [2]  00 00
 (021.554039)  can0  421   [2]  00 00
 (021.624713)  can0  421   [2]  00 00
 (021.695374)  can0  421   [2]  00 00
 (021.765765)  can0  422   [1]  00
 (021.766043)  can0  421   [2]  00 00
 (021.836699)  can0  421   [2]  00 00
 (021.907352)  can0  421   [2]  00 00
 (021.956894)  can0  460   [4]  4A 00 00 00
 (021.957110)  can0  462   [4]  4A 00 00 00
 (021.957305)  can0  464   [8]  00 00 00 00 00 00 00 00
 (021.978072)  can0  421   [2]  00 00
 (022.048666)  can0  421   [2]  00 00
 (022.119321)  can0  421   [2]  00 00
 (022.189988)  can0  421   [2]  00 00
 (022.260622)  can0  421   [2]  00 00
 (022.331272)  can0  421   [2]  00 00
 (022.401946)  can0  421   [2]  00 00
 (022.472606)  can0  421   [2]  00 00
 (022.543260)  can0  421   [2]  00 00
 (022.613932)  can0  421   [2]  00 00
 (022.684600)  can0  421   [2]  00 00
 (022.755273)  can0  421   [2]  00 00
 (022.765726)  can0  422   [1]  00
 (022.825914)  can0  421   [2]  00 00
 (022.896578)  can0  421   [2]  00 00
 (022.904731)  can0  460   [4]  4A 00 00 00
 (022.904943)  can0  462   [4]  4A 00 00 00
 (022.905136)  can0  464   [8]  00 00 00 00 00 00 00 00
 (022.967245)  can0  421   [2]  00 00
 (023.037922)  can0  421   [2]  00 00
 (023.108568)  can0  421   [2]  00 00
 (023.179229)  can0  421   [2]  00 00
 (023.249890)  can0  421   [2]  00 00
 (023.320579)  can0  421   [2]  00 00
 (023.391236)  can0  421   [2]  00 00
 (023.461923)  can0  421   [2]  00 00
 (023.532561)  can0  421   [2]  00 00
 (023.603222)  can0  421   [2]  00 00
 (023.673881)  can0  421   [2]  00 00
 (023.744552)  can0  421   [2]  00 00
 (023.765717)  can0  422   [1]  00
 (023.815206)  can0  421   [2]  00 00
 (023.885876)  can0  421   [2]  00 00
 (023.908662)  can0  460   [4]  15 01 00 00
 (023.908873)  can0  462   [4]  15 01 00 00
 (023.909084)  can0  464   [8]  62 00 B6 02 D4 8C 7E 00
 (023.956535)  can0  421   [2]  00 00
 (024.027203)  can0  421   [2]  00 00
 (024.097879)  can0  421   [2]  00 00
 (024.168547)  can0  421   [2]  00 00
 (024.239191)  can0  421   [2]  00 00
 (024.309852)  can0  421   [2]  00 00
 (024.380510)  can0  421   [2]  00 00
 (024.451170)  can0  421   [2]  00 00
 (024.521829)  can0  421   [2]  00 00
 (024.592500)  can0  421   [2]  00 00
 (024.663152)  can0  421   [2]  00 00
 (024.733823)  can0  421   [2]  00 00
 (024.765686)  can0  422   [1]  00
 (024.804485)  can0  421   [2]  00 00
 (024.875148)  can0  421   [2]  00 00
 (024.924688)  can0  460   [4]  03 01 00 00
 (024.924908)  can0  462   [4]  03 01 00 00
 (024.925102)  can0  464   [8]  66 00 B6 02 DB 8C 7E 00
 (024.945792)  can0  421   [2]  00 00
 (025.016462)  can0  421   [2]  00 00
 (025.087117)  can0  421   [2]  00 00
 (025.157776)  can0  421   [2]  00 00
 (025.228449)  can0  421   [2]  00 00
 (025.299123)  can0  421   [2]  00 00
 (025.369780)  can0  421   [2]  00 00
 (025.440440)  can0  421   [2]  00 00
 (025.511121)  can0  421   [2]  00 00
 (025.581766)  can0  421   [2]  00 00
 (025.652443)  can0  421   [2]  00 00
 (025.723113)  can0  421   [2]  00 00
 (025.765649)  can0  422   [1]  00
 (025.793781)  can0  421   [2]  00 00
 (025.864461)  can0  421   [2]  00 00
 (025.935138)  can0  421   [2]  00 00
 (025.946794)  can0  460   [4]  BC 01 01 00
 (025.947011)  can0  462   [4]  BC 01 01 00
 (025.947204)  can0  464   [8]  6D 00 B6 02 E8 8C 7E 00
 (026.005888)  can0  421   [2]  00 00
 (026.076485)  can0  421   [2]  00 00
 (026.147147)  can0  421   [2]  00 00
 (026.217808)  can0  421   [2]  00 00
 (026.288485)  can0  421   [2]  00 00
 (026.359153)  can0  421   [2]  00 00
 (026.429822)  can0  421   [2]  00 00
 (026.500472)  can0  421   [2]  00 00
 (026.571147)  can0  421   [2]  00 00
 (026.641795)  can0  421   [2]  00 00
 (026.712454)  can0  421   [2]  00 00
 (026.765626)  can0  422   [1]  00
 (026.783122)  can0  421   [2]  00 00
 (026.853817)  can0  421   [2]  00 00
 (026.924462)  can0  421   [2]  00 00
 (026.974729)  can0  460   [4]  2B 02 03 00
 (026.974949)  can0  462   [4]  2B 02 03 00
 (026.975142)  can0  464   [8]  75 00 B6 02 F7 8C 7E 00
 (026.995114)  can0  421   [2]  00 00
 (027.065769)  can0  421   [2]  00 00
 (027.136432)  can0  421   [2]  00 00
 (027.207097)  can0  421   [2]  00 00
 (027.277765)  can0  421   [2]  00 00
 (027.348429)  can0  421   [2]  00 00
 (027.419075)  can0  421   [2]  00 00
 (027.489732)  can0  421   [2]  00 00
 (027.560386)  can0  421   [2]  00 00
 (027.631053)  can0  421   [2]  00 00
 (027.701707)  can0  421   [2]  00 00
 (027.765599)  can0  422   [1]  00
 (027.772351)  can0  421   [2]  00 00
 (027.843007)  can0  421   [2]  00 00
 (027.902758)  can0  460   [4]  75 02 04 00
 (027.902974)  can0  462   [4]  75 02 04 00
 (027.903168)  can0  464   [8]  7F 00 B6 02 09 8D 7E 00
 (027.913709)  can0  421   [2]  00 00
 (027.984324)  can0  421   [2]  00 00
 (028.055029)  can0  421   [2]  00 00
 (028.125679)  can0  421   [2]  00 00
 (028.196323)  can0  421   [2]  00 00
 (028.266999)  can0  421   [2]  00 00
 (028.337666)  can0  421   [2]  00 00
 (028.408339)  can0  421   [2]  00 00
 (028.479000)  can0  421   [2]  00 00
 (028.549669)  can0  421   [2]  00 00
 (028.620335)  can0  421   [2]  00 00
 (028.691011)  can0  421   [2]  00 00
 (028.761676)  can0  421   [2]  00 00
 (028.765557)  can0  422   [1]  00
 (028.832324)  can0  421   [2]  00 00
 (028.902983)  can0  421   [2]  00 00
 (028.926756)  can0  460   [4]  E4 02 06 00
 (028.926965)  can0  462   [4]  E4 02 06 00
 (028.927155)  can0  464   [8]  8A 00 B6 02 1E 8D 7E 00
 (028.973635)  can0  421   [2]  00 00
 (029.044290)  can0  421   [2]  00 00
 (029.114951)  can0  421   [2]  00 00
 (029.185616)  can0  421   [2]  00 00
 (029.256273)  can0  421   [2]  00 00
 (029.326955)  can0  421   [2]  00 00
 (029.397612)  can0  421   [2]  00 00
 (029.468284)  can0  421   [2]  00 00
 (029.538958)  can0  421   [2]  00 00
 (029.609637)  can0  421   [2]  00 00
 (029.680313)  can0  421   [2]  00 00
 (029.750989)  can0  421   [2]  00 00
 (029.765553)  can0  422   [1]  00
 (029.821656)  can0  421   [2]  00 00
 (029.892329)  can0  421   [2]  00 00
 (029.948863)  can0  460   [4]  12 00 07 00
 (029.949078)  can0  462   [4]  12 00 07 00
 (029.949269)  can0  464   [8]  5D 00 B6 02 EA 8C 7E 00
 (029.963009)  can0  421   [2]  00 00
 (030.033658)  can0  421   [2]  00 00
 (030.104305)  can0  421   [2]  00 00
 (030.174963)  can0  421   [2]  00 00
 (030.245623)  can0  421   [2]  00 00
 (030.316285)  can0  421   [2]  00 00
 (030.386945)  can0  421   [2]  00 00
 (030.457610)  can0  421   [2]  00 00
 (030.528275)  can0  421   [2]  00 00
 (030.598940)  can0  421   [2]  00 00
 (030.669602)  can0  421   [2]  00 00
 (030.740260)  can0  421   [2]  00 00
 (030.765543)  can0  422   [1]  00
 (030.810930)  can0  421   [2]  00 00
 (030.881567)  can0  421   [2]  00 00
 (030.952245)  can0  421   [2]  00 00
 (030.972795)  can0  460   [4]  37 00 07 00
 (030.973010)  can0  462   [4]  37 00 07 00
 (030.973206)  can0  464   [8]  58 00 B6 02 E4 8C 7E 00
 (031.022904)  can0  421   [2]  00 00
 (031.093562)  can0  421   [2]  00 00
 (031.164241)  can0  421   [2]  00 00
 (031.234901)  can0  421   [2]  00 00
 (031.305566)  can0  421   [2]  00 00
 (031.376229)  can0  421   [2]  00 00
 (031.446898)  can0  421   [2]  00 00
 (031.517566)  can0  421   [2]  00 00
 (031.588231)  can0  421   [2]  00 00
 (031.658916)  can0  421   [2]  00 00
 (031.729576)  can0  421   [2]  00 00
 (031.765494)  can0  422   [1]  00
 (031.800288)  can0  421   [2]  00 00
 (031.870930)  can0  421   [2]  00 00
 (031.890822)  can0  460   [4]  25 00 07 00
 (031.891037)  can0  462   [4]  25 00 07 00
 (031.891239)  can0  464   [8]  57 00 B6 02 E2 8C 7E 00
 (031.941585)  can0  421   [2]  00 00
 (032.012237)  can0  421   [2]  00 00
 (032.082907)  can0  421   [2]  00 00
 (032.153583)  can0  421   [2]  00 00
 (032.224256)  can0  421   [2]  00 00
 (032.294933)  can0  421   [2]  00 00
 (032.365605)  can0  421   [2]  00 00
 (032.436265)  can0  421   [2]  00 00
 (032.506917)  can0  421   [2]  00 00
 (032.577578)  can0  421   [2]  00 00
 (032.648256)  can0  421   [2]  00 00
 (032.718904)  can0  421   [2]  00 00
 (032.765489)  can0  422   [1]  00
 (032.789584)  can0  421   [2]  00 00
 (032.860205)  can0  421   [2]  00 00
 (032.908924)  can0  460   [4]  12 00 08 00
 (032.909138)  can0  462   [4]  12 00 08 00
 (032.909332)  can0  464   [8]  57 00 B6 02 DF 8C 7E 00
 (032.930878)  can0  421   [2]  00 00
 (033.001520)  can0  421   [2]  00 00
 (033.072197)  can0  421   [2]  00 00
 (033.142850)  can0  421   [2]  00 00
 (033.213506)  can0  421   [2]  00 00
 (033.284162)  can0  421   [2]  00 00
 (033.354846)  can0  421   [2]  00 00
 (033.425499)  can0  421   [2]  00 00
 (033.496161)  can0  421   [2]  00 00
 (033.566808)  can0  421   [2]  00 00
 (033.637469)  can0  421   [2]  00 00
 (033.708130)  can0  421   [2]  00 00
 (033.765445)  can0  422   [1]  00
 (033.778858)  can0  421   [2]  00 00
 (033.849443)  can0  421   [2]  00 00
 (033.920107)  can0  421   [2]  00 00
 (033.930846)  can0  460   [4]  12 00 08 00
 (033.931058)  can0  462   [4]  12 00 08 00
 (033.931251)  can0  464   [8]  55 00 B6 02 DD 8C 7E 00
 (033.990751)  can0  421   [2]  00 00
 (034.061424)  can0  421   [2]  00 00
 (034.132080)  can0  421   [2]  00 00
 (034.202734)  can0  421   [2]  00 00
 (034.273432)  can0  421   [2]  00 00
 (034.344067)  can0  421   [2]  00 00
 (034.414728)  can0  421   [2]  00 00
 (034.485387)  can0  421   [2]  00 00
 (034.556056)  can0  421   [2]  00 00
 (034.626731)  can0  421   [2]  00 00
 (034.697396)  can0  421   [2]  00 00
 (034.765418)  can0  422   [1]  00
 (034.768044)  can0  421   [2]  00 00
 (034.838743)  can0  421   [2]  00 00
 (034.909409)  can0  421   [2]  00 00
 (034.956963)  can0  460   [4]  25 00 08 00
 (034.957179)  can0  462   [4]  25 00 08 00
 (034.957371)  can0  464   [8]  55 00 B6 02 DC 8C 7E 00
 (034.980084)  can0  421   [2]  00 00
 (035.050765)  can0  421   [2]  00 00
 (035.121441)  can0  421   [2]  00 00
 (035.192126)  can0  421   [2]  00 00
 (035.262803)  can0  421   [2]  00 00
 (035.333484)  can0  421   [2]  00 00
 (035.404162)  can0  421   [2]  00 00
 (035.474840)  can0  421   [2]  00 00
 (035.545518)  can0  421   [2]  00 00
 (035.616185)  can0  421   [2]  00 00
 (035.686855)  can0  421   [2]  00 00
 (035.757521)  can0  421   [2]  00 00
 (035.765386)  can0  422   [1]  00
 (035.828191)  can0  421   [2]  00 00
 (035.898883)  can0  421   [2]  00 00
 (035.969543)  can0  421   [2]  00 00
 (035.982886)  can0  460   [4]  25 00 08 00
 (035.983101)  can0  462   [4]  25 00 08 00
 (035.983297)  can0  464   [8]  54 00 B6 02 DB 8C 7E 00
 (036.040236)  can0  421   [2]  00 00
 (036.110910)  can0  421   [2]  00 00
 (036.181582)  can0  421   [2]  00 00
 (036.252266)  can0  421   [2]  00 00
 (036.322950)  can0  421   [2]  00 00
 (036.393641)  can0  421   [2]  00 00
 (036.464330)  can0  421   [2]  00 00
 (036.535017)  can0  421   [2]  00 00
 (036.605702)  can0  421   [2]  00 00
 (036.676389)  can0  421   [2]  00 00
 (036.747080)  can0  421   [2]  00 00
 (036.765369)  can0  422   [1]  00
 (036.817796)  can0  421   [2]  00 00
 (036.888482)  can0  421   [2]  00 00
 (036.904905)  can0  460   [4]  12 00 08 00
 (036.905122)  can0  462   [4]  12 00 08 00
 (036.905324)  can0  464   [8]  53 00 B6 02 DA 8C 7E 00
 (036.959174)  can0  421   [2]  00 00
 (037.029868)  can0  421   [2]  00 00
 (037.100566)  can0  421   [2]  00 00
 (037.171245)  can0  421   [2]  00 00
 (037.241924)  can0  421   [2]  00 00
 (037.312602)  can0  421   [2]  00 00
 (037.383277)  can0  421   [2]  00 00
 (037.453970)  can0  421   [2]  00 00
 (037.524650)  can0  421   [2]  00 00
 (037.595341)  can0  421   [2]  00 00
 (037.666023)  can0  421   [2]  00 00
 (037.736695)  can0  421   [2]  00 00
 (037.765357)  can0  422   [1]  00
 (037.807368)  can0  421   [2]  00 00
 (037.878049)  can0  421   [2]  00 00
 (037.926921)  can0  460   [4]  12 00 08 00
 (037.927133)  can0  462   [4]  12 00 08 00
 (037.927328)  can0  464   [8]  53 00 B6 02 DB 8C 7E 00
 (037.948725)  can0  421   [2]  00 00
 (038.019412)  can0  421   [2]  00 00
 (038.090108)  can0  421   [2]  00 00
 (038.160787)  can0  421   [2]  00 00
 (038.231475)  can0  421   [2]  00 00
 (038.302191)  can0  421   [2]  00 00
 (038.372816)  can0  421   [2]  00 00
 (038.443483)  can0  421   [2]  00 00
 (038.514167)  can0  421   [2]  00 00
 (038.584854)  can0  421   [2]  00 00
 (038.655533)  can0  421   [2]  00 00
 (038.726220)  can0  421   [2]  00 00
 (038.765318)  can0  422   [1]  00
 (038.796904)  can0  421   [2]  00 00
 (038.867573)  can0  421   [2]  00 00
 (038.938259)  can0  421   [2]  00 00
 (038.949205)  can0  460   [4]  12 00 08 00
 (038.949416)  can0  462   [4]  12 00 08 00
 (038.949612)  can0  464   [8]  52 00 B6 02 DD 8C 7E 00
 (039.008954)  can0  421   [2]  00 00
 (039.079620)  can0  421   [2]  00 00
 (039.150315)  can0  421   [2]  00 00
 (039.220997)  can0  421   [2]  00 00
 (039.291682)  can0  421   [2]  00 00
 (039.362374)  can0  421   [2]  00 00
 (039.433048)  can0  421   [2]  00 00
 (039.503738)  can0  421   [2]  00 00
 (039.574433)  can0  421   [2]  00 00
 (039.645108)  can0  421   [2]  00 00
 (039.715808)  can0  421   [2]  00 00
 (039.765286)  can0  422   [1]  00
 (039.786481)  can0  421   [2]  00 00
 (039.857171)  can0  421   [2]  00 00
 (039.927894)  can0  421   [2]  00 00
 (039.969246)  can0  460   [4]  12 00 08 00
 (039.969478)  can0  462   [4]  12 00 08 00
 (039.969682)  can0  464   [8]  51 00 B6 02 DE 8C 7E 00
 (039.998609)  can0  421   [2]  00 00
 (040.069246)  can0  421   [2]  00 00
 (040.139932)  can0  421   [2]  00 00
 (040.210623)  can0  421   [2]  00 00
 (040.281294)  can0  421   [2]  00 00
 (040.351956)  can0  421   [2]  00 00
 (040.422627)  can0  421   [2]  00 00
 (040.493307)  can0  421   [2]  00 00
 (040.563983)  can0  421   [2]  00 00
 (040.634666)  can0  421   [2]  00 00
 (040.705366)  can0  421   [2]  00 00
 (040.765265)  can0  422   [1]  00
 (040.776018)  can0  421   [2]  00 00
 (040.846723)  can0  421   [2]  00 00
 (040.894989)  can0  460   [4]  25 00 08 00
 (040.895216)  can0  462   [4]  25 00 08 00
 (040.895418)  can0  464   [8]  51 00 B6 02 E1 8C 7E 00
 (040.917386)  can0  421   [2]  00 00
 (040.988060)  can0  421   [2]  00 00
 (041.058737)  can0  421   [2]  00 00
 (041.129419)  can0  421   [2]  00 00
 (041.200090)  can0  421   [2]  00 00
 (041.270773)  can0  421   [2]  00 00
 (041.341466)  can0  421   [2]  00 00
 (041.412140)  can0  421   [2]  00 00
 (041.482826)  can0  421   [2]  00 00
 (041.553501)  can0  421   [2]  00 00
 (041.624171)  can0  421   [2]  00 00
 (041.694830)  can0  421   [2]  00 00
 (041.765238)  can0  422   [1]  00
 (041.765499)  can0  421   [2]  00 00
 (041.836170)  can0  421   [2]  00 00
 (041.906849)  can0  421   [2]  00 00
 (041.917263)  can0  460   [4]  12 00 08 00
 (041.917477)  can0  462   [4]  12 00 08 00
 (041.917676)  can0  464   [8]  50 00 B6 02 E2 8C 7E 00
 (041.977521)  can0  421   [2]  00 00
 (042.048200)  can0  421   [2]  00 00
 (042.118874)  can0  421   [2]  00 00
 (042.189539)  can0  421   [2]  00 00
 (042.260205)  can0  421   [2]  00 00
 (042.330876)  can0  421   [2]  00 00
 (042.401559)  can0  421   [2]  00 00
 (042.472245)  can0  421   [2]  00 00
 (042.542909)  can0  421   [2]  00 00
 (042.613594)  can0  421   [2]  00 00
 (042.684271)  can0  421   [2]  00 00
 (042.754933)  can0  421   [2]  00 00
 (042.765205)  can0  422   [1]  00
 (042.825605)  can0  421   [2]  00 00
 (042.896276)  can0  421   [2]  00 00
 (042.941009)  can0  460   [4]  00 00 08 00
 (042.941230)  can0  462   [4]  00 00 08 00
 (042.941426)  can0  464   [8]  50 00 B6 02 E3 8C 7E 00
 (042.966944)  can0  421   [2]  00 00
 (043.037635)  can0  421   [2]  00 00
 (043.108319)  can0  421   [2]  00 00
 (043.179005)  can0  421   [2]  00 00
 (043.249683)  can0  421   [2]  00 00
 (043.320364)  can0  421   [2]  00 00
 (043.391047)  can0  421   [2]  00 00
 (043.461726)  can0  421   [2]  00 00
 (043.532408)  can0  421   [2]  00 00
 (043.603088)  can0  421   [2]  00 00
 (043.673775)  can0  421   [2]  00 00
 (043.744458)  can0  421   [2]  00 00
 (043.765183)  can0  422   [1]  00
 (043.815153)  can0  421   [2]  00 00
 (043.885829)  can0  421   [2]  00 00
 (043.956525)  can0  421   [2]  00 00
 (043.967300)  can0  460   [4]  00 00 08 00
 (043.967515)  can0  462   [4]  00 00 08 00
 (043.967711)  can0  464   [8]  4F 00 B6 02 E3 8C 7E 00
 (044.027212)  can0  421   [2]  00 00
 (044.097890)  can0  421   [2]  00 00
 (044.168580)  can0  421   [2]  00 00
 (044.239262)  can0  421   [2]  00 00
 (044.309946)  can0  421   [2]  00 00
 (044.380633)  can0  421   [2]  00 00
 (044.451339)  can0  421   [2]  00 00
 (044.522018)  can0  421   [2]  00 00
 (044.592710)  can0  421   [2]  00 00
 (044.663396)  can0  421   [2]  00 00
 (044.734088)  can0  421   [2]  00 00
 (044.765155)  can0  422   [1]  00
 (044.804795)  can0  421   [2]  00 00
 (044.875459)  can0  421   [2]  00 00
 (044.887320)  can0  460   [4]  25 00 08 00
 (044.887526)  can0  462   [4]  25 00 08 00
 (044.887721)  can0  464   [8]  50 00 B6 02 E4 8C 7E 00
 (044.946134)  can0  421   [2]  00 00
 (045.016817)  can0  421   [2]  00 00
 (045.087504)  can0  421   [2]  00 00
 (045.158174)  can0  421   [2]  00 00
 (045.228858)  can0  421   [2]  00 00
 (045.299527)  can0  421   [2]  00 00
 (045.370211)  can0  421   [2]  00 00
 (045.440886)  can0  421   [2]  00 00
 (045.511561)  can0  421   [2]  00 00
 (045.582229)  can0  421   [2]  00 00
 (045.652912)  can0  421   [2]  00 00
 (045.723570)  can0  421   [2]  00 00
 (045.765139)  can0  422   [1]  00
 (045.794260)  can0  421   [2]  00 00
 (045.864934)  can0  421   [2]  00 00
 (045.911170)  can0  460   [4]  25 00 08 00
 (045.911392)  can0  462   [4]  25 00 08 00
 (045.911592)  can0  464   [8]  51 00 B6 02 E5 8C 7E 00
 (045.935636)  can0  421   [2]  00 00
 (046.006250)  can0  421   [2]  00 00
 (046.076924)  can0  421   [2]  00 00
 (046.147599)  can0  421   [2]  00 00
 (046.218269)  can0  421   [2]  00 00
 (046.288938)  can0  421   [2]  00 00
 (046.359602)  can0  421   [2]  00 00
 (046.430289)  can0  421   [2]  00 00
 (046.500950)  can0  421   [2]  00 00
 (046.571625)  can0  421   [2]  00 00
 (046.642299)  can0  421   [2]  00 00
 (046.712971)  can0  421   [2]  00 00
 (046.765099)  can0  422   [1]  00
 (046.783761)  can0  421   [2]  00 00
 (046.854293)  can0  421   [2]  00 00
 (046.924957)  can0  421   [2]  00 00
 (046.935091)  can0  460   [4]  12 00 08 00
 (046.935307)  can0  462   [4]  12 00 08 00
 (046.935504)  can0  464   [8]  51 00 B6 02 E4 8C 7E 00
 (046.995620)  can0  421   [2]  00 00
 (047.066288)  can0  421   [2]  00 00
 (047.136951)  can0  421   [2]  00 00
 (047.207617)  can0  421   [2]  00 00
 (047.278290)  can0  421   [2]  00 00
 (047.348968)  can0  421   [2]  00 00
 (047.419633)  can0  421   [2]  00 00
 (047.490304)  can0  421   [2]  00 00
 (047.560967)  can0  421   [2]  00 00
 (047.631632)  can0  421   [2]  00 00
 (047.702317)  can0  421   [2]  00 00
 (047.765077)  can0  422   [1]  00
 (047.773150)  can0  421   [2]  00 00
 (047.843643)  can0  421   [2]  00 00
 (047.914315)  can0  421   [2]  00 00
 (047.959223)  can0  460   [4]  12 00 08 00
 (047.959451)  can0  462   [4]  12 00 08 00
 (047.959644)  can0  464   [8]  50 00 B6 02 E3 8C 7E 00
 (047.984985)  can0  421   [2]  00 00
 (048.055646)  can0  421   [2]  00 00
 (048.126317)  can0  421   [2]  00 00
 (048.196988)  can0  421   [2]  00 00
 (048.267678)  can0  421   [2]  00 00
 (048.338338)  can0  421   [2]  00 00
 (048.409007)  can0  421   [2]  00 00
 (048.479675)  can0  421   [2]  00 00
 (048.550340)  can0  421   [2]  00 00
 (048.621021)  can0  421   [2]  00 00
 (048.691699)  can0  421   [2]  00 00
 (048.762374)  can0  421   [2]  00 00
 (048.765022)  can0  422   [1]  00
 (048.833045)  can0  421   [2]  00 00
 (048.903734)  can0  421   [2]  00 00
 (048.974404)  can0  421   [2]  00 00
 (048.981112)  can0  460   [4]  12 00 09 00
 (048.981308)  can0  462   [4]  12 00 09 00
 (048.981498)  can0  464   [8]  4E 00 B6 02 E3 8C 7E 00
 (049.045108)  can0  421   [2]  00 00
 (049.115742)  can0  421   [2]  00 00
 (049.186422)  can0  421   [2]  00 00
 (049.257094)  can0  421   [2]  00 00
 (049.327765)  can0  421   [2]  00 00
 (049.398435)  can0  421   [2]  00 00
 (049.469107)  can0  421   [2]  00 00
 (049.539822)  can0  421   [2]  00 00
 (049.610487)  can0  421   [2]  00 00
 (049.681134)  can0  421   [2]  00 00
 (049.751792)  can0  421   [2]  00 00
 (049.765025)  can0  422   [1]  00
 (049.822484)  can0  421   [2]  00 00
 (049.893130)  can0  421   [2]  00 00
 (049.899118)  can0  460   [4]  12 00 09 00
 (049.899315)  can0  462   [4]  12 00 09 00
 (049.899504)  can0  464   [8]  4E 00 B6 02 E2 8C 7E 00
 (049.963831)  can0  421   [2]  00 00
 (050.034481)  can0  421   [2]  00 00
 (050.105152)  can0  421   [2]  00 00
 (050.175842)  can0  421   [2]  00 00
 (050.246502)  can0  421   [2]  00 00
 (050.317179)  can0  421   [2]  00 00
 (050.387837)  can0  421   [2]  00 00
 (050.458506)  can0  421   [2]  00 00
 (050.529181)  can0  421   [2]  00 00
 (050.599872)  can0  421   [2]  00 00
 (050.670540)  can0  421   [2]  00 00
 (050.741219)  can0  421   [2]  00 00
 (050.765005)  can0  422   [1]  00
 (050.811919)  can0  421   [2]  00 00
 (050.882563)  can0  421   [2]  00 00
 (050.917245)  can0  460   [4]  12 00 09 00
 (050.917459)  can0  462   [4]  12 00 09 00
 (050.917652)  can0  464   [8]  4E 00 B6 02 E2 8C 7E 00
 (050.953243)  can0  421   [2]  00 00
 (051.023925)  can0  421   [2]  00 00
 (051.094595)  can0  421   [2]  00 00
 (051.165267)  can0  421   [2]  00 00
 (051.235937)  can0  421   [2]  00 00
 (051.306625)  can0  421   [2]  00 00
 (051.377319)  can0  421   [2]  00 00
 (051.448006)  can0  421   [2]  00 00
 (051.518678)  can0  421   [2]  00 00
 (051.589347)  can0  421   [2]  00 00
 (051.660020)  can0  421   [2]  00 00
 (051.730700)  can0  421   [2]  00 00
 (051.764978)  can0  422   [1]  00
 (051.801367)  can0  421   [2]  00 00
 (051.872045)  can0  421   [2]  00 00
 (051.941182)  can0  460   [4]  12 00 09 00
 (051.941411)  can0  462   [4]  12 00 09 00
 (051.941607)  can0  464   [8]  4F 00 B6 02 E0 8C 7E 00
 (051.942751)  can0  421   [2]  00 00
 (052.013390)  can0  421   [2]  00 00
 (052.084074)  can0  421   [2]  00 00
 (052.154735)  can0  421   [2]  00 00
 (052.225399)  can0  421   [2]  00 00
 (052.296065)  can0  421   [2]  00 00
 (052.366736)  can0  421   [2]  00 00
 (052.437398)  can0  421   [2]  00 00
 (052.508064)  can0  421   [2]  00 00
 (052.578724)  can0  421   [2]  00 00
 (052.649386)  can0  421   [2]  00 00
 (052.720055)  can0  421   [2]  00 00
 (052.764951)  can0  422   [1]  00
 (052.790732)  can0  421   [2]  00 00
 (052.861406)  can0  421   [2]  00 00
 (052.932075)  can0  421   [2]  00 00
 (052.967189)  can0  460   [4]  12 00 09 00
 (052.967402)  can0  462   [4]  12 00 09 00
 (052.967595)  can0  464   [8]  4F 00 B6 02 E0 8C 7E 00
 (053.002840)  can0  421   [2]  00 00
 (053.073386)  can0  421   [2]  00 00
 (053.144053)  can0  421   [2]  00 00
 (053.214732)  can0  421   [2]  00 00
 (053.285407)  can0  421   [2]  00 00
 (053.379293)  can0  421   [2]  00 00
 (053.449946)  can0  421   [2]  00 00
 (053.520603)  can0  421   [2]  00 00
 (053.591267)  can0  421   [2]  00 00
 (053.661933)  can0  421   [2]  00 00
 (053.732594)  can0  421   [2]  00 00
 (053.764914)  can0  422   [1]  00
 (053.803259)  can0  421   [2]  00 00
 (053.873921)  can0  421   [2]  00 00
 (053.891225)  can0  460   [4]  25 00 09 00
 (053.891458)  can0  462   [4]  25 00 09 00
 (053.891681)  can0  464   [8]  50 00 B6 02 E1 8C 7E 00
 (053.944592)  can0  421   [2]  00 00
 (054.015265)  can0  421   [2]  00 00
 (054.085951)  can0  421   [2]  00 00
 (054.156617)  can0  421   [2]  00 00
 (054.227275)  can0  421   [2]  00 00
 (054.297944)  can0  421   [2]  00 00
 (054.368610)  can0  421   [2]  00 00
 (054.439299)  can0  421   [2]  00 00
 (054.509945)  can0  421   [2]  00 00
 (054.580608)  can0  421   [2]  00 00
 (054.651253)  can0  421   [2]  00 00
 (054.721925)  can0  421   [2]  00 00
 (054.764892)  can0  422   [1]  00
 (054.792589)  can0  421   [2]  00 00
 (054.863255)  can0  421   [2]  00 00
 (054.921227)  can0  460   [4]  25 00 09 00
 (054.921437)  can0  462   [4]  25 00 09 00
 (054.921637)  can0  464   [8]  4F 00 B6 02 E0 8C 7E 00
 (054.933893)  can0  421   [2]  00 00
 (055.004558)  can0  421   [2]  00 00
 (055.075204)  can0  421   [2]  00 00
 (055.145874)  can0  421   [2]  00 00
 (055.216525)  can0  421   [2]  00 00
 (055.287184)  can0  421   [2]  00 00
 (055.357831)  can0  421   [2]  00 00
 (055.428484)  can0  421   [2]  00 00
 (055.499148)  can0  421   [2]  00 00
 (055.569816)  can0  421   [2]  00 00
 (055.640484)  can0  421   [2]  00 00
 (055.711136)  can0  421   [2]  00 00
 (055.764870)  can0  422   [1]  00
 (055.781798)  can0  421   [2]  00 00
 (055.852467)  can0  421   [2]  00 00
 (055.923124)  can0  421   [2]  00 00
 (055.945339)  can0  460   [4]  25 00 09 00
 (055.945565)  can0  462   [4]  25 00 09 00
 (055.945757)  can0  464   [8]  50 00 B6 02 DF 8C 7E 00
 (055.993779)  can0  421   [2]  00 00
 (056.064426)  can0  421   [2]  00 00
 (056.135088)  can0  421   [2]  00 00
 (056.205745)  can0  421   [2]  00 00
 (056.276426)  can0  421   [2]  00 00
 (056.347083)  can0  421   [2]  00 00
 (056.417752)  can0  421   [2]  00 00
 (056.488410)  can0  421   [2]  00 00
 (056.559076)  can0  421   [2]  00 00
 (056.629739)  can0  421   [2]  00 00
 (056.700393)  can0  421   [2]  00 00
 (056.764847)  can0  422   [1]  00
 (056.771046)  can0  421   [2]  00 00
 (056.841699)  can0  421   [2]  00 00
 (056.912353)  can0  421   [2]  00 00
 (056.975280)  can0  460   [4]  25 00 09 00
 (056.975498)  can0  462   [4]  25 00 09 00
 (056.975700)  can0  464   [8]  50 00 B6 02 DD 8C 7E 00
 (056.983015)  can0  421   [2]  00 00
 (057.053678)  can0  421   [2]  00 00
 (057.124313)  can0  421   [2]  00 00
 (057.194958)  can0  421   [2]  00 00
 (057.265613)  can0  421   [2]  00 00
 (057.336271)  can0  421   [2]  00 00
 (057.406907)  can0  421   [2]  00 00
 (057.477545)  can0  421   [2]  00 00
 (057.548178)  can0  421   [2]  00 00
 (057.618820)  can0  421   [2]  00 00
 (057.689456)  can0  421   [2]  00 00
 (057.760121)  can0  421   [2]  00 00
 (057.764820)  can0  422   [1]  00
 (057.830732)  can0  421   [2]  00 00
 (057.897300)  can0  460   [4]  25 00 09 00
 (057.897517)  can0  462   [4]  25 00 09 00
 (057.897708)  can0  464   [8]  50 00 B6 02 DD 8C 7E 00
 (057.901360)  can0  421   [2]  00 00
 (057.972024)  can0  421   [2]  00 00
 (058.042667)  can0  421   [2]  00 00
 (058.113313)  can0  421   [2]  00 00
 (058.183954)  can0  421   [2]  00 00
 (058.254598)  can0  421   [2]  00 00
 (058.325245)  can0  421   [2]  00 00
 (058.395906)  can0  421   [2]  00 00
 (058.466567)  can0  421   [2]  00 00
 (058.537222)  can0  421   [2]  00 00
 (058.607888)  can0  421   [2]  00 00
 (058.678550)  can0  421   [2]  00 00
 (058.749199)  can0  421   [2]  00 00
 (058.764788)  can0  422   [1]  00
 (058.819887)  can0  421   [2]  00 00
 (058.890500)  can0  421   [2]  00 00
 (058.925297)  can0  460   [4]  12 00 09 00
 (058.925516)  can0  462   [4]  12 00 09 00
 (058.925718)  can0  464   [8]  50 00 B6 02 DC 8C 7E 00
 (058.961164)  can0  421   [2]  00 00
 (059.031818)  can0  421   [2]  00 00
 (059.102460)  can0  421   [2]  00 00
 (059.173128)  can0  421   [2]  00 00
 (059.243787)  can0  421   [2]  00 00
 (059.314435)  can0  421   [2]  00 00
 (059.385087)  can0  421   [2]  00 00
 (059.455745)  can0  421   [2]  00 00
 (059.526418)  can0  421   [2]  00 00
 (059.597090)  can0  421   [2]  00 00
 (059.667769)  can0  421   [2]  00 00
 (059.738429)  can0  421   [2]  00 00
 (059.764770)  can0  422   [1]  00
 (059.809075)  can0  421   [2]  00 00
 (059.879734)  can0  421   [2]  00 00
 (059.950392)  can0  421   [2]  00 00
 (059.951551)  can0  460   [4]  25 00 09 00
 (059.951751)  can0  462   [4]  25 00 09 00
 (059.951952)  can0  464   [8]  50 00 B6 02 DC 8C 7E 00
 (060.021106)  can0  421   [2]  00 00
 (060.091722)  can0  421   [2]  00 00
 (060.162394)  can0  421   [2]  00 00
 (060.233060)  can0  421   [2]  00 00
 (060.303733)  can0  421   [2]  00 00
 (060.374402)  can0  421   [2]  00 00
 (060.445094)  can0  421   [2]  00 00
 (060.515742)  can0  421   [2]  00 00
 (060.586417)  can0  421   [2]  00 00
 (060.657083)  can0  421   [2]  00 00
 (060.727754)  can0  421   [2]  00 00
 (060.764734)  can0  422   [1]  00
 (060.798410)  can0  421   [2]  00 00
 (060.869055)  can0  421   [2]  00 00
 (060.939735)  can0  421   [2]  00 00
 (060.977351)  can0  460   [4]  12 00 09 00
 (060.977569)  can0  462   [4]  12 00 09 00
 (060.977762)  can0  464   [8]  4F 00 B6 02 DC 8C 7E 00
 (061.010515)  can0  421   [2]  00 00
 (061.081052)  can0  421   [2]  00 00
 (061.151722)  can0  421   [2]  00 00
 (061.222366)  can0  421   [2]  00 00
 (061.293034)  can0  421   [2]  00 00
 (061.363701)  can0  421   [2]  00 00
 (061.434364)  can0  421   [2]  00 00
 (061.505019)  can0  421   [2]  00 00
 (061.575694)  can0  421   [2]  00 00
 (061.646354)  can0  421   [2]  00 00
 (061.717013)  can0  421   [2]  00 00
 (061.764709)  can0  422   [1]  00
 (061.787687)  can0  421   [2]  00 00
 (061.858343)  can0  421   [2]  00 00
 (061.905637)  can0  460   [4]  12 00 09 00
 (061.905855)  can0  462   [4]  12 00 09 00
 (061.906049)  can0  464   [8]  4F 00 B6 02 DD 8C 7E 00
 (061.929004)  can0  421   [2]  00 00
 (061.999677)  can0  421   [2]  00 00
 (062.070341)  can0  421   [2]  00 00
 (062.141018)  can0  421   [2]  00 00
 (062.211704)  can0  421   [2]  00 00
 (062.282356)  can0  421   [2]  00 00
 (062.353011)  can0  421   [2]  00 00
 (062.423672)  can0  421   [2]  00 00
 (062.494341)  can0  421   [2]  00 00
 (062.564990)  can0  421   [2]  00 00
 (062.635647)  can0  421   [2]  00 00
 (062.706307)  can0  421   [2]  00 00
 (062.764683)  can0  422   [1]  00
 (062.776971)  can0  421   [2]  00 00
 (062.847629)  can0  421   [2]  00 00
 (062.918274)  can0  421   [2]  00 00
 (062.933377)  can0  460   [4]  12 00 0A 00
 (062.933597)  can0  462   [4]  12 00 0A 00
 (062.933794)  can0  464   [8]  4F 00 B6 02 DE 8C 7E 00
 (062.988939)  can0  421   [2]  00 00
 (063.059591)  can0  421   [2]  00 00
 (063.130263)  can0  421   [2]  00 00
 (063.200928)  can0  421   [2]  00 00
 (063.271578)  can0  421   [2]  00 00
 (063.342233)  can0  421   [2]  00 00
 (063.412897)  can0  421   [2]  00 00
 (063.483561)  can0  421   [2]  00 00
 (063.554226)  can0  421   [2]  00 00
 (063.624901)  can0  421   [2]  00 00
 (063.695565)  can0  421   [2]  00 00
 (063.764652)  can0  422   [1]  00
 (063.766210)  can0  421   [2]  00 00
 (063.836896)  can0  421   [2]  00 00
 (063.907567)  can0  421   [2]  00 00
 (063.963653)  can0  460   [4]  12 00 0A 00
 (063.963886)  can0  462   [4]  12 00 0A 00
 (063.964078)  can0  464   [8]  4F 00 B6 02 E0 8C 7E 00
 (063.978234)  can0  421   [2]  00 00
 (064.048899)  can0  421   [2]  00 00
 (064.119559)  can0  421   [2]  00 00
 (064.190223)  can0  421   [2]  00 00
 (064.260886)  can0  421   [2]  00 00
 (064.331573)  can0  421   [2]  00 00
 (064.402244)  can0  421   [2]  00 00
 (064.472902)  can0  421   [2]  00 00
 (064.543561)  can0  421   [2]  00 00
 (064.614216)  can0  421   [2]  00 00
 (064.684892)  can0  421   [2]  00 00
 (064.755558)  can0  421   [2]  00 00
 (064.764615)  can0  422   [1]  00
 (064.826215)  can0  421   [2]  00 00
 (064.889505)  can0  460   [4]  25 00 0A 00
 (064.889734)  can0  462   [4]  25 00 0A 00
 (064.889927)  can0  464   [8]  4F 00 B6 02 E0 8C 7E 00
 (064.896874)  can0  421   [2]  00 00
 (064.967567)  can0  421   [2]  00 00
 (065.038226)  can0  421   [2]  00 00
 (065.108894)  can0  421   [2]  00 00
 (065.179557)  can0  421   [2]  00 00
 (065.250223)  can0  421   [2]  00 00
 (065.320904)  can0  421   [2]  00 00
 (065.391588)  can0  421   [2]  00 00
 (065.462246)  can0  421   [2]  00 00
 (065.532917)  can0  421   [2]  00 00
 (065.603597)  can0  421   [2]  00 00
 (065.674261)  can0  421   [2]  00 00
 (065.744943)  can0  421   [2]  00 00
 (065.764599)  can0  422   [1]  00
 (065.815609)  can0  421   [2]  00 00
 (065.886293)  can0  421   [2]  00 00
 (065.917702)  can0  460   [4]  12 00 0A 00
 (065.917919)  can0  462   [4]  12 00 0A 00
 (065.918112)  can0  464   [8]  4F 00 B6 02 E1 8C 7E 00
 (065.956958)  can0  421   [2]  00 00
 (066.027636)  can0  421   [2]  00 00
 (066.098324)  can0  421   [2]  00 00
 (066.168984)  can0  421   [2]  00 00
 (066.239649)  can0  421   [2]  00 00
 (066.310322)  can0  421   [2]  00 00
 (066.380985)  can0  421   [2]  00 00
 (066.451671)  can0  421   [2]  00 00
 (066.522334)  can0  421   [2]  00 00
 (066.593016)  can0  421   [2]  00 00
 (066.663679)  can0  421   [2]  00 00
 (066.734351)  can0  421   [2]  00 00
 (066.764577)  can0  422   [1]  00
 (066.805036)  can0  421   [2]  00 00
 (066.875707)  can0  421   [2]  00 00
 (066.946374)  can0  421   [2]  00 00
 (066.949685)  can0  460   [4]  12 00 0A 00
 (066.949889)  can0  462   [4]  12 00 0A 00
 (066.950079)  can0  464   [8]  50 00 B6 02 E2 8C 7E 00
 (067.017053)  can0  421   [2]  00 00
 (067.087742)  can0  421   [2]  00 00
 (067.158393)  can0  421   [2]  00 00
 (067.229055)  can0  421   [2]  00 00
 (067.299719)  can0  421   [2]  00 00
 (067.370384)  can0  421   [2]  00 00
 (067.441073)  can0  421   [2]  00 00
 (067.511734)  can0  421   [2]  00 00
 (067.582398)  can0  421   [2]  00 00
 (067.653064)  can0  421   [2]  00 00
 (067.723720)  can0  421   [2]  00 00
 (067.764548)  can0  422   [1]  00
 (067.794393)  can0  421   [2]  00 00
 (067.865047)  can0  421   [2]  00 00
 (067.935719)  can0  421   [2]  00 00
 (067.977907)  can0  460   [4]  12 00 0A 00
 (067.978129)  can0  462   [4]  12 00 0A 00
 (067.978328)  can0  464   [8]  50 00 B6 02 E2 8C 7E 00
 (068.006397)  can0  421   [2]  00 00
 (068.077064)  can0  421   [2]  00 00
 (068.147751)  can0  421   [2]  00 00
 (068.218423)  can0  421   [2]  00 00
 (068.289089)  can0  421   [2]  00 00
 (068.359756)  can0  421   [2]  00 00
 (068.430422)  can0  421   [2]  00 00
 (068.501093)  can0  421   [2]  00 00
 (068.571755)  can0  421   [2]  00 00
 (068.642454)  can0  421   [2]  00 00
 (068.713105)  can0  421   [2]  00 00
 (068.764520)  can0  422   [1]  00
 (068.783775)  can0  421   [2]  00 00
 (068.854443)  can0  421   [2]  00 00
 (068.907749)  can0  460   [4]  12 00 0A 00
 (068.907970)  can0  462   [4]  12 00 0A 00
 (068.908176)  can0  464   [8]  50 00 B6 02 E3 8C 7E 00
 (068.925175)  can0  421   [2]  00 00
 (068.995836)  can0  421   [2]  00 00
 (069.066507)  can0  421   [2]  00 00
 (069.137185)  can0  421   [2]  00 00
 (069.207868)  can0  421   [2]  00 00
 (069.278527)  can0  421   [2]  00 00
 (069.349204)  can0  421   [2]  00 00
 (069.419889)  can0  421   [2]  00 00
 (069.490540)  can0  421   [2]  00 00
 (069.561220)  can0  421   [2]  00 00
 (069.631906)  can0  421   [2]  00 00
 (069.702540)  can0  421   [2]  00 00
 (069.764501)  can0  422   [1]  00
 (069.773205)  can0  421   [2]  00 00
 (069.843897)  can0  421   [2]  00 00
 (069.914553)  can0  421   [2]  00 00
 (069.937487)  can0  460   [4]  00 00 0A 00
 (069.937697)  can0  462   [4]  00 00 0A 00
 (069.937890)  can0  464   [8]  50 00 B6 02 E3 8C 7E 00
 (069.985239)  can0  421   [2]  00 00
 (070.055895)  can0  421   [2]  00 00
 (070.126561)  can0  421   [2]  00 00
 (070.197224)  can0  421   [2]  00 00
 (070.267897)  can0  421   [2]  00 00
 (070.338566)  can0  421   [2]  00 00
 (070.409227)  can0  421   [2]  00 00
 (070.479896)  can0  421   [2]  00 00
 (070.550563)  can0  421   [2]  00 00
 (070.621228)  can0  421   [2]  00 00
 (070.691906)  can0  421   [2]  00 00
 (070.762577)  can0  421   [2]  00 00
 (070.764451)  can0  422   [1]  00
 (070.833248)  can0  421   [2]  00 00
 (070.903940)  can0  421   [2]  00 00
 (070.969882)  can0  460   [4]  12 00 0A 00
 (070.970103)  can0  462   [4]  12 00 0A 00
 (070.970298)  can0  464   [8]  50 00 B6 02 E3 8C 7E 00
 (070.974732)  can0  421   [2]  00 00
 (071.045264)  can0  421   [2]  00 00
 (071.115925)  can0  421   [2]  00 00
 (071.186590)  can0  421   [2]  00 00
 (071.257244)  can0  421   [2]  00 00
 (071.327895)  can0  421   [2]  00 00
 (071.398550)  can0  421   [2]  00 00
 (071.469207)  can0  421   [2]  00 00
 (071.539876)  can0  421   [2]  00 00
 (071.610536)  can0  421   [2]  00 00
 (071.681180)  can0  421   [2]  00 00
 (071.751824)  can0  421   [2]  00 00
 (071.764448)  can0  422   [1]  00
 (071.822485)  can0  421   [2]  00 00
 (071.893123)  can0  421   [2]  00 00
 (071.893767)  can0  460   [4]  12 00 0A 00
 (071.893965)  can0  462   [4]  12 00 0A 00
 (071.894159)  can0  464   [8]  51 00 B6 02 E4 8C 7E 00
 (071.963773)  can0  421   [2]  00 00
 (072.034416)  can0  421   [2]  00 00
 (072.105088)  can0  421   [2]  00 00
 (072.175723)  can0  421   [2]  00 00
 (072.246362)  can0  421   [2]  00 00
 (072.317010)  can0  421   [2]  00 00
 (072.387654)  can0  421   [2]  00 00
 (072.458316)  can0  421   [2]  00 00
 (072.528958)  can0  421   [2]  00 00
 (072.599616)  can0  421   [2]  00 00
 (072.670256)  can0  421   [2]  00 00
 (072.740894)  can0  421   [2]  00 00
 (072.764409)  can0  422   [1]  00
 (072.811533)  can0  421   [2]  00 00
 (072.882186)  can0  421   [2]  00 00
 (072.923544)  can0  460   [4]  12 00 0A 00
 (072.923763)  can0  462   [4]  12 00 0A 00
 (072.923961)  can0  464   [8]  51 00 B6 02 E4 8C 7E 00
 (072.952848)  can0  421   [2]  00 00
 (073.023482)  can0  421   [2]  00 00
 (073.094133)  can0  421   [2]  00 00
 (073.164783)  can0  421   [2]  00 00
 (073.235429)  can0  421   [2]  00 00
 (073.306145)  can0  421   [2]  00 00
 (073.376741)  can0  421   [2]  00 00
 (073.447394)  can0  421   [2]  00 00
 (073.518030)  can0  421   [2]  00 00
 (073.588690)  can0  421   [2]  00 00
 (073.659346)  can0  421   [2]  00 00
 (073.730011)  can0  421   [2]  00 00
 (073.764386)  can0  422   [1]  00
 (073.800671)  can0  421   [2]  00 00
 (073.871320)  can0  421   [2]  00 00
 (073.941964)  can0  421   [2]  00 00
 (073.955839)  can0  460   [4]  12 00 0A 00
 (073.956055)  can0  462   [4]  12 00 0A 00
 (073.956248)  can0  464   [8]  51 00 B6 02 E5 8C 7E 00
 (074.012777)  can0  421   [2]  00 00
 (074.083295)  can0  421   [2]  00 00
 (074.153960)  can0  421   [2]  00 00
 (074.224609)  can0  421   [2]  00 00
 (074.295259)  can0  421   [2]  00 00
 (074.365905)  can0  421   [2]  00 00
 (074.436558)  can0  421   [2]  00 00
 (074.507218)  can0  421   [2]  00 00
 (074.577876)  can0  421   [2]  00 00
 (074.648516)  can0  421   [2]  00 00
 (074.719157)  can0  421   [2]  00 00
 (074.764359)  can0  422   [1]  00
 (074.789809)  can0  421   [2]  00 00
 (074.860453)  can0  421   [2]  00 00
 (074.891580)  can0  460   [4]  25 00 0A 00
 (074.891807)  can0  462   [4]  25 00 0A 00
 (074.892002)  can0  464   [8]  52 00 B6 02 E6 8C 7E 00
 (074.931141)  can0  421   [2]  00 00
 (075.001752)  can0  421   [2]  00 00
 (075.072387)  can0  421   [2]  00 00
 (075.143031)  can0  421   [2]  00 00
 (075.213675)  can0  421   [2]  00 00
 (075.284334)  can0  421   [2]  00 00
 (075.354971)  can0  421   [2]  00 00
 (075.425625)  can0  421   [2]  00 00
 (075.496264)  can0  421   [2]  00 00
 (075.566926)  can0  421   [2]  00 00
 (075.637571)  can0  421   [2]  00 00
 (075.708233)  can0  421   [2]  00 00
 (075.764342)  can0  422   [1]  00
 (075.778890)  can0  421   [2]  00 00
 (075.849535)  can0  421   [2]  00 00
 (075.920190)  can0  421   [2]  00 00
 (075.923569)  can0  460   [4]  25 00 0A 00
 (075.923761)  can0  462   [4]  25 00 0A 00
 (075.923952)  can0  464   [8]  52 00 B6 02 E7 8C 7E 00
 (075.990837)  can0  421   [2]  00 00
 (076.061496)  can0  421   [2]  00 00
 (076.132159)  can0  421   [2]  00 00
 (076.202818)  can0  421   [2]  00 00
 (076.273455)  can0  421   [2]  00 00
 (076.344101)  can0  421   [2]  00 00
 (076.414750)  can0  421   [2]  00 00
 (076.485392)  can0  421   [2]  00 00
 (076.556043)  can0  421   [2]  00 00
 (076.626700)  can0  421   [2]  00 00
 (076.697342)  can0  421   [2]  00 00
 (076.764313)  can0  422   [1]  00
 (076.767948)  can0  421   [2]  00 00
 (076.838606)  can0  421   [2]  00 00
 (076.909248)  can0  421   [2]  00 00
 (076.955889)  can0  460   [4]  37 00 0A 00
 (076.956102)  can0  462   [4]  37 00 0A 00
 (076.956295)  can0  464   [8]  53 00 B6 02 E8 8C 7E 00
 (076.979898)  can0  421   [2]  00 00
 (077.050544)  can0  421   [2]  00 00
 (077.121212)  can0  421   [2]  00 00
 (077.191888)  can0  421   [2]  00 00
 (077.262516)  can0  421   [2]  00 00
 (077.333156)  can0  421   [2]  00 00
 (077.403817)  can0  421   [2]  00 00
 (077.474471)  can0  421   [2]  00 00
 (077.545136)  can0  421   [2]  00 00
 (077.615805)  can0  421   [2]  00 00
 (077.686459)  can0  421   [2]  00 00
 (077.757138)  can0  421   [2]  00 00
 (077.764284)  can0  422   [1]  00
 (077.827839)  can0  421   [2]  00 00
 (077.883629)  can0  460   [4]  00 00 0A 00
 (077.883856)  can0  462   [4]  00 00 0A 00
 (077.884049)  can0  464   [8]  53 00 B6 02 E8 8C 7E 00
 (077.898611)  can0  421   [2]  00 00
 (077.969138)  can0  421   [2]  00 00
 (078.039807)  can0  421   [2]  00 00
 (078.110465)  can0  421   [2]  00 00
 (078.181132)  can0  421   [2]  00 00
 (078.251804)  can0  421   [2]  00 00
 (078.322467)  can0  421   [2]  00 00
 (078.393151)  can0  421   [2]  00 00
 (078.463823)  can0  421   [2]  00 00
 (078.534492)  can0  421   [2]  00 00
 (078.605141)  can0  421   [2]  00 00
 (078.675813)  can0  421   [2]  00 00
 (078.746453)  can0  421   [2]  00 00
 (078.764255)  can0  422   [1]  00
 (078.817112)  can0  421   [2]  00 00
 (078.887794)  can0  421   [2]  00 00
 (078.913925)  can0  460   [4]  12 00 0B 00
 (078.914147)  can0  462   [4]  12 00 0B 00
 (078.914351)  can0  464   [8]  53 00 B6 02 E9 8C 7E 00
 (078.958439)  can0  421   [2]  00 00
 (079.029104)  can0  421   [2]  00 00
 (079.099763)  can0  421   [2]  00 00
 (079.170423)  can0  421   [2]  00 00
 (079.241089)  can0  421   [2]  00 00
 (079.311758)  can0  421   [2]  00 00
 (079.382420)  can0  421   [2]  00 00
 (079.453089)  can0  421   [2]  00 00
 (079.523756)  can0  421   [2]  00 00
 (079.594425)  can0  421   [2]  00 00
 (079.665084)  can0  421   [2]  00 00
 (079.735742)  can0  421   [2]  00 00
 (079.764229)  can0  422   [1]  00
 (079.806387)  can0  421   [2]  00 00
 (079.877045)  can0  421   [2]  00 00
 (079.943676)  can0  460   [4]  12 00 0B 00
 (079.943895)  can0  462   [4]  12 00 0B 00
 (079.944099)  can0  464   [8]  54 00 B6 02 E9 8C 7E 00
 (079.947879)  can0  421   [2]  00 00
 (080.018369)  can0  421   [2]  00 00
 (080.089030)  can0  421   [2]  00 00
 (080.159695)  can0  421   [2]  00 00
 (080.230334)  can0  421   [2]  00 00
 (080.300965)  can0  421   [2]  00 00
 (080.371614)  can0  421   [2]  00 00
 (080.442243)  can0  421   [2]  00 00
 (080.512890)  can0  421   [2]  00 00
 (080.583538)  can0  421   [2]  00 00
 (080.654200)  can0  421   [2]  00 00
 (080.724871)  can0  421   [2]  00 00
 (080.764205)  can0  422   [1]  00
 (080.795529)  can0  421   [2]  00 00
 (080.866223)  can0  421   [2]  00 00
 (080.936862)  can0  421   [2]  00 00
 (080.973792)  can0  460   [4]  12 00 0B 00
 (080.974013)  can0  462   [4]  12 00 0B 00
 (080.974208)  can0  464   [8]  54 00 B6 02 EA 8C 7E 00
 (081.007529)  can0  421   [2]  00 00
 (081.078190)  can0  421   [2]  00 00
 (081.148862)  can0  421   [2]  00 00
 (081.219529)  can0  421   [2]  00 00
 (081.290198)  can0  421   [2]  00 00
 (081.360875)  can0  421   [2]  00 00
 (081.431531)  can0  421   [2]  00 00
 (081.502192)  can0  421   [2]  00 00
 (081.572853)  can0  421   [2]  00 00
 (081.643514)  can0  421   [2]  00 00
 (081.714180)  can0  421   [2]  00 00
 (081.764172)  can0  422   [1]  00
 (081.784858)  can0  421   [2]  00 00
 (081.855537)  can0  421   [2]  00 00
 (081.903717)  can0  460   [4]  25 00 0B 00
 (081.903944)  can0  462   [4]  25 00 0B 00
 (081.904137)  can0  464   [8]  55 00 B6 02 EB 8C 7E 00
 (081.926236)  can0  421   [2]  00 00
 (081.996889)  can0  421   [2]  00 00
 (082.067553)  can0  421   [2]  00 00
 (082.138223)  can0  421   [2]  00 00
 (082.208900)  can0  421   [2]  00 00
 (082.279563)  can0  421   [2]  00 00
 (082.350223)  can0  421   [2]  00 00
 (082.420899)  can0  421   [2]  00 00
 (082.491589)  can0  421   [2]  00 00
 (082.562233)  can0  421   [2]  00 00
 (082.632900)  can0  421   [2]  00 00
 (082.703572)  can0  421   [2]  00 00
 (082.764152)  can0  422   [1]  00
 (082.774229)  can0  421   [2]  00 00
 (082.844903)  can0  421   [2]  00 00
 (082.915572)  can0  421   [2]  00 00
 (082.935713)  can0  460   [4]  25 00 0B 00
 (082.935927)  can0  462   [4]  25 00 0B 00
 (082.936120)  can0  464   [8]  55 00 B6 02 EC 8C 7E 00
 (082.986236)  can0  421   [2]  00 00
 (083.056906)  can0  421   [2]  00 00
 (083.127314)  can0  421   [2]  00 01
 (083.197969)  can0  421   [2]  00 01
 (083.268635)  can0  421   [2]  00 01
 (083.339308)  can0  421   [2]  00 01
 (083.409985)  can0  421   [2]  00 01
 (083.480642)  can0  421   [2]  00 01
 (083.551302)  can0  421   [2]  00 01
 (083.621965)  can0  421   [2]  00 02
 (083.692640)  can0  421   [2]  00 02
 (083.763314)  can0  421   [2]  00 02
 (083.764106)  can0  422   [1]  00
 (083.833987)  can0  421   [2]  00 02
 (083.904643)  can0  421   [2]  00 02
 (083.965745)  can0  460   [4]  00 00 0B 00
 (083.965970)  can0  462   [4]  00 00 0B 00
 (083.966171)  can0  464   [8]  55 00 B6 02 EC 8C 7E 00
 (083.975429)  can0  421   [2]  00 02
 (084.046236)  can0  421   [2]  00 00
 (084.116893)  can0  421   [2]  00 00
 (084.187570)  can0  421   [2]  00 00
 (084.258239)  can0  421   [2]  00 00
 (084.328893)  can0  421   [2]  00 00
 (084.399542)  can0  421   [2]  00 00
 (084.470209)  can0  421   [2]  00 00
 (084.540870)  can0  421   [2]  00 00
 (084.611559)  can0  421   [2]  00 00
 (084.682198)  can0  421   [2]  00 00
 (084.752861)  can0  421   [2]  00 00
 (084.764091)  can0  422   [1]  00
 (084.823523)  can0  421   [2]  00 00
 (084.894190)  can0  421   [2]  00 00
 (084.895737)  can0  460   [4]  00 00 0B 00
 (084.895941)  can0  462   [4]  00 00 0B 00
 (084.896132)  can0  464   [8]  55 00 B6 02 EC 8C 7E 00
 (084.964863)  can0  421   [2]  00 00
 (085.035521)  can0  421   [2]  00 00
 (085.106195)  can0  421   [2]  00 00
 (085.176858)  can0  421   [2]  00 00
 (085.247519)  can0  421   [2]  00 00
 (085.318182)  can0  421   [2]  00 00
 (085.388846)  can0  421   [2]  00 00
 (085.459519)  can0  421   [2]  00 00
 (085.530216)  can0  421   [2]  00 00
 (085.600854)  can0  421   [2]  00 00
 (085.671532)  can0  421   [2]  00 00
 (085.742201)  can0  421   [2]  00 00
 (085.764065)  can0  422   [1]  00
 (085.812888)  can0  421   [2]  00 00
 (085.883562)  can0  421   [2]  00 00
 (085.924038)  can0  460   [4]  12 00 0B 00
 (085.924253)  can0  462   [4]  12 00 0B 00
 (085.924447)  can0  464   [8]  56 00 B6 02 ED 8C 7E 00
 (085.954244)  can0  421   [2]  00 00
 (086.024905)  can0  421   [2]  00 00
 (086.095541)  can0  421   [2]  00 00
 (086.166198)  can0  421   [2]  00 00
 (086.236854)  can0  421   [2]  00 00
 (086.307523)  can0  421   [2]  00 00
 (086.378168)  can0  421   [2]  00 00
 (086.448832)  can0  421   [2]  00 00
 (086.519492)  can0  421   [2]  00 00
 (086.590142)  can0  421   [2]  00 00
 (086.660804)  can0  421   [2]  00 00
 (086.731463)  can0  421   [2]  00 00
 (086.764034)  can0  422   [1]  00
 (086.802117)  can0  421   [2]  00 00
 (086.872761)  can0  421   [2]  00 00
 (086.943431)  can0  421   [2]  00 00
 (086.955782)  can0  460   [4]  00 00 0B 00
 (086.955997)  can0  462   [4]  00 00 0B 00
 (086.956189)  can0  464   [8]  56 00 B6 02 ED 8C 7E 00
 (087.014085)  can0  421   [2]  00 00
 (087.084740)  can0  421   [2]  00 00
 (087.155375)  can0  421   [2]  00 00
 (087.226028)  can0  421   [2]  00 00
 (087.296694)  can0  421   [2]  00 00
 (087.367328)  can0  421   [2]  00 00
 (087.437970)  can0  421   [2]  00 00
 (087.508614)  can0  421   [2]  00 00
 (087.579272)  can0  421   [2]  00 00
 (087.649902)  can0  421   [2]  00 00
 (087.720544)  can0  421   [2]  00 00
 (087.764008)  can0  422   [1]  00
 (087.791191)  can0  421   [2]  00 00
 (087.861817)  can0  421   [2]  00 00
 (087.882063)  can0  460   [4]  00 00 0B 00
 (087.882279)  can0  462   [4]  00 00 0B 00
 (087.882475)  can0  464   [8]  56 00 B6 02 ED 8C 7E 00
 (087.932478)  can0  421   [2]  00 00
 (088.003121)  can0  421   [2]  00 00
 (088.073748)  can0  421   [2]  00 00
 (088.144386)  can0  421   [2]  00 00
 (088.215032)  can0  421   [2]  00 00
 (088.285695)  can0  421   [2]  00 00
 (088.356326)  can0  421   [2]  00 00
 (088.426960)  can0  421   [2]  00 00
 (088.497604)  can0  421   [2]  00 00
 (088.568251)  can0  421   [2]  00 00
 (088.638911)  can0  421   [2]  00 00
 (088.709558)  can0  421   [2]  00 00
 (088.763991)  can0  422   [1]  00
 (088.780196)  can0  421   [2]  00 00
 (088.850852)  can0  421   [2]  00 00
 (088.913910)  can0  460   [4]  00 00 0B 00
 (088.914125)  can0  462   [4]  00 00 0B 00
 (088.914319)  can0  464   [8]  56 00 B6 02 ED 8C 7E 00
 (088.921516)  can0  421   [2]  00 00
 (088.992190)  can0  421   [2]  00 00
 (089.062846)  can0  421   [2]  00 00
 (089.133500)  can0  421   [2]  00 00
 (089.204158)  can0  421   [2]  00 00
 (089.274814)  can0  421   [2]  00 00
 (089.345453)  can0  421   [2]  00 00
 (089.416101)  can0  421   [2]  00 00
 (089.486753)  can0  421   [2]  00 00
 (089.557391)  can0  421   [2]  00 00
 (089.628039)  can0  421   [2]  00 00
 (089.698673)  can0  421   [2]  00 00
 (089.763958)  can0  422   [1]  00
 (089.769296)  can0  421   [2]  00 00
 (089.839981)  can0  421   [2]  00 00
 (089.910640)  can0  421   [2]  00 00
 (089.949932)  can0  460   [4]  00 00 0B 00
 (089.950159)  can0  462   [4]  00 00 0B 00
 (089.950354)  can0  464   [8]  56 00 B6 02 ED 8C 7E 00
 (089.981275)  can0  421   [2]  00 00
 (090.051924)  can0  421   [2]  00 00
 (090.122558)  can0  421   [2]  00 00
 (090.193203)  can0  421   [2]  00 00
 (090.263870)  can0  421   [2]  00 00
 (090.334486)  can0  421   [2]  00 00
 (090.405131)  can0  421   [2]  00 00
 (090.475790)  can0  421   [2]  00 00
 (090.546419)  can0  421   [2]  00 00
 (090.617062)  can0  421   [2]  00 00
 (090.687694)  can0  421   [2]  00 00
 (090.758330)  can0  421   [2]  00 00
 (090.763928)  can0  422   [1]  00
 (090.828983)  can0  421   [2]  00 00
 (090.881951)  can0  460   [4]  00 00 0B 00
 (090.882171)  can0  462   [4]  00 00 0B 00
 (090.882367)  can0  464   [8]  56 00 B6 02 ED 8C 7E 00
 (090.899688)  can0  421   [2]  00 00
 (090.970289)  can0  421   [2]  00 00
 (091.040937)  can0  421   [2]  00 00
 (091.111603)  can0  421   [2]  00 00
 (091.182252)  can0  421   [2]  00 00
 (091.252897)  can0  421   [2]  00 00
 (091.323561)  can0  421   [2]  00 00
 (091.394220)  can0  421   [2]  00 00
 (091.464890)  can0  421   [2]  00 00
 (091.535538)  can0  421   [2]  00 00
 (091.606201)  can0  421   [2]  00 00
 (091.676872)  can0  421   [2]  00 00
 (091.747524)  can0  421   [2]  00 00
 (091.763903)  can0  422   [1]  00
 (091.818170)  can0  421   [2]  00 00
 (091.888816)  can0  421   [2]  00 00
 (091.919902)  can0  460   [4]  12 00 0B 00
 (091.920134)  can0  462   [4]  12 00 0B 00
 (091.920333)  can0  464   [8]  56 00 B6 02 EE 8C 7E 00
 (091.959473)  can0  421   [2]  00 00
 (092.030127)  can0  421   [2]  00 00
 (092.100775)  can0  421   [2]  00 00
 (092.171421)  can0  421   [2]  00 00
 (092.242074)  can0  421   [2]  00 00
 (092.312724)  can0  421   [2]  00 00
 (092.383379)  can0  421   [2]  00 00
 (092.454007)  can0  421   [2]  00 00
 (092.524646)  can0  421   [2]  00 00
 (092.595290)  can0  421   [2]  00 00
 (092.665944)  can0  421   [2]  00 00
 (092.736589)  can0  421   [2]  00 00
 (092.763881)  can0  422   [1]  00
 (092.807224)  can0  421   [2]  00 00
 (092.877866)  can0  421   [2]  00 00
 (092.948510)  can0  421   [2]  00 00
 (092.958157)  can0  460   [4]  12 00 0B 00
 (092.958367)  can0  462   [4]  12 00 0B 00
 (092.958559)  can0  464   [8]  56 00 B6 02 EE 8C 7E 00
 (093.019245)  can0  421   [2]  00 00
 (093.089805)  can0  421   [2]  00 00
 (093.160441)  can0  421   [2]  00 00
 (093.231086)  can0  421   [2]  00 00
 (093.301743)  can0  421   [2]  00 00
 (093.372401)  can0  421   [2]  00 00
 (093.443035)  can0  421   [2]  00 00
 (093.513683)  can0  421   [2]  00 00
 (093.584333)  can0  421   [2]  00 00
 (093.654996)  can0  421   [2]  00 00
 (093.725658)  can0  421   [2]  00 00
 (093.763893)  can0  422   [1]  00
 (093.796278)  can0  421   [2]  00 00
 (093.866926)  can0  421   [2]  00 00
 (093.892184)  can0  460   [4]  12 00 0B 00
 (093.892405)  can0  462   [4]  12 00 0B 00
 (093.892603)  can0  464   [8]  53 00 B6 02 E9 8C 7E 00
 (093.937613)  can0  421   [2]  00 00
 (094.008240)  can0  421   [2]  00 00
 (094.078876)  can0  421   [2]  00 00
 (094.149510)  can0  421   [2]  00 00
 (094.220150)  can0  421   [2]  00 00
 (094.290814)  can0  421   [2]  00 00
 (094.361449)  can0  421   [2]  00 00
 (094.432087)  can0  421   [2]  00 00
 (094.502754)  can0  421   [2]  00 00
 (094.573395)  can0  421   [2]  00 00
 (094.644035)  can0  421   [2]  00 00
 (094.714683)  can0  421   [2]  00 00
 (094.763820)  can0  422   [1]  00
 (094.785326)  can0  421   [2]  00 00
 (094.855987)  can0  421   [2]  00 00
 (094.926650)  can0  421   [2]  00 00
 (094.938189)  can0  460   [4]  12 00 0B 00
 (094.938401)  can0  462   [4]  12 00 0B 00
 (094.938595)  can0  464   [8]  53 00 B6 02 E6 8C 7E 00
 (094.997285)  can0  421   [2]  00 00
 (095.067925)  can0  421   [2]  00 00
 (095.138587)  can0  421   [2]  00 00
 (095.209227)  can0  421   [2]  00 00
 (095.279872)  can0  421   [2]  00 00
 (095.350495)  can0  421   [2]  00 00
 (095.421131)  can0  421   [2]  00 00
 (095.491809)  can0  421   [2]  00 00
 (095.763813)  can0  422   [1]  00
 (095.817704)  can0  421   [2]  00 00
 (095.978052)  can0  460   [4]  12 00 0B 00
 (095.978265)  can0  462   [4]  12 00 0B 00
 (095.978458)  can0  464   [8]  52 00 B6 02 E4 8C 7E 00
 (096.120426)  can0  421   [2]  00 00
 (096.191113)  can0  421   [2]  00 00
 (096.261688)  can0  421   [2]  00 00
 (096.332325)  can0  421   [2]  00 00
 (096.402974)  can0  421   [2]  00 00
 (096.473610)  can0  421   [2]  00 00
 (096.544251)  can0  421   [2]  00 00
 (096.614882)  can0  421   [2]  00 00
 (096.685527)  can0  421   [2]  00 00
 (096.756176)  can0  421   [2]  00 00
 (096.763770)  can0  422   [1]  00
 (096.826790)  can0  421   [2]  00 00
 (096.897438)  can0  421   [2]  00 00
 (096.914226)  can0  460   [4]  25 00 0B 00
 (096.914435)  can0  462   [4]  25 00 0B 00
 (096.914623)  can0  464   [8]  52 00 B6 02 E1 8C 7E 00
 (096.968113)  can0  421   [2]  00 00
 (097.038734)  can0  421   [2]  00 00
 (097.109378)  can0  421   [2]  00 00
 (097.180005)  can0  421   [2]  00 00
 (097.250667)  can0  421   [2]  00 00
 (097.321284)  can0  421   [2]  00 00
 (097.391913)  can0  421   [2]  00 00
 (097.462559)  can0  421   [2]  00 00
 (097.533208)  can0  421   [2]  00 00
 (097.603871)  can0  421   [2]  00 00
 (097.674495)  can0  421   [2]  00 00
 (097.745130)  can0  421   [2]  00 00
 (097.763750)  can0  422   [1]  00
 (097.815829)  can0  421   [2]  00 00
 (097.886428)  can0  421   [2]  00 00
 (097.956241)  can0  460   [4]  37 00 0B 00
 (097.956459)  can0  462   [4]  37 00 0B 00
 (097.956653)  can0  464   [8]  52 00 B6 02 E0 8C 7E 00
 (097.957031)  can0  421   [2]  00 00
 (098.027703)  can0  421   [2]  00 00
 (098.098351)  can0  421   [2]  00 00
 (098.168999)  can0  421   [2]  00 00
 (098.239622)  can0  421   [2]  00 00
 (098.310252)  can0  421   [2]  00 00
 (098.519885)  can0  421   [2]  00 02
 (098.590782)  can0  421   [2]  00 00
 (098.661433)  can0  421   [2]  00 00
 (098.732061)  can0  421   [2]  00 00
 (098.763717)  can0  422   [1]  00
 (098.825915)  can0  421   [2]  00 00
 (098.894083)  can0  460   [4]  25 00 0B 00
 (098.894306)  can0  462   [4]  25 00 0B 00
 (098.894509)  can0  464   [8]  52 00 B6 02 DF 8C 7E 00
 (098.896531)  can0  421   [2]  00 00
 (098.967192)  can0  421   [2]  00 00
 (099.037844)  can0  421   [2]  00 00
 (099.108488)  can0  421   [2]  00 00
 (099.179147)  can0  421   [2]  00 00
 (099.249782)  can0  421   [2]  00 00
 (099.320422)  can0  421   [2]  00 00
 (099.391064)  can0  421   [2]  00 00
 (099.461719)  can0  421   [2]  00 00
 (099.532357)  can0  421   [2]  00 00
 (099.603001)  can0  421   [2]  00 00
 (099.673657)  can0  421   [2]  00 00
 (099.744306)  can0  421   [2]  00 00
 (099.763698)  can0  422   [1]  00
 (099.814954)  can0  421   [2]  00 00
 (099.885577)  can0  421   [2]  00 00
 (099.934016)  can0  460   [4]  25 00 0C 00
 (099.934234)  can0  462   [4]  25 00 0C 00
 (099.934429)  can0  464   [8]  53 00 B6 02 DD 8C 7E 00
 (099.956233)  can0  421   [2]  00 00
 (100.026878)  can0  421   [2]  00 00
 (100.097508)  can0  421   [2]  00 00
 (100.168145)  can0  421   [2]  00 00
 (100.238816)  can0  421   [2]  00 00
 (100.309448)  can0  421   [2]  00 00
 (100.380092)  can0  421   [2]  00 00
 (100.450746)  can0  421   [2]  00 00
 (100.521394)  can0  421   [2]  00 00
 (100.592048)  can0  421   [2]  00 00
 (100.662681)  can0  421   [2]  00 00
 (100.733348)  can0  421   [2]  00 00
 (100.763684)  can0  422   [1]  00
 (100.803991)  can0  421   [2]  00 00
 (100.874645)  can0  421   [2]  00 00
 (100.945290)  can0  421   [2]  00 00
 (100.976044)  can0  460   [4]  12 00 0C 00
 (100.976264)  can0  462   [4]  12 00 0C 00
 (100.976455)  can0  464   [8]  53 00 B6 02 DD 8C 7E 00
 (101.015950)  can0  421   [2]  00 00
 (101.086590)  can0  421   [2]  00 00
 (101.157223)  can0  421   [2]  00 00
 (101.227868)  can0  421   [2]  00 00
 (101.298540)  can0  421   [2]  00 00
 (101.369191)  can0  421   [2]  00 00
 (101.439845)  can0  421   [2]  00 00
 (101.510459)  can0  421   [2]  00 00
 (101.581114)  can0  421   [2]  00 00
 (101.651768)  can0  421   [2]  00 00
 (101.722403)  can0  421   [2]  00 00
 (101.763633)  can0  422   [1]  00
 (101.793064)  can0  421   [2]  00 00
 (101.863722)  can0  421   [2]  00 00
 (101.908312)  can0  460   [4]  25 00 0C 00
 (101.908528)  can0  462   [4]  25 00 0C 00
 (101.908720)  can0  464   [8]  54 00 B6 02 DE 8C 7E 00
 (101.934374)  can0  421   [2]  00 00
 (102.004994)  can0  421   [2]  00 00
 (102.075639)  can0  421   [2]  00 00
 (102.146298)  can0  421   [2]  00 00
 (102.216934)  can0  421   [2]  00 00
 (102.287579)  can0  421   [2]  00 00
 (102.358248)  can0  421   [2]  00 00
 (102.428883)  can0  421   [2]  00 00
 (102.499519)  can0  421   [2]  00 00
 (102.570171)  can0  421   [2]  00 00
 (102.640821)  can0  421   [2]  00 00
 (102.711453)  can0  421   [2]  00 00
 (102.763607)  can0  422   [1]  00
 (102.782092)  can0  421   [2]  00 00
 (102.852753)  can0  421   [2]  00 00
 (102.923391)  can0  421   [2]  00 00
 (102.950328)  can0  460   [4]  25 00 0C 00
 (102.950542)  can0  462   [4]  25 00 0C 00
 (102.950749)  can0  464   [8]  54 00 B6 02 DF 8C 7E 00
 (102.994033)  can0  421   [2]  00 00
 (103.064686)  can0  421   [2]  00 00
 (103.135353)  can0  421   [2]  00 00
 (103.205988)  can0  421   [2]  00 00
 (103.276629)  can0  421   [2]  00 00
 (103.347259)  can0  421   [2]  00 00
 (103.417914)  can0  421   [2]  00 00
 (103.488565)  can0  421   [2]  00 00
 (103.559206)  can0  421   [2]  00 00
 (103.629950)  can0  421   [2]  00 00
 (103.700526)  can0  421   [2]  00 00
 (103.763616)  can0  422   [1]  00
 (103.771161)  can0  421   [2]  00 00
 (103.841797)  can0  421   [2]  00 00
 (103.912458)  can0  421   [2]  00 00
 (103.982352)  can0  460   [4]  25 00 0C 00
 (103.982571)  can0  462   [4]  25 00 0C 00
 (103.982765)  can0  464   [8]  54 00 B6 02 DF 8C 7E 00
 (103.983056)  can0  421   [2]  00 00
 (104.053731)  can0  421   [2]  00 00
 (104.124368)  can0  421   [2]  00 00
 (104.195020)  can0  421   [2]  00 00
 (104.265645)  can0  421   [2]  00 00
 (104.336294)  can0  421   [2]  00 00
 (104.406949)  can0  421   [2]  00 00
 (104.477597)  can0  421   [2]  00 00
 (104.548250)  can0  421   [2]  00 00
 (104.618884)  can0  421   [2]  00 00
 (104.689528)  can0  421   [2]  00 00
 (104.760143)  can0  421   [2]  00 00
 (104.763521)  can0  422   [1]  00
 (104.830778)  can0  421   [2]  00 00
 (104.901413)  can0  421   [2]  00 00
 (104.914359)  can0  460   [4]  25 00 0C 00
 (104.914571)  can0  462   [4]  25 00 0C 00
 (104.914764)  can0  464   [8]  54 00 B6 02 DE 8C 7E 00
 (104.972143)  can0  421   [2]  00 00
 (105.042708)  can0  421   [2]  00 00
 (105.113323)  can0  421   [2]  00 00
 (105.183953)  can0  421   [2]  00 00
 (105.301015)  can0  421   [2]  00 00
 (105.371678)  can0  421   [2]  00 00
 (105.442295)  can0  421   [2]  00 00
 (105.512955)  can0  421   [2]  00 00
 (105.583596)  can0  421   [2]  00 00
 (105.654241)  can0  421   [2]  00 00
 (105.724894)  can0  421   [2]  00 00
 (105.763524)  can0  422   [1]  00
 (105.795550)  can0  421   [2]  00 00
 (105.866181)  can0  421   [2]  00 00
 (105.936821)  can0  421   [2]  00 00
 (105.954373)  can0  460   [4]  25 00 0C 00
 (105.954584)  can0  462   [4]  25 00 0C 00
 (105.954784)  can0  464   [8]  54 00 B6 02 DD 8C 7E 00
 (106.007450)  can0  421   [2]  00 00
 (106.078099)  can0  421   [2]  00 00
 (106.148725)  can0  421   [2]  00 00
 (106.219376)  can0  421   [2]  00 00
 (106.290017)  can0  421   [2]  00 00
 (106.360673)  can0  421   [2]  00 00
 (106.431299)  can0  421   [2]  00 00
 (106.501934)  can0  421   [2]  00 00
 (106.572585)  can0  421   [2]  00 00
 (106.643229)  can0  421   [2]  00 00
 (106.713865)  can0  421   [2]  00 00
 (106.763508)  can0  422   [1]  00
 (106.784508)  can0  421   [2]  00 00
 (106.855151)  can0  421   [2]  00 00
 (106.886390)  can0  460   [4]  12 00 0C 00
 (106.886608)  can0  462   [4]  12 00 0C 00
 (106.886809)  can0  464   [8]  54 00 B6 02 DB 8C 7E 00
 (106.925868)  can0  421   [2]  00 00
 (106.996421)  can0  421   [2]  00 00
 (107.067082)  can0  421   [2]  00 00
 (107.137700)  can0  421   [2]  00 00
 (107.208331)  can0  421   [2]  00 00
 (107.278970)  can0  421   [2]  00 00
 (107.349637)  can0  421   [2]  00 00
 (107.420262)  can0  421   [2]  00 00
 (107.490882)  can0  421   [2]  00 00
 (107.561532)  can0  421   [2]  00 00
 (107.632186)  can0  421   [2]  00 00
 (107.702826)  can0  421   [2]  00 00
 (107.763485)  can0  422   [1]  00
 (107.773448)  can0  421   [2]  00 00
 (107.844093)  can0  421   [2]  00 00
 (107.914729)  can0  421   [2]  00 00
 (107.920117)  can0  460   [4]  25 00 0C 00
 (107.920311)  can0  462   [4]  25 00 0C 00
 (107.920501)  can0  464   [8]  55 00 B6 02 DA 8C 7E 00
 (107.985379)  can0  421   [2]  00 00
 (108.055984)  can0  421   [2]  00 00
 (108.126641)  can0  421   [2]  00 00
 (108.197271)  can0  421   [2]  00 00
 (108.267889)  can0  421   [2]  00 00
 (108.338513)  can0  421   [2]  00 00
 (108.409150)  can0  421   [2]  00 00
 (108.479767)  can0  421   [2]  00 00
 (108.550402)  can0  421   [2]  00 00
 (108.621054)  can0  421   [2]  00 00
 (108.691699)  can0  421   [2]  00 00
 (108.762317)  can0  421   [2]  00 00
 (108.763425)  can0  422   [1]  00
 (108.832976)  can0  421   [2]  00 00
 (108.903609)  can0  421   [2]  00 00
 (108.954435)  can0  460   [4]  25 00 0C 00
 (108.954655)  can0  462   [4]  25 00 0C 00
 (108.954852)  can0  464   [8]  57 00 B6 02 D7 8C 7E 00
 (108.974270)  can0  421   [2]  00 00
 (109.044893)  can0  421   [2]  00 00
 (109.115547)  can0  421   [2]  00 00
 (109.186213)  can0  421   [2]  00 00
 (109.256855)  can0  421   [2]  00 00
 (109.327522)  can0  421   [2]  00 00
 (109.398155)  can0  421   [2]  00 00
 (109.468796)  can0  421   [2]  00 00
 (109.539448)  can0  421   [2]  00 00
 (109.610079)  can0  421   [2]  00 00
 (109.680725)  can0  421   [2]  00 00
 (109.751366)  can0  421   [2]  00 00
 (109.763425)  can0  422   [1]  00
 (109.822019)  can0  421   [2]  00 00
 (109.886463)  can0  460   [4]  25 00 0C 00
 (109.886698)  can0  462   [4]  25 00 0C 00
 (109.886894)  can0  464   [8]  57 00 B6 02 D5 8C 7E 00
 (109.892626)  can0  421   [2]  00 00
 (109.963297)  can0  421   [2]  00 00
 (110.033959)  can0  421   [2]  00 00
 (110.104600)  can0  421   [2]  00 00
 (110.175258)  can0  421   [2]  00 00
 (110.245898)  can0  421   [2]  00 00
 (110.316535)  can0  421   [2]  00 00
 (110.387205)  can0  421   [2]  00 00
 (110.457854)  can0  421   [2]  00 00
 (110.528504)  can0  421   [2]  00 00
 (110.599164)  can0  421   [2]  00 00
 (110.669815)  can0  421   [2]  00 00
 (110.740474)  can0  421   [2]  00 00
 (110.763397)  can0  422   [1]  00
 (110.811126)  can0  421   [2]  00 00
 (110.881782)  can0  421   [2]  00 00
 (110.922190)  can0  460   [4]  25 00 0D 00
 (110.922403)  can0  462   [4]  25 00 0D 00
 (110.922596)  can0  464   [8]  58 00 B6 02 D3 8C 7E 00
 (110.952435)  can0  421   [2]  00 00
 (111.023083)  can0  421   [2]  00 00
 (111.093740)  can0  421   [2]  00 00
 (111.164395)  can0  421   [2]  00 00
 (111.235048)  can0  421   [2]  00 00
 (111.305719)  can0  421   [2]  00 00
 (111.376340)  can0  421   [2]  00 00
 (111.446999)  can0  421   [2]  00 00
 (111.517650)  can0  421   [2]  00 00
 (111.588292)  can0  421   [2]  00 00
 (111.658965)  can0  421   [2]  00 00
 (111.729580)  can0  421   [2]  00 00
 (111.763387)  can0  422   [1]  00
 (111.800209)  can0  421   [2]  00 00
 (111.870918)  can0  421   [2]  00 00
 (111.941483)  can0  421   [2]  00 00
 (111.954212)  can0  460   [4]  25 00 0D 00
 (111.954424)  can0  462   [4]  25 00 0D 00
 (111.954627)  can0  464   [8]  59 00 B6 02 D1 8C 7E 00
 (112.012120)  can0  421   [2]  00 00
 (112.082749)  can0  421   [2]  00 00
 (112.153369)  can0  421   [2]  00 00
 (112.224004)  can0  421   [2]  00 00
 (112.294637)  can0  421   [2]  00 00
 (112.365267)  can0  421   [2]  00 00
 (112.435930)  can0  421   [2]  00 00
 (112.506535)  can0  421   [2]  00 00
 (112.577168)  can0  421   [2]  00 00
 (112.647813)  can0  421   [2]  00 00
 (112.718438)  can0  421   [2]  00 00
 (112.763336)  can0  422   [1]  00
 (112.789086)  can0  421   [2]  00 00
 (112.859717)  can0  421   [2]  00 00
 (112.882333)  can0  460   [4]  12 00 0D 00
 (112.882555)  can0  462   [4]  12 00 0D 00
 (112.882749)  can0  464   [8]  5B 00 B6 02 CE 8C 7E 00
 (112.930381)  can0  421   [2]  00 00
 (113.001014)  can0  421   [2]  00 00
 (113.071667)  can0  421   [2]  00 00
 (113.142284)  can0  421   [2]  00 00
 (113.212921)  can0  421   [2]  00 00
 (113.283557)  can0  421   [2]  00 00
 (113.354201)  can0  421   [2]  00 00
 (113.424842)  can0  421   [2]  00 00
 (113.495486)  can0  421   [2]  00 00
 (113.565876)  can0  421   [2]  00 01
 (113.636518)  can0  421   [2]  00 01
 (113.707191)  can0  421   [2]  00 01
 (113.763312)  can0  422   [1]  00
 (113.777830)  can0  421   [2]  00 01
 (113.848460)  can0  421   [2]  00 01
 (113.912511)  can0  460   [4]  25 00 0D 00
 (113.912728)  can0  462   [4]  25 00 0D 00
 (113.912924)  can0  464   [8]  5C 00 B6 02 CC 8C 7E 00
 (113.919088)  can0  421   [2]  00 01
 (113.989981)  can0  421   [2]  00 00
 (114.060648)  can0  421   [2]  00 00
 (114.131279)  can0  421   [2]  00 00
 (114.201909)  can0  421   [2]  00 00
 (114.272558)  can0  421   [2]  00 00
 (114.343172)  can0  421   [2]  00 00
 (114.413811)  can0  421   [2]  00 00
 (114.484473)  can0  421   [2]  00 00
 (114.555092)  can0  421   [2]  00 00
 (114.625739)  can0  421   [2]  00 00
 (114.696369)  can0  421   [2]  00 00
 (114.763282)  can0  422   [1]  00
 (114.767005)  can0  421   [2]  00 00
 (114.837665)  can0  421   [2]  00 00
 (114.908303)  can0  421   [2]  00 00
 (114.946533)  can0  460   [4]  25 00 0D 00
 (114.946749)  can0  462   [4]  25 00 0D 00
 (114.946945)  can0  464   [8]  5D 00 B6 02 CA 8C 7E 00
 (114.978952)  can0  421   [2]  00 00
 (115.049609)  can0  421   [2]  00 00
 (115.120242)  can0  421   [2]  00 00
 (115.190895)  can0  421   [2]  00 00
 (115.261539)  can0  421   [2]  00 00
 (115.332182)  can0  421   [2]  00 00
 (115.402850)  can0  421   [2]  00 00
 (115.473489)  can0  421   [2]  00 00
 (115.544145)  can0  421   [2]  00 00
 (115.614797)  can0  421   [2]  00 00
 (115.685441)  can0  421   [2]  00 00
 (115.755845)  can0  421   [2]  00 02
 (115.763229)  can0  422   [1]  00
 (115.826479)  can0  421   [2]  00 02
 (115.920344)  can0  421   [2]  00 02
 (115.974554)  can0  460   [4]  25 00 0D 00
 (115.974777)  can0  462   [4]  25 00 0D 00
 (115.974970)  can0  464   [8]  5E 00 B6 02 C8 8C 7E 00
 (115.991351)  can0  421   [2]  00 00
 (116.061902)  can0  421   [2]  00 00
 (116.132571)  can0  421   [2]  00 00
 (116.203206)  can0  421   [2]  00 00
 (116.273841)  can0  421   [2]  00 00
 (116.344489)  can0  421   [2]  00 00
 (116.415142)  can0  421   [2]  00 00
 (116.485774)  can0  421   [2]  00 00
 (116.556420)  can0  421   [2]  00 00
 (116.627071)  can0  421   [2]  00 00
 (116.697725)  can0  421   [2]  00 00
 (116.763246)  can0  422   [1]  00
 (116.768350)  can0  421   [2]  00 00
 (116.838997)  can0  421   [2]  00 00
 (116.902562)  can0  460   [4]  12 00 0D 00
 (116.902776)  can0  462   [4]  12 00 0D 00
 (116.902969)  can0  464   [8]  5F 00 B6 02 C7 8C 7E 00
 (116.909623)  can0  421   [2]  00 00
 (116.980267)  can0  421   [2]  00 00
 (117.050936)  can0  421   [2]  00 00
 (117.121563)  can0  421   [2]  00 00
 (117.192205)  can0  421   [2]  00 00
 (117.262861)  can0  421   [2]  00 00
 (117.333502)  can0  421   [2]  00 00
 (117.404172)  can0  421   [2]  00 00
 (117.474806)  can0  421   [2]  00 00
 (117.545448)  can0  421   [2]  00 00
 (117.615864)  can0  421   [2]  00 02
 (117.686501)  can0  421   [2]  00 02
 (117.757417)  can0  421   [2]  00 00
 (117.763201)  can0  422   [1]  00
 (117.828072)  can0  421   [2]  00 00
 (117.898461)  can0  421   [2]  00 02
 (117.936315)  can0  460   [4]  12 00 0D 00
 (117.936524)  can0  462   [4]  12 00 0D 00
 (117.936714)  can0  464   [8]  61 00 B6 02 C5 8C 7E 00
 (117.969123)  can0  421   [2]  00 02
 (118.040038)  can0  421   [2]  00 00
 (118.110666)  can0  421   [2]  00 00
 (118.181319)  can0  421   [2]  00 00
 (118.251939)  can0  421   [2]  00 00
 (118.322312)  can0  421   [2]  00 01
 (118.392947)  can0  421   [2]  00 01
 (118.463575)  can0  421   [2]  00 01
 (118.534487)  can0  421   [2]  00 00
 (118.605129)  can0  421   [2]  00 00
 (118.675770)  can0  421   [2]  00 00
 (118.746427)  can0  421   [2]  00 00
 (118.763191)  can0  422   [1]  00
 (118.817068)  can0  421   [2]  00 00
 (118.887737)  can0  421   [2]  00 00
 (118.958379)  can0  421   [2]  00 00
 (118.970428)  can0  460   [4]  12 00 0D 00
 (118.970650)  can0  462   [4]  12 00 0D 00
 (118.970846)  can0  464   [8]  63 00 B6 02 C5 8C 7E 00
 (119.029032)  can0  421   [2]  00 00
 (119.099708)  can0  421   [2]  00 00
 (119.170361)  can0  421   [2]  00 00
 (119.240728)  can0  421   [2]  00 02
 (119.311391)  can0  421   [2]  00 02
 (119.382307)  can0  421   [2]  00 00
 (119.452974)  can0  421   [2]  00 00
 (119.523633)  can0  421   [2]  00 00
 (119.594283)  can0  421   [2]  00 00
 (119.664965)  can0  421   [2]  00 00
 (119.735605)  can0  421   [2]  00 00
 (119.763154)  can0  422   [1]  00
 (119.806270)  can0  421   [2]  00 00
 (119.902608)  can0  460   [4]  12 00 0D 00
 (119.902824)  can0  462   [4]  12 00 0D 00
 (119.903016)  can0  464   [8]  65 00 B6 02 C5 8C 7E 00
 (119.923124)  can0  421   [2]  00 01
 (119.993734)  can0  421   [2]  00 01
 (120.064426)  can0  421   [2]  00 01
 (120.135044)  can0  421   [2]  00 01
 (120.205727)  can0  421   [2]  00 01
 (120.276388)  can0  421   [2]  00 01
 (120.347304)  can0  421   [2]  00 00
 (120.417974)  can0  421   [2]  00 00
 (120.488647)  can0  421   [2]  00 00
 (120.559295)  can0  421   [2]  00 00
 (120.629962)  can0  421   [2]  00 00
 (120.700622)  can0  421   [2]  00 00
 (120.763120)  can0  422   [1]  00
 (120.771288)  can0  421   [2]  00 00
 (120.841966)  can0  421   [2]  00 00
 (120.912607)  can0  421   [2]  00 00
 (120.934630)  can0  460   [4]  12 00 0D 00
 (120.934846)  can0  462   [4]  12 00 0D 00
 (120.935042)  can0  464   [8]  65 00 B6 02 C5 8C 7E 00
 (120.983273)  can0  421   [2]  00 00
 (121.053946)  can0  421   [2]  00 00
 (121.124615)  can0  421   [2]  00 00
 (121.195294)  can0  421   [2]  00 00
 (121.265935)  can0  421   [2]  00 00
 (121.336595)  can0  421   [2]  00 00
 (121.407251)  can0  421   [2]  00 00
 (121.477908)  can0  421   [2]  00 00
 (121.548564)  can0  421   [2]  00 00
 (121.619221)  can0  421   [2]  00 00
 (121.689867)  can0  421   [2]  00 00
 (121.760521)  can0  421   [2]  00 00
 (121.763066)  can0  422   [1]  00
 (121.831162)  can0  421   [2]  00 00
 (121.901828)  can0  421   [2]  00 00
 (121.966647)  can0  460   [4]  12 00 0D 00
 (121.966864)  can0  462   [4]  12 00 0D 00
 (121.967069)  can0  464   [8]  66 00 B6 02 C6 8C 7E 00
 (121.972569)  can0  421   [2]  00 00
 (122.043099)  can0  421   [2]  00 00
 (122.113774)  can0  421   [2]  00 00
 (122.184419)  can0  421   [2]  00 00
 (122.255070)  can0  421   [2]  00 00
 (122.325727)  can0  421   [2]  00 00
 (122.396377)  can0  421   [2]  00 00
 (122.467033)  can0  421   [2]  00 00
 (122.537689)  can0  421   [2]  00 00
 (122.608358)  can0  421   [2]  00 00
 (122.679008)  can0  421   [2]  00 00
 (122.749668)  can0  421   [2]  00 00
 (122.763065)  can0  422   [1]  00
 (122.820361)  can0  421   [2]  00 00
 (122.890980)  can0  421   [2]  00 00
 (122.900680)  can0  460   [4]  12 00 0D 00
 (122.900897)  can0  462   [4]  12 00 0D 00
 (122.901091)  can0  464   [8]  66 00 B6 02 C7 8C 7E 00
 (122.961724)  can0  421   [2]  00 00
 (123.032265)  can0  421   [2]  00 00
 (123.102909)  can0  421   [2]  00 00
 (123.173560)  can0  421   [2]  00 00
 (123.244220)  can0  421   [2]  00 00
 (123.314867)  can0  421   [2]  00 00
 (123.385512)  can0  421   [2]  00 00
 (123.456161)  can0  421   [2]  00 00
 (123.526817)  can0  421   [2]  00 00
 (123.597472)  can0  421   [2]  00 00
 (123.668093)  can0  421   [2]  00 00
 (123.738738)  can0  421   [2]  00 00
 (123.763047)  can0  422   [1]  00
 (123.809375)  can0  421   [2]  00 00
 (123.880009)  can0  421   [2]  00 00
 (123.934672)  can0  460   [4]  12 00 0D 00
 (123.934885)  can0  462   [4]  12 00 0D 00
 (123.935077)  can0  464   [8]  66 00 B6 02 C6 8C 7E 00
 (123.950665)  can0  421   [2]  00 00
 (124.021274)  can0  421   [2]  00 00
 (124.091900)  can0  421   [2]  00 00
 (124.162526)  can0  421   [2]  00 00
 (124.233167)  can0  421   [2]  00 00
 (124.303787)  can0  421   [2]  00 00
 (124.374432)  can0  421   [2]  00 00
 (124.445075)  can0  421   [2]  00 00
 (124.515699)  can0  421   [2]  00 00
 (124.586331)  can0  421   [2]  00 00
 (124.656959)  can0  421   [2]  00 00
 (124.727613)  can0  421   [2]  00 00
 (124.763021)  can0  422   [1]  00
 (124.798257)  can0  421   [2]  00 00
 (124.868913)  can0  421   [2]  00 00
 (124.939572)  can0  421   [2]  00 00
 (124.964793)  can0  460   [4]  12 00 0E 00
 (124.965007)  can0  462   [4]  12 00 0E 00
 (124.965201)  can0  464   [8]  66 00 B6 02 C6 8C 7E 00
 (125.010226)  can0  421   [2]  00 00
 (125.080860)  can0  421   [2]  00 00
 (125.151536)  can0  421   [2]  00 00
 (125.222186)  can0  421   [2]  00 00
 (125.292813)  can0  421   [2]  00 00
 (125.363464)  can0  421   [2]  00 00
 (125.434123)  can0  421   [2]  00 00
 (125.504756)  can0  421   [2]  00 00
 (125.575412)  can0  421   [2]  00 00
 (125.646054)  can0  421   [2]  00 00
 (125.716711)  can0  421   [2]  00 00
 (125.762986)  can0  422   [1]  00
 (125.787367)  can0  421   [2]  00 00
 (125.858012)  can0  421   [2]  00 00
 (125.894725)  can0  460   [4]  12 00 0E 00
 (125.894948)  can0  462   [4]  12 00 0E 00
 (125.895143)  can0  464   [8]  66 00 B6 02 C6 8C 7E 00
 (125.928676)  can0  421   [2]  00 00
 (125.999319)  can0  421   [2]  00 00
 (126.069986)  can0  421   [2]  00 00
 (126.140637)  can0  421   [2]  00 00
 (126.211289)  can0  421   [2]  00 00
 (126.281945)  can0  421   [2]  00 00
 (126.352605)  can0  421   [2]  00 00
 (126.423274)  can0  421   [2]  00 00
 (126.493916)  can0  421   [2]  00 00
 (126.564579)  can0  421   [2]  00 00
 (126.635254)  can0  421   [2]  00 00
 (126.705904)  can0  421   [2]  00 00
 (126.762957)  can0  422   [1]  00
 (126.776589)  can0  421   [2]  00 00
 (126.847237)  can0  421   [2]  00 00
 (126.917892)  can0  421   [2]  00 00
 (126.932465)  can0  460   [4]  00 00 0E 00
 (126.932689)  can0  462   [4]  00 00 0E 00
 (126.932887)  can0  464   [8]  66 00 B6 02 C5 8C 7E 00
 (126.988546)  can0  421   [2]  00 00
 (127.059217)  can0  421   [2]  00 00
 (127.129857)  can0  421   [2]  00 00
 (127.200504)  can0  421   [2]  00 00
 (127.271173)  can0  421   [2]  00 00
 (127.341823)  can0  421   [2]  00 00
 (127.412482)  can0  421   [2]  00 00
 (127.483139)  can0  421   [2]  00 00
 (127.553808)  can0  421   [2]  00 00
 (127.624451)  can0  421   [2]  00 00
 (127.695094)  can0  421   [2]  00 00
 (127.762942)  can0  422   [1]  00
 (127.765718)  can0  421   [2]  00 00
 (127.836381)  can0  421   [2]  00 00
 (127.907033)  can0  421   [2]  00 00
 (127.966477)  can0  460   [4]  00 00 0E 00
 (127.966694)  can0  462   [4]  00 00 0E 00
 (127.966889)  can0  464   [8]  65 00 B6 02 C5 8C 7E 00
 (127.977689)  can0  421   [2]  00 00
 (128.048319)  can0  421   [2]  00 00
 (128.118962)  can0  421   [2]  00 00
 (128.189633)  can0  421   [2]  00 00
 (128.260286)  can0  421   [2]  00 00
 (128.330922)  can0  421   [2]  00 00
 (128.401588)  can0  421   [2]  00 00
 (128.472268)  can0  421   [2]  00 00
 (128.542911)  can0  421   [2]  00 00
 (128.613556)  can0  421   [2]  00 00
 (128.684206)  can0  421   [2]  00 00
 (128.754862)  can0  421   [2]  00 00
 (128.762912)  can0  422   [1]  00
 (128.825517)  can0  421   [2]  00 00
 (128.896174)  can0  421   [2]  00 00
 (128.898746)  can0  460   [4]  25 00 0E 00
 (128.898948)  can0  462   [4]  25 00 0E 00
 (128.899139)  can0  464   [8]  66 00 B6 02 C5 8C 7E 00
 (128.966853)  can0  421   [2]  00 00
 (129.037461)  can0  421   [2]  00 00
 (129.108111)  can0  421   [2]  00 00
 (129.178785)  can0  421   [2]  00 00
 (129.249403)  can0  421   [2]  00 00
 (129.320059)  can0  421   [2]  00 00
 (129.390716)  can0  421   [2]  00 00
 (129.461351)  can0  421   [2]  00 00
 (129.531997)  can0  421   [2]  00 00
 (129.602666)  can0  421   [2]  00 00
 (129.673329)  can0  421   [2]  00 00
 (129.743977)  can0  421   [2]  00 00
 (129.762878)  can0  422   [1]  00
 (129.814628)  can0  421   [2]  00 00
 (129.885286)  can0  421   [2]  00 00
 (129.936513)  can0  460   [4]  37 00 0E 00
 (129.936728)  can0  462   [4]  37 00 0E 00
 (129.936924)  can0  464   [8]  66 00 B6 02 C6 8C 7E 00
 (129.955920)  can0  421   [2]  00 00
 (130.026588)  can0  421   [2]  00 00
 (130.097220)  can0  421   [2]  00 00
 (130.167868)  can0  421   [2]  00 00
 (130.238505)  can0  421   [2]  00 00
 (130.309146)  can0  421   [2]  00 00
 (130.379817)  can0  421   [2]  00 00
 (130.450434)  can0  421   [2]  00 00
 (130.521095)  can0  421   [2]  00 00
 (130.591742)  can0  421   [2]  00 00
 (130.662377)  can0  421   [2]  00 00
 (130.733029)  can0  421   [2]  00 00
 (130.762866)  can0  422   [1]  00
 (130.803687)  can0  421   [2]  00 00
 (130.874331)  can0  421   [2]  00 00
 (130.944968)  can0  421   [2]  00 00
 (130.968529)  can0  460   [4]  37 00 0E 00
 (130.968742)  can0  462   [4]  37 00 0E 00
 (130.968935)  can0  464   [8]  66 00 B6 02 C7 8C 7E 00
 (131.015644)  can0  421   [2]  00 00
 (131.086280)  can0  421   [2]  00 00
 (131.156925)  can0  421   [2]  00 00
 (131.227578)  can0  421   [2]  00 00
 (131.298253)  can0  421   [2]  00 00
 (131.368901)  can0  421   [2]  00 00
 (131.439552)  can0  421   [2]  00 00
 (131.510203)  can0  421   [2]  00 00
 (131.580855)  can0  421   [2]  00 00
 (131.651519)  can0  421   [2]  00 00
 (131.722177)  can0  421   [2]  00 00
 (131.762821)  can0  422   [1]  00
 (131.792820)  can0  421   [2]  00 00
 (131.863483)  can0  421   [2]  00 00
 (131.898822)  can0  460   [4]  37 00 0E 00
 (131.899046)  can0  462   [4]  37 00 0E 00
 (131.899245)  can0  464   [8]  66 00 B6 02 C7 8C 7E 00
 (131.934153)  can0  421   [2]  00 00
 (132.004792)  can0  421   [2]  00 00
 (132.075460)  can0  421   [2]  00 00
 (132.146097)  can0  421   [2]  00 00
 (132.216751)  can0  421   [2]  00 00
 (132.287401)  can0  421   [2]  00 00
 (132.358067)  can0  421   [2]  00 00
 (132.428703)  can0  421   [2]  00 00
 (132.499355)  can0  421   [2]  00 00
 (132.570013)  can0  421   [2]  00 00
 (132.640687)  can0  421   [2]  00 00
 (132.711322)  can0  421   [2]  00 00
 (132.762806)  can0  422   [1]  00
 (132.781984)  can0  421   [2]  00 00
 (132.852631)  can0  421   [2]  00 00
 (132.923298)  can0  421   [2]  00 00
 (132.934553)  can0  460   [4]  25 00 0E 00
 (132.934766)  can0  462   [4]  25 00 0E 00
 (132.934970)  can0  464   [8]  66 00 B6 02 C7 8C 7E 00
 (132.993934)  can0  421   [2]  00 00
 (133.064592)  can0  421   [2]  00 00
 (133.135242)  can0  421   [2]  00 00
 (133.205908)  can0  421   [2]  00 00
 (133.276554)  can0  421   [2]  00 00
 (133.347212)  can0  421   [2]  00 00
 (133.417857)  can0  421   [2]  00 00
 (133.488520)  can0  421   [2]  00 00
 (133.559158)  can0  421   [2]  00 00
 (133.629813)  can0  421   [2]  00 00
 (133.700457)  can0  421   [2]  00 00
 (133.762779)  can0  422   [1]  00
 (133.771109)  can0  421   [2]  00 00
 (133.841781)  can0  421   [2]  00 00
 (133.912423)  can0  421   [2]  00 00
 (133.964856)  can0  460   [4]  37 00 0E 00
 (133.965073)  can0  462   [4]  37 00 0E 00
 (133.965262)  can0  464   [8]  67 00 B6 02 C7 8C 7E 00
 (133.983082)  can0  421   [2]  00 00
 (134.053752)  can0  421   [2]  00 00
 (134.124383)  can0  421   [2]  00 00
 (134.195053)  can0  421   [2]  00 00
 (134.265692)  can0  421   [2]  00 00
 (134.336350)  can0  421   [2]  00 00
 (134.407004)  can0  421   [2]  00 00
 (134.477651)  can0  421   [2]  00 00
 (134.548307)  can0  421   [2]  00 00
 (134.618935)  can0  421   [2]  00 00
 (134.689570)  can0  421   [2]  00 00
 (134.760224)  can0  421   [2]  00 00
 (134.762725)  can0  422   [1]  00
 (134.830867)  can0  421   [2]  00 00
 (134.894870)  can0  460   [4]  37 00 0F 00
 (134.895091)  can0  462   [4]  37 00 0F 00
 (134.895286)  can0  464   [8]  67 00 B6 02 C8 8C 7E 00
 (134.901488)  can0  421   [2]  00 00
 (134.972148)  can0  421   [2]  00 00
 (135.042799)  can0  421   [2]  00 00
 (135.113463)  can0  421   [2]  00 00
 (135.184085)  can0  421   [2]  00 00
 (135.254732)  can0  421   [2]  00 00
 (135.325372)  can0  421   [2]  00 00
 (135.396032)  can0  421   [2]  00 00
 (135.466695)  can0  421   [2]  00 00
 (135.537323)  can0  421   [2]  00 00
 (135.607965)  can0  421   [2]  00 00
 (135.678612)  can0  421   [2]  00 00
 (135.749277)  can0  421   [2]  00 00
 (135.762730)  can0  422   [1]  00
 (135.819924)  can0  421   [2]  00 00
 (135.890580)  can0  421   [2]  00 00
 (135.930627)  can0  460   [4]  37 00 0F 00
 (135.930860)  can0  462   [4]  37 00 0F 00
 (135.931068)  can0  464   [8]  67 00 B6 02 C8 8C 7E 00
 (135.961213)  can0  421   [2]  00 00
 (136.031879)  can0  421   [2]  00 00
 (136.102510)  can0  421   [2]  00 00
 (136.173152)  can0  421   [2]  00 00
 (136.243813)  can0  421   [2]  00 00
 (136.314446)  can0  421   [2]  00 00
 (136.385104)  can0  421   [2]  00 00
 (136.455755)  can0  421   [2]  00 00
 (136.526417)  can0  421   [2]  00 00
 (136.597056)  can0  421   [2]  00 00
 (136.667706)  can0  421   [2]  00 00
 (136.738342)  can0  421   [2]  00 00
 (136.762701)  can0  422   [1]  00
 (136.808988)  can0  421   [2]  00 00
 (136.879639)  can0  421   [2]  00 00
 (136.950307)  can0  421   [2]  00 00
 (136.968640)  can0  460   [4]  37 00 0F 00
 (136.968869)  can0  462   [4]  37 00 0F 00
 (136.969065)  can0  464   [8]  67 00 B6 02 C8 8C 7E 00
 (137.020959)  can0  421   [2]  00 00
 (137.091629)  can0  421   [2]  00 00
 (137.162258)  can0  421   [2]  00 00
 (137.232906)  can0  421   [2]  00 00
 (137.303541)  can0  421   [2]  00 00
 (137.374195)  can0  421   [2]  00 00
 (137.444827)  can0  421   [2]  00 00
 (137.515496)  can0  421   [2]  00 00
 (137.586128)  can0  421   [2]  00 00
 (137.656765)  can0  421   [2]  00 00
 (137.727417)  can0  421   [2]  00 00
 (137.762664)  can0  422   [1]  00
 (137.798055)  can0  421   [2]  00 00
 (137.868707)  can0  421   [2]  00 00
 (137.898907)  can0  460   [4]  37 00 0F 00
 (137.899124)  can0  462   [4]  37 00 0F 00
 (137.899324)  can0  464   [8]  67 00 B6 02 C7 8C 7E 00
 (137.939416)  can0  421   [2]  00 00
 (138.009999)  can0  421   [2]  00 00
 (138.080638)  can0  421   [2]  00 00
 (138.151271)  can0  421   [2]  00 00
 (138.221905)  can0  421   [2]  00 00
 (138.292547)  can0  421   [2]  00 00
 (138.363180)  can0  421   [2]  00 00
 (138.433812)  can0  421   [2]  00 00
 (138.504445)  can0  421   [2]  00 00
 (138.575095)  can0  421   [2]  00 00
 (138.645730)  can0  421   [2]  00 00
 (138.716377)  can0  421   [2]  00 00
 (138.762644)  can0  422   [1]  00
 (138.787012)  can0  421   [2]  00 00
 (138.857673)  can0  421   [2]  00 00
 (138.928299)  can0  421   [2]  00 00
 (138.934648)  can0  460   [4]  37 00 0F 00
 (138.934851)  can0  462   [4]  37 00 0F 00
 (138.935045)  can0  464   [8]  67 00 B6 02 C7 8C 7E 00
 (138.998937)  can0  421   [2]  00 00
 (139.069587)  can0  421   [2]  00 00
 (139.140219)  can0  421   [2]  00 00
 (139.210891)  can0  421   [2]  00 00
 (139.281510)  can0  421   [2]  00 00
 (139.352161)  can0  421   [2]  00 00
 (139.422794)  can0  421   [2]  00 00
 (139.493450)  can0  421   [2]  00 00
 (139.564094)  can0  421   [2]  00 00
 (139.634734)  can0  421   [2]  00 00
 (139.705370)  can0  421   [2]  00 00
 (139.762629)  can0  422   [1]  00
 (139.776017)  can0  421   [2]  00 00
 (139.846663)  can0  421   [2]  00 00
 (139.917311)  can0  421   [2]  00 00
 (139.969052)  can0  460   [4]  25 00 0F 00
 (139.969272)  can0  462   [4]  25 00 0F 00
 (139.969466)  can0  464   [8]  67 00 B6 02 C7 8C 7E 00
 (139.987956)  can0  421   [2]  00 00
 (140.058599)  can0  421   [2]  00 00
 (140.129238)  can0  421   [2]  00 00
 (140.199891)  can0  421   [2]  00 00
 (140.270511)  can0  421   [2]  00 00
 (140.341152)  can0  421   [2]  00 00
 (140.411783)  can0  421   [2]  00 00
 (140.482431)  can0  421   [2]  00 00
 (140.553071)  can0  421   [2]  00 00
