 (000.948793)  can0  460   [4]  12 00 26 00 ::
whereamiData(
    Speed: 0.18 km/h,
    Distance: 38 m
)
 (000.948992)  can0  462   [4]  12 00 26 00 ::
whereamiRawData(
    RawSpeed: 0.18 km/h,
    RawDistance: 38 m
)
 (000.949178)  can0  464   [8]  58 00 B6 02 C3 8C 7E 00 ::
whereamiCoords(
    Latitude: 45.482071999999995 °,
    Longitude: 8.293571 °
)
 (001.880812)  can0  460   [4]  12 00 26 00 ::
whereamiData(
    Speed: 0.18 km/h,
    Distance: 38 m
)
 (001.881015)  can0  462   [4]  12 00 26 00 ::
whereamiRawData(
    RawSpeed: 0.18 km/h,
    RawDistance: 38 m
)
 (001.881204)  can0  464   [8]  58 00 B6 02 C4 8C 7E 00 ::
whereamiCoords(
    Latitude: 45.482071999999995 °,
    Longitude: 8.293572 °
)
 (002.920576)  can0  460   [4]  12 00 26 00 ::
whereamiData(
    Speed: 0.18 km/h,
    Distance: 38 m
)
 (002.920786)  can0  462   [4]  12 00 26 00 ::
whereamiRawData(
    RawSpeed: 0.18 km/h,
    RawDistance: 38 m
)
 (002.920982)  can0  464   [8]  58 00 B6 02 C3 8C 7E 00 ::
whereamiCoords(
    Latitude: 45.482071999999995 °,
    Longitude: 8.293571 °
)
 (003.952880)  can0  460   [4]  12 00 26 00 ::
whereamiData(
    Speed: 0.18 km/h,
    Distance: 38 m
)
 (003.953105)  can0  462   [4]  12 00 26 00 ::
whereamiRawData(
    RawSpeed: 0.18 km/h,
    RawDistance: 38 m
)
 (003.953300)  can0  464   [8]  58 00 B6 02 C3 8C 7E 00 ::
whereamiCoords(
    Latitude: 45.482071999999995 °,
    Longitude: 8.293571 °
)
 (004.884859)  can0  460   [4]  12 00 26 00 ::
whereamiData(
    Speed: 0.18 km/h,
    Distance: 38 m
)
 (004.885051)  can0  462   [4]  12 00 26 00 ::
whereamiRawData(
    RawSpeed: 0.18 km/h,
    RawDistance: 38 m
)
 (004.885239)  can0  464   [8]  58 00 B6 02 C3 8C 7E 00 ::
whereamiCoords(
    Latitude: 45.482071999999995 °,
    Longitude: 8.293571 °
)
 (005.924637)  can0  460   [4]  12 00 26 00 ::
whereamiData(
    Speed: 0.18 km/h,
    Distance: 38 m
)
 (005.924840)  can0  462   [4]  12 00 26 00 ::
whereamiRawData(
    RawSpeed: 0.18 km/h,
    RawDistance: 38 m
)
 (005.925028)  can0  464   [8]  58 00 B6 02 C3 8C 7E 00 ::
whereamiCoords(
    Latitude: 45.482071999999995 °,
    Longitude: 8.293571 °
)
 (006.967008)  can0  460   [4]  12 00 26 00 ::
whereamiData(
    Speed: 0.18 km/h,
    Distance: 38 m
)
 (006.967213)  can0  462   [4]  12 00 26 00 ::
whereamiRawData(
    RawSpeed: 0.18 km/h,
    RawDistance: 38 m
)
 (006.967401)  can0  464   [8]  58 00 B6 02 C3 8C 7E 00 ::
whereamiCoords(
    Latitude: 45.482071999999995 °,
    Longitude: 8.293571 °
)
 (007.902964)  can0  460   [4]  12 00 26 00 ::
whereamiData(
    Speed: 0.18 km/h,
    Distance: 38 m
)
 (007.903197)  can0  462   [4]  12 00 26 00 ::
whereamiRawData(
    RawSpeed: 0.18 km/h,
    RawDistance: 38 m
)
 (007.903389)  can0  464   [8]  58 00 B6 02 C4 8C 7E 00 ::
whereamiCoords(
    Latitude: 45.482071999999995 °,
    Longitude: 8.293572 °
)
 (008.940698)  can0  460   [4]  25 00 26 00 ::
whereamiData(
    Speed: 0.37 km/h,
    Distance: 38 m
)
 (008.940918)  can0  462   [4]  25 00 26 00 ::
whereamiRawData(
    RawSpeed: 0.37 km/h,
    RawDistance: 38 m
)
 (008.941116)  can0  464   [8]  59 00 B6 02 C4 8C 7E 00 ::
whereamiCoords(
    Latitude: 45.482073 °,
    Longitude: 8.293572 °
)
 (009.974990)  can0  460   [4]  37 00 26 00 ::
whereamiData(
    Speed: 0.55 km/h,
    Distance: 38 m
)
 (009.975207)  can0  462   [4]  37 00 26 00 ::
whereamiRawData(
    RawSpeed: 0.55 km/h,
    RawDistance: 38 m
)
 (009.975399)  can0  464   [8]  59 00 B6 02 C5 8C 7E 00 ::
whereamiCoords(
    Latitude: 45.482073 °,
    Longitude: 8.293573 °
)
 (010.910837)  can0  460   [4]  25 00 27 00 ::
whereamiData(
    Speed: 0.37 km/h,
    Distance: 39 m
)
 (010.911054)  can0  462   [4]  25 00 27 00 ::
whereamiRawData(
    RawSpeed: 0.37 km/h,
    RawDistance: 39 m
)
 (010.911246)  can0  464   [8]  59 00 B6 02 C5 8C 7E 00 ::
whereamiCoords(
    Latitude: 45.482073 °,
    Longitude: 8.293573 °
)
 (011.949045)  can0  460   [4]  25 00 27 00 ::
whereamiData(
    Speed: 0.37 km/h,
    Distance: 39 m
)
 (011.949267)  can0  462   [4]  25 00 27 00 ::
whereamiRawData(
    RawSpeed: 0.37 km/h,
    RawDistance: 39 m
)
 (011.949460)  can0  464   [8]  59 00 B6 02 C5 8C 7E 00 ::
whereamiCoords(
    Latitude: 45.482073 °,
    Longitude: 8.293573 °
)
 (012.885056)  can0  460   [4]  12 00 27 00 ::
whereamiData(
    Speed: 0.18 km/h,
    Distance: 39 m
)
 (012.885282)  can0  462   [4]  12 00 27 00 ::
whereamiRawData(
    RawSpeed: 0.18 km/h,
    RawDistance: 39 m
)
 (012.885476)  can0  464   [8]  59 00 B6 02 C4 8C 7E 00 ::
whereamiCoords(
    Latitude: 45.482073 °,
    Longitude: 8.293572 °
)
 (013.924793)  can0  460   [4]  12 00 27 00 ::
whereamiData(
    Speed: 0.18 km/h,
    Distance: 39 m
)
 (013.924996)  can0  462   [4]  12 00 27 00 ::
whereamiRawData(
    RawSpeed: 0.18 km/h,
    RawDistance: 39 m
)
 (013.925185)  can0  464   [8]  59 00 B6 02 C4 8C 7E 00 ::
whereamiCoords(
    Latitude: 45.482073 °,
    Longitude: 8.293572 °
)
 (014.962817)  can0  460   [4]  25 00 27 00 ::
whereamiData(
    Speed: 0.37 km/h,
    Distance: 39 m
)
 (014.963036)  can0  462   [4]  25 00 27 00 ::
whereamiRawData(
    RawSpeed: 0.37 km/h,
    RawDistance: 39 m
)
 (014.963237)  can0  464   [8]  59 00 B6 02 C4 8C 7E 00 ::
whereamiCoords(
    Latitude: 45.482073 °,
    Longitude: 8.293572 °
)
 (015.897106)  can0  460   [4]  37 00 27 00 ::
whereamiData(
    Speed: 0.55 km/h,
    Distance: 39 m
)
 (015.897323)  can0  462   [4]  37 00 27 00 ::
whereamiRawData(
    RawSpeed: 0.55 km/h,
    RawDistance: 39 m
)
 (015.897520)  can0  464   [8]  59 00 B6 02 C5 8C 7E 00 ::
whereamiCoords(
    Latitude: 45.482073 °,
    Longitude: 8.293573 °
)
 (016.932854)  can0  460   [4]  25 00 27 00 ::
whereamiData(
    Speed: 0.37 km/h,
    Distance: 39 m
)
 (016.933072)  can0  462   [4]  25 00 27 00 ::
whereamiRawData(
    RawSpeed: 0.37 km/h,
    RawDistance: 39 m
)
 (016.933273)  can0  464   [8]  59 00 B6 02 C5 8C 7E 00 ::
whereamiCoords(
    Latitude: 45.482073 °,
    Longitude: 8.293573 °
)
 (021.027572)  can0  460   [4]  00 00 00 00 ::
whereamiData(
    Speed: 0.0 km/h,
    Distance: 0 m
)
 (021.027788)  can0  462   [4]  00 00 00 00 ::
whereamiRawData(
    RawSpeed: 0.0 km/h,
    RawDistance: 0 m
)
 (021.027985)  can0  464   [8]  00 00 00 00 00 00 00 00 ::
whereamiCoords(
    Latitude: 0.0 °,
    Longitude: 0.0 °
)
 (021.058876)  can0  460   [4]  00 00 00 00 ::
whereamiData(
    Speed: 0.0 km/h,
    Distance: 0 m
)
 (021.059090)  can0  462   [4]  00 00 00 00 ::
whereamiRawData(
    RawSpeed: 0.0 km/h,
    RawDistance: 0 m
)
 (021.059285)  can0  464   [8]  00 00 00 00 00 00 00 00 ::
whereamiCoords(
    Latitude: 0.0 °,
    Longitude: 0.0 °
)
 (021.956894)  can0  460   [4]  4A 00 00 00 ::
whereamiData(
    Speed: 0.74 km/h,
    Distance: 0 m
)
 (021.957110)  can0  462   [4]  4A 00 00 00 ::
whereamiRawData(
    RawSpeed: 0.74 km/h,
    RawDistance: 0 m
)
 (021.957305)  can0  464   [8]  00 00 00 00 00 00 00 00 ::
whereamiCoords(
    Latitude: 0.0 °,
    Longitude: 0.0 °
)
 (022.904731)  can0  460   [4]  4A 00 00 00 ::
whereamiData(
    Speed: 0.74 km/h,
    Distance: 0 m
)
 (022.904943)  can0  462   [4]  4A 00 00 00 ::
whereamiRawData(
    RawSpeed: 0.74 km/h,
    RawDistance: 0 m
)
 (022.905136)  can0  464   [8]  00 00 00 00 00 00 00 00 ::
whereamiCoords(
    Latitude: 0.0 °,
    Longitude: 0.0 °
)
 (023.908662)  can0  460   [4]  15 01 00 00 ::
whereamiData(
    Speed: 2.77 km/h,
    Distance: 0 m
)
 (023.908873)  can0  462   [4]  15 01 00 00 ::
whereamiRawData(
    RawSpeed: 2.77 km/h,
    RawDistance: 0 m
)
 (023.909084)  can0  464   [8]  62 00 B6 02 D4 8C 7E 00 ::
whereamiCoords(
    Latitude: 45.482082 °,
    Longitude: 8.293588 °
)
 (024.924688)  can0  460   [4]  03 01 00 00 ::
whereamiData(
    Speed: 2.59 km/h,
    Distance: 0 m
)
 (024.924908)  can0  462   [4]  03 01 00 00 ::
whereamiRawData(
    RawSpeed: 2.59 km/h,
    RawDistance: 0 m
)
 (024.925102)  can0  464   [8]  66 00 B6 02 DB 8C 7E 00 ::
whereamiCoords(
    Latitude: 45.482085999999995 °,
    Longitude: 8.293595 °
)
 (025.946794)  can0  460   [4]  BC 01 01 00 ::
whereamiData(
    Speed: 4.44 km/h,
    Distance: 1 m
)
 (025.947011)  can0  462   [4]  BC 01 01 00 ::
whereamiRawData(
    RawSpeed: 4.44 km/h,
    RawDistance: 1 m
)
 (025.947204)  can0  464   [8]  6D 00 B6 02 E8 8C 7E 00 ::
whereamiCoords(
    Latitude: 45.482093 °,
    Longitude: 8.293607999999999 °
)
 (026.974729)  can0  460   [4]  2B 02 03 00 ::
whereamiData(
    Speed: 5.55 km/h,
    Distance: 3 m
)
 (026.974949)  can0  462   [4]  2B 02 03 00 ::
whereamiRawData(
    RawSpeed: 5.55 km/h,
    RawDistance: 3 m
)
 (026.975142)  can0  464   [8]  75 00 B6 02 F7 8C 7E 00 ::
whereamiCoords(
    Latitude: 45.482101 °,
    Longitude: 8.293623 °
)
 (027.902758)  can0  460   [4]  75 02 04 00 ::
whereamiData(
    Speed: 6.29 km/h,
    Distance: 4 m
)
 (027.902974)  can0  462   [4]  75 02 04 00 ::
whereamiRawData(
    RawSpeed: 6.29 km/h,
    RawDistance: 4 m
)
 (027.903168)  can0  464   [8]  7F 00 B6 02 09 8D 7E 00 ::
whereamiCoords(
    Latitude: 45.482110999999996 °,
    Longitude: 8.293641 °
)
 (028.926756)  can0  460   [4]  E4 02 06 00 ::
whereamiData(
    Speed: 7.4 km/h,
    Distance: 6 m
)
 (028.926965)  can0  462   [4]  E4 02 06 00 ::
whereamiRawData(
    RawSpeed: 7.4 km/h,
    RawDistance: 6 m
)
 (028.927155)  can0  464   [8]  8A 00 B6 02 1E 8D 7E 00 ::
whereamiCoords(
    Latitude: 45.482122 °,
    Longitude: 8.293662 °
)
 (029.948863)  can0  460   [4]  12 00 07 00 ::
whereamiData(
    Speed: 0.18 km/h,
    Distance: 7 m
)
 (029.949078)  can0  462   [4]  12 00 07 00 ::
whereamiRawData(
    RawSpeed: 0.18 km/h,
    RawDistance: 7 m
)
 (029.949269)  can0  464   [8]  5D 00 B6 02 EA 8C 7E 00 ::
whereamiCoords(
    Latitude: 45.482077 °,
    Longitude: 8.29361 °
)
 (030.972795)  can0  460   [4]  37 00 07 00 ::
whereamiData(
    Speed: 0.55 km/h,
    Distance: 7 m
)
 (030.973010)  can0  462   [4]  37 00 07 00 ::
whereamiRawData(
    RawSpeed: 0.55 km/h,
    RawDistance: 7 m
)
 (030.973206)  can0  464   [8]  58 00 B6 02 E4 8C 7E 00 ::
whereamiCoords(
    Latitude: 45.482071999999995 °,
    Longitude: 8.293604 °
)
 (031.890822)  can0  460   [4]  25 00 07 00 ::
whereamiData(
    Speed: 0.37 km/h,
    Distance: 7 m
)
 (031.891037)  can0  462   [4]  25 00 07 00 ::
whereamiRawData(
    RawSpeed: 0.37 km/h,
    RawDistance: 7 m
)
 (031.891239)  can0  464   [8]  57 00 B6 02 E2 8C 7E 00 ::
whereamiCoords(
    Latitude: 45.482071 °,
    Longitude: 8.293602 °
)
 (032.908924)  can0  460   [4]  12 00 08 00 ::
whereamiData(
    Speed: 0.18 km/h,
    Distance: 8 m
)
 (032.909138)  can0  462   [4]  12 00 08 00 ::
whereamiRawData(
    RawSpeed: 0.18 km/h,
    RawDistance: 8 m
)
 (032.909332)  can0  464   [8]  57 00 B6 02 DF 8C 7E 00 ::
whereamiCoords(
    Latitude: 45.482071 °,
    Longitude: 8.293599 °
)
 (033.930846)  can0  460   [4]  12 00 08 00 ::
whereamiData(
    Speed: 0.18 km/h,
    Distance: 8 m
)
 (033.931058)  can0  462   [4]  12 00 08 00 ::
whereamiRawData(
    RawSpeed: 0.18 km/h,
    RawDistance: 8 m
)
 (033.931251)  can0  464   [8]  55 00 B6 02 DD 8C 7E 00 ::
whereamiCoords(
    Latitude: 45.482068999999996 °,
    Longitude: 8.293597 °
)
 (034.956963)  can0  460   [4]  25 00 08 00 ::
whereamiData(
    Speed: 0.37 km/h,
    Distance: 8 m
)
 (034.957179)  can0  462   [4]  25 00 08 00 ::
whereamiRawData(
    RawSpeed: 0.37 km/h,
    RawDistance: 8 m
)
 (034.957371)  can0  464   [8]  55 00 B6 02 DC 8C 7E 00 ::
whereamiCoords(
    Latitude: 45.482068999999996 °,
    Longitude: 8.293595999999999 °
)
 (035.982886)  can0  460   [4]  25 00 08 00 ::
whereamiData(
    Speed: 0.37 km/h,
    Distance: 8 m
)
 (035.983101)  can0  462   [4]  25 00 08 00 ::
whereamiRawData(
    RawSpeed: 0.37 km/h,
    RawDistance: 8 m
)
 (035.983297)  can0  464   [8]  54 00 B6 02 DB 8C 7E 00 ::
whereamiCoords(
    Latitude: 45.482068 °,
    Longitude: 8.293595 °
)
 (036.904905)  can0  460   [4]  12 00 08 00 ::
whereamiData(
    Speed: 0.18 km/h,
    Distance: 8 m
)
 (036.905122)  can0  462   [4]  12 00 08 00 ::
whereamiRawData(
    RawSpeed: 0.18 km/h,
    RawDistance: 8 m
)
 (036.905324)  can0  464   [8]  53 00 B6 02 DA 8C 7E 00 ::
whereamiCoords(
    Latitude: 45.482067 °,
    Longitude: 8.293593999999999 °
)
 (037.926921)  can0  460   [4]  12 00 08 00 ::
whereamiData(
    Speed: 0.18 km/h,
    Distance: 8 m
)
 (037.927133)  can0  462   [4]  12 00 08 00 ::
whereamiRawData(
    RawSpeed: 0.18 km/h,
    RawDistance: 8 m
)
 (037.927328)  can0  464   [8]  53 00 B6 02 DB 8C 7E 00 ::
whereamiCoords(
    Latitude: 45.482067 °,
    Longitude: 8.293595 °
)
 (038.949205)  can0  460   [4]  12 00 08 00 ::
whereamiData(
    Speed: 0.18 km/h,
    Distance: 8 m
)
 (038.949416)  can0  462   [4]  12 00 08 00 ::
whereamiRawData(
    RawSpeed: 0.18 km/h,
    RawDistance: 8 m
)
 (038.949612)  can0  464   [8]  52 00 B6 02 DD 8C 7E 00 ::
whereamiCoords(
    Latitude: 45.482065999999996 °,
    Longitude: 8.293597 °
)
 (039.969246)  can0  460   [4]  12 00 08 00 ::
whereamiData(
    Speed: 0.18 km/h,
    Distance: 8 m
)
 (039.969478)  can0  462   [4]  12 00 08 00 ::
whereamiRawData(
    RawSpeed: 0.18 km/h,
    RawDistance: 8 m
)
 (039.969682)  can0  464   [8]  51 00 B6 02 DE 8C 7E 00 ::
whereamiCoords(
    Latitude: 45.482065 °,
    Longitude: 8.293598 °
)
 (040.894989)  can0  460   [4]  25 00 08 00 ::
whereamiData(
    Speed: 0.37 km/h,
    Distance: 8 m
)
 (040.895216)  can0  462   [4]  25 00 08 00 ::
whereamiRawData(
    RawSpeed: 0.37 km/h,
    RawDistance: 8 m
)
 (040.895418)  can0  464   [8]  51 00 B6 02 E1 8C 7E 00 ::
whereamiCoords(
    Latitude: 45.482065 °,
    Longitude: 8.293600999999999 °
)
 (041.917263)  can0  460   [4]  12 00 08 00 ::
whereamiData(
    Speed: 0.18 km/h,
    Distance: 8 m
)
 (041.917477)  can0  462   [4]  12 00 08 00 ::
whereamiRawData(
    RawSpeed: 0.18 km/h,
    RawDistance: 8 m
)
 (041.917676)  can0  464   [8]  50 00 B6 02 E2 8C 7E 00 ::
whereamiCoords(
    Latitude: 45.482064 °,
    Longitude: 8.293602 °
)
 (042.941009)  can0  460   [4]  00 00 08 00 ::
whereamiData(
    Speed: 0.0 km/h,
    Distance: 8 m
)
 (042.941230)  can0  462   [4]  00 00 08 00 ::
whereamiRawData(
    RawSpeed: 0.0 km/h,
    RawDistance: 8 m
)
 (042.941426)  can0  464   [8]  50 00 B6 02 E3 8C 7E 00 ::
whereamiCoords(
    Latitude: 45.482064 °,
    Longitude: 8.293603 °
)
 (043.967300)  can0  460   [4]  00 00 08 00 ::
whereamiData(
    Speed: 0.0 km/h,
    Distance: 8 m
)
 (043.967515)  can0  462   [4]  00 00 08 00 ::
whereamiRawData(
    RawSpeed: 0.0 km/h,
    RawDistance: 8 m
)
 (043.967711)  can0  464   [8]  4F 00 B6 02 E3 8C 7E 00 ::
whereamiCoords(
    Latitude: 45.482063 °,
    Longitude: 8.293603 °
)
 (044.887320)  can0  460   [4]  25 00 08 00 ::
whereamiData(
    Speed: 0.37 km/h,
    Distance: 8 m
)
 (044.887526)  can0  462   [4]  25 00 08 00 ::
whereamiRawData(
    RawSpeed: 0.37 km/h,
    RawDistance: 8 m
)
 (044.887721)  can0  464   [8]  50 00 B6 02 E4 8C 7E 00 ::
whereamiCoords(
    Latitude: 45.482064 °,
    Longitude: 8.293604 °
)
 (045.911170)  can0  460   [4]  25 00 08 00 ::
whereamiData(
    Speed: 0.37 km/h,
    Distance: 8 m
)
 (045.911392)  can0  462   [4]  25 00 08 00 ::
whereamiRawData(
    RawSpeed: 0.37 km/h,
    RawDistance: 8 m
)
 (045.911592)  can0  464   [8]  51 00 B6 02 E5 8C 7E 00 ::
whereamiCoords(
    Latitude: 45.482065 °,
    Longitude: 8.293605 °
)
 (046.935091)  can0  460   [4]  12 00 08 00 ::
whereamiData(
    Speed: 0.18 km/h,
    Distance: 8 m
)
 (046.935307)  can0  462   [4]  12 00 08 00 ::
whereamiRawData(
    RawSpeed: 0.18 km/h,
    RawDistance: 8 m
)
 (046.935504)  can0  464   [8]  51 00 B6 02 E4 8C 7E 00 ::
whereamiCoords(
    Latitude: 45.482065 °,
    Longitude: 8.293604 °
)
 (047.959223)  can0  460   [4]  12 00 08 00 ::
whereamiData(
    Speed: 0.18 km/h,
    Distance: 8 m
)
 (047.959451)  can0  462   [4]  12 00 08 00 ::
whereamiRawData(
    RawSpeed: 0.18 km/h,
    RawDistance: 8 m
)
 (047.959644)  can0  464   [8]  50 00 B6 02 E3 8C 7E 00 ::
whereamiCoords(
    Latitude: 45.482064 °,
    Longitude: 8.293603 °
)
 (048.981112)  can0  460   [4]  12 00 09 00 ::
whereamiData(
    Speed: 0.18 km/h,
    Distance: 9 m
)
 (048.981308)  can0  462   [4]  12 00 09 00 ::
whereamiRawData(
    RawSpeed: 0.18 km/h,
    RawDistance: 9 m
)
 (048.981498)  can0  464   [8]  4E 00 B6 02 E3 8C 7E 00 ::
whereamiCoords(
    Latitude: 45.482062 °,
    Longitude: 8.293603 °
)
 (049.899118)  can0  460   [4]  12 00 09 00 ::
whereamiData(
    Speed: 0.18 km/h,
    Distance: 9 m
)
 (049.899315)  can0  462   [4]  12 00 09 00 ::
whereamiRawData(
    RawSpeed: 0.18 km/h,
    RawDistance: 9 m
)
 (049.899504)  can0  464   [8]  4E 00 B6 02 E2 8C 7E 00 ::
whereamiCoords(
    Latitude: 45.482062 °,
    Longitude: 8.293602 °
)
 (050.917245)  can0  460   [4]  12 00 09 00 ::
whereamiData(
    Speed: 0.18 km/h,
    Distance: 9 m
)
 (050.917459)  can0  462   [4]  12 00 09 00 ::
whereamiRawData(
    RawSpeed: 0.18 km/h,
    RawDistance: 9 m
)
 (050.917652)  can0  464   [8]  4E 00 B6 02 E2 8C 7E 00 ::
whereamiCoords(
    Latitude: 45.482062 °,
    Longitude: 8.293602 °
)
 (051.941182)  can0  460   [4]  12 00 09 00 ::
whereamiData(
    Speed: 0.18 km/h,
    Distance: 9 m
)
 (051.941411)  can0  462   [4]  12 00 09 00 ::
whereamiRawData(
    RawSpeed: 0.18 km/h,
    RawDistance: 9 m
)
 (051.941607)  can0  464   [8]  4F 00 B6 02 E0 8C 7E 00 ::
whereamiCoords(
    Latitude: 45.482063 °,
    Longitude: 8.2936 °
)
 (052.967189)  can0  460   [4]  12 00 09 00 ::
whereamiData(
    Speed: 0.18 km/h,
    Distance: 9 m
)
 (052.967402)  can0  462   [4]  12 00 09 00 ::
whereamiRawData(
    RawSpeed: 0.18 km/h,
    RawDistance: 9 m
)
 (052.967595)  can0  464   [8]  4F 00 B6 02 E0 8C 7E 00 ::
whereamiCoords(
    Latitude: 45.482063 °,
    Longitude: 8.2936 °
)
 (053.891225)  can0  460   [4]  25 00 09 00 ::
whereamiData(
    Speed: 0.37 km/h,
    Distance: 9 m
)
 (053.891458)  can0  462   [4]  25 00 09 00 ::
whereamiRawData(
    RawSpeed: 0.37 km/h,
    RawDistance: 9 m
)
 (053.891681)  can0  464   [8]  50 00 B6 02 E1 8C 7E 00 ::
whereamiCoords(
    Latitude: 45.482064 °,
    Longitude: 8.293600999999999 °
)
 (054.921227)  can0  460   [4]  25 00 09 00 ::
whereamiData(
    Speed: 0.37 km/h,
    Distance: 9 m
)
 (054.921437)  can0  462   [4]  25 00 09 00 ::
whereamiRawData(
    RawSpeed: 0.37 km/h,
    RawDistance: 9 m
)
 (054.921637)  can0  464   [8]  4F 00 B6 02 E0 8C 7E 00 ::
whereamiCoords(
    Latitude: 45.482063 °,
    Longitude: 8.2936 °
)
 (055.945339)  can0  460   [4]  25 00 09 00 ::
whereamiData(
    Speed: 0.37 km/h,
    Distance: 9 m
)
 (055.945565)  can0  462   [4]  25 00 09 00 ::
whereamiRawData(
    RawSpeed: 0.37 km/h,
    RawDistance: 9 m
)
 (055.945757)  can0  464   [8]  50 00 B6 02 DF 8C 7E 00 ::
whereamiCoords(
    Latitude: 45.482064 °,
    Longitude: 8.293599 °
)
 (056.975280)  can0  460   [4]  25 00 09 00 ::
whereamiData(
    Speed: 0.37 km/h,
    Distance: 9 m
)
 (056.975498)  can0  462   [4]  25 00 09 00 ::
whereamiRawData(
    RawSpeed: 0.37 km/h,
    RawDistance: 9 m
)
 (056.975700)  can0  464   [8]  50 00 B6 02 DD 8C 7E 00 ::
whereamiCoords(
    Latitude: 45.482064 °,
    Longitude: 8.293597 °
)
 (057.897300)  can0  460   [4]  25 00 09 00 ::
whereamiData(
    Speed: 0.37 km/h,
    Distance: 9 m
)
 (057.897517)  can0  462   [4]  25 00 09 00 ::
whereamiRawData(
    RawSpeed: 0.37 km/h,
    RawDistance: 9 m
)
 (057.897708)  can0  464   [8]  50 00 B6 02 DD 8C 7E 00 ::
whereamiCoords(
    Latitude: 45.482064 °,
    Longitude: 8.293597 °
)
 (058.925297)  can0  460   [4]  12 00 09 00 ::
whereamiData(
    Speed: 0.18 km/h,
    Distance: 9 m
)
 (058.925516)  can0  462   [4]  12 00 09 00 ::
whereamiRawData(
    RawSpeed: 0.18 km/h,
    RawDistance: 9 m
)
 (058.925718)  can0  464   [8]  50 00 B6 02 DC 8C 7E 00 ::
whereamiCoords(
    Latitude: 45.482064 °,
    Longitude: 8.293595999999999 °
)
 (059.951551)  can0  460   [4]  25 00 09 00 ::
whereamiData(
    Speed: 0.37 km/h,
    Distance: 9 m
)
 (059.951751)  can0  462   [4]  25 00 09 00 ::
whereamiRawData(
    RawSpeed: 0.37 km/h,
    RawDistance: 9 m
)
 (059.951952)  can0  464   [8]  50 00 B6 02 DC 8C 7E 00 ::
whereamiCoords(
    Latitude: 45.482064 °,
    Longitude: 8.293595999999999 °
)
 (060.977351)  can0  460   [4]  12 00 09 00 ::
whereamiData(
    Speed: 0.18 km/h,
    Distance: 9 m
)
 (060.977569)  can0  462   [4]  12 00 09 00 ::
whereamiRawData(
    RawSpeed: 0.18 km/h,
    RawDistance: 9 m
)
 (060.977762)  can0  464   [8]  4F 00 B6 02 DC 8C 7E 00 ::
whereamiCoords(
    Latitude: 45.482063 °,
    Longitude: 8.293595999999999 °
)
 (061.905637)  can0  460   [4]  12 00 09 00 ::
whereamiData(
    Speed: 0.18 km/h,
    Distance: 9 m
)
 (061.905855)  can0  462   [4]  12 00 09 00 ::
whereamiRawData(
    RawSpeed: 0.18 km/h,
    RawDistance: 9 m
)
 (061.906049)  can0  464   [8]  4F 00 B6 02 DD 8C 7E 00 ::
whereamiCoords(
    Latitude: 45.482063 °,
    Longitude: 8.293597 °
)
 (062.933377)  can0  460   [4]  12 00 0A 00 ::
whereamiData(
    Speed: 0.18 km/h,
    Distance: 10 m
)
 (062.933597)  can0  462   [4]  12 00 0A 00 ::
whereamiRawData(
    RawSpeed: 0.18 km/h,
    RawDistance: 10 m
)
 (062.933794)  can0  464   [8]  4F 00 B6 02 DE 8C 7E 00 ::
whereamiCoords(
    Latitude: 45.482063 °,
    Longitude: 8.293598 °
)
 (063.963653)  can0  460   [4]  12 00 0A 00 ::
whereamiData(
    Speed: 0.18 km/h,
    Distance: 10 m
)
 (063.963886)  can0  462   [4]  12 00 0A 00 ::
whereamiRawData(
    RawSpeed: 0.18 km/h,
    RawDistance: 10 m
)
 (063.964078)  can0  464   [8]  4F 00 B6 02 E0 8C 7E 00 ::
whereamiCoords(
    Latitude: 45.482063 °,
    Longitude: 8.2936 °
)
 (064.889505)  can0  460   [4]  25 00 0A 00 ::
whereamiData(
    Speed: 0.37 km/h,
    Distance: 10 m
)
 (064.889734)  can0  462   [4]  25 00 0A 00 ::
whereamiRawData(
    RawSpeed: 0.37 km/h,
    RawDistance: 10 m
)
 (064.889927)  can0  464   [8]  4F 00 B6 02 E0 8C 7E 00 ::
whereamiCoords(
    Latitude: 45.482063 °,
    Longitude: 8.2936 °
)
 (065.917702)  can0  460   [4]  12 00 0A 00 ::
whereamiData(
    Speed: 0.18 km/h,
    Distance: 10 m
)
 (065.917919)  can0  462   [4]  12 00 0A 00 ::
whereamiRawData(
    RawSpeed: 0.18 km/h,
    RawDistance: 10 m
)
 (065.918112)  can0  464   [8]  4F 00 B6 02 E1 8C 7E 00 ::
whereamiCoords(
    Latitude: 45.482063 °,
    Longitude: 8.293600999999999 °
)
 (066.949685)  can0  460   [4]  12 00 0A 00 ::
whereamiData(
    Speed: 0.18 km/h,
    Distance: 10 m
)
 (066.949889)  can0  462   [4]  12 00 0A 00 ::
whereamiRawData(
    RawSpeed: 0.18 km/h,
    RawDistance: 10 m
)
 (066.950079)  can0  464   [8]  50 00 B6 02 E2 8C 7E 00 ::
whereamiCoords(
    Latitude: 45.482064 °,
    Longitude: 8.293602 °
)
 (067.977907)  can0  460   [4]  12 00 0A 00 ::
whereamiData(
    Speed: 0.18 km/h,
    Distance: 10 m
)
 (067.978129)  can0  462   [4]  12 00 0A 00 ::
whereamiRawData(
    RawSpeed: 0.18 km/h,
    RawDistance: 10 m
)
 (067.978328)  can0  464   [8]  50 00 B6 02 E2 8C 7E 00 ::
whereamiCoords(
    Latitude: 45.482064 °,
    Longitude: 8.293602 °
)
 (068.907749)  can0  460   [4]  12 00 0A 00 ::
whereamiData(
    Speed: 0.18 km/h,
    Distance: 10 m
)
 (068.907970)  can0  462   [4]  12 00 0A 00 ::
whereamiRawData(
    RawSpeed: 0.18 km/h,
    RawDistance: 10 m
)
 (068.908176)  can0  464   [8]  50 00 B6 02 E3 8C 7E 00 ::
whereamiCoords(
    Latitude: 45.482064 °,
    Longitude: 8.293603 °
)
 (069.937487)  can0  460   [4]  00 00 0A 00 ::
whereamiData(
    Speed: 0.0 km/h,
    Distance: 10 m
)
 (069.937697)  can0  462   [4]  00 00 0A 00 ::
whereamiRawData(
    RawSpeed: 0.0 km/h,
    RawDistance: 10 m
)
 (069.937890)  can0  464   [8]  50 00 B6 02 E3 8C 7E 00 ::
whereamiCoords(
    Latitude: 45.482064 °,
    Longitude: 8.293603 °
)
 (070.969882)  can0  460   [4]  12 00 0A 00 ::
whereamiData(
    Speed: 0.18 km/h,
    Distance: 10 m
)
 (070.970103)  can0  462   [4]  12 00 0A 00 ::
whereamiRawData(
    RawSpeed: 0.18 km/h,
    RawDistance: 10 m
)
 (070.970298)  can0  464   [8]  50 00 B6 02 E3 8C 7E 00 ::
whereamiCoords(
    Latitude: 45.482064 °,
    Longitude: 8.293603 °
)
 (071.893767)  can0  460   [4]  12 00 0A 00 ::
whereamiData(
    Speed: 0.18 km/h,
    Distance: 10 m
)
 (071.893965)  can0  462   [4]  12 00 0A 00 ::
whereamiRawData(
    RawSpeed: 0.18 km/h,
    RawDistance: 10 m
)
 (071.894159)  can0  464   [8]  51 00 B6 02 E4 8C 7E 00 ::
whereamiCoords(
    Latitude: 45.482065 °,
    Longitude: 8.293604 °
)
 (072.923544)  can0  460   [4]  12 00 0A 00 ::
whereamiData(
    Speed: 0.18 km/h,
    Distance: 10 m
)
 (072.923763)  can0  462   [4]  12 00 0A 00 ::
whereamiRawData(
    RawSpeed: 0.18 km/h,
    RawDistance: 10 m
)
 (072.923961)  can0  464   [8]  51 00 B6 02 E4 8C 7E 00 ::
whereamiCoords(
    Latitude: 45.482065 °,
    Longitude: 8.293604 °
)
 (073.955839)  can0  460   [4]  12 00 0A 00 ::
whereamiData(
    Speed: 0.18 km/h,
    Distance: 10 m
)
 (073.956055)  can0  462   [4]  12 00 0A 00 ::
whereamiRawData(
    RawSpeed: 0.18 km/h,
    RawDistance: 10 m
)
 (073.956248)  can0  464   [8]  51 00 B6 02 E5 8C 7E 00 ::
whereamiCoords(
    Latitude: 45.482065 °,
    Longitude: 8.293605 °
)
 (074.891580)  can0  460   [4]  25 00 0A 00 ::
whereamiData(
    Speed: 0.37 km/h,
    Distance: 10 m
)
 (074.891807)  can0  462   [4]  25 00 0A 00 ::
whereamiRawData(
    RawSpeed: 0.37 km/h,
    RawDistance: 10 m
)
 (074.892002)  can0  464   [8]  52 00 B6 02 E6 8C 7E 00 ::
whereamiCoords(
    Latitude: 45.482065999999996 °,
    Longitude: 8.293606 °
)
 (075.923569)  can0  460   [4]  25 00 0A 00 ::
whereamiData(
    Speed: 0.37 km/h,
    Distance: 10 m
)
 (075.923761)  can0  462   [4]  25 00 0A 00 ::
whereamiRawData(
    RawSpeed: 0.37 km/h,
    RawDistance: 10 m
)
 (075.923952)  can0  464   [8]  52 00 B6 02 E7 8C 7E 00 ::
whereamiCoords(
    Latitude: 45.482065999999996 °,
    Longitude: 8.293607 °
)
 (076.955889)  can0  460   [4]  37 00 0A 00 ::
whereamiData(
    Speed: 0.55 km/h,
    Distance: 10 m
)
 (076.956102)  can0  462   [4]  37 00 0A 00 ::
whereamiRawData(
    RawSpeed: 0.55 km/h,
    RawDistance: 10 m
)
 (076.956295)  can0  464   [8]  53 00 B6 02 E8 8C 7E 00 ::
whereamiCoords(
    Latitude: 45.482067 °,
    Longitude: 8.293607999999999 °
)
 (077.883629)  can0  460   [4]  00 00 0A 00 ::
whereamiData(
    Speed: 0.0 km/h,
    Distance: 10 m
)
 (077.883856)  can0  462   [4]  00 00 0A 00 ::
whereamiRawData(
    RawSpeed: 0.0 km/h,
    RawDistance: 10 m
)
 (077.884049)  can0  464   [8]  53 00 B6 02 E8 8C 7E 00 ::
whereamiCoords(
    Latitude: 45.482067 °,
    Longitude: 8.293607999999999 °
)
 (078.913925)  can0  460   [4]  12 00 0B 00 ::
whereamiData(
    Speed: 0.18 km/h,
    Distance: 11 m
)
 (078.914147)  can0  462   [4]  12 00 0B 00 ::
whereamiRawData(
    RawSpeed: 0.18 km/h,
    RawDistance: 11 m
)
 (078.914351)  can0  464   [8]  53 00 B6 02 E9 8C 7E 00 ::
whereamiCoords(
    Latitude: 45.482067 °,
    Longitude: 8.293609 °
)
 (079.943676)  can0  460   [4]  12 00 0B 00 ::
whereamiData(
    Speed: 0.18 km/h,
    Distance: 11 m
)
 (079.943895)  can0  462   [4]  12 00 0B 00 ::
whereamiRawData(
    RawSpeed: 0.18 km/h,
    RawDistance: 11 m
)
 (079.944099)  can0  464   [8]  54 00 B6 02 E9 8C 7E 00 ::
whereamiCoords(
    Latitude: 45.482068 °,
    Longitude: 8.293609 °
)
 (080.973792)  can0  460   [4]  12 00 0B 00 ::
whereamiData(
    Speed: 0.18 km/h,
    Distance: 11 m
)
 (080.974013)  can0  462   [4]  12 00 0B 00 ::
whereamiRawData(
    RawSpeed: 0.18 km/h,
    RawDistance: 11 m
)
 (080.974208)  can0  464   [8]  54 00 B6 02 EA 8C 7E 00 ::
whereamiCoords(
    Latitude: 45.482068 °,
    Longitude: 8.29361 °
)
 (081.903717)  can0  460   [4]  25 00 0B 00 ::
whereamiData(
    Speed: 0.37 km/h,
    Distance: 11 m
)
 (081.903944)  can0  462   [4]  25 00 0B 00 ::
whereamiRawData(
    RawSpeed: 0.37 km/h,
    RawDistance: 11 m
)
 (081.904137)  can0  464   [8]  55 00 B6 02 EB 8C 7E 00 ::
whereamiCoords(
    Latitude: 45.482068999999996 °,
    Longitude: 8.293611 °
)
 (082.935713)  can0  460   [4]  25 00 0B 00 ::
whereamiData(
    Speed: 0.37 km/h,
    Distance: 11 m
)
 (082.935927)  can0  462   [4]  25 00 0B 00 ::
whereamiRawData(
    RawSpeed: 0.37 km/h,
    RawDistance: 11 m
)
 (082.936120)  can0  464   [8]  55 00 B6 02 EC 8C 7E 00 ::
whereamiCoords(
    Latitude: 45.482068999999996 °,
    Longitude: 8.293612 °
)
 (083.965745)  can0  460   [4]  00 00 0B 00 ::
whereamiData(
    Speed: 0.0 km/h,
    Distance: 11 m
)
 (083.965970)  can0  462   [4]  00 00 0B 00 ::
whereamiRawData(
    RawSpeed: 0.0 km/h,
    RawDistance: 11 m
)
 (083.966171)  can0  464   [8]  55 00 B6 02 EC 8C 7E 00 ::
whereamiCoords(
    Latitude: 45.482068999999996 °,
    Longitude: 8.293612 °
)
 (084.895737)  can0  460   [4]  00 00 0B 00 ::
whereamiData(
    Speed: 0.0 km/h,
    Distance: 11 m
)
 (084.895941)  can0  462   [4]  00 00 0B 00 ::
whereamiRawData(
    RawSpeed: 0.0 km/h,
    RawDistance: 11 m
)
 (084.896132)  can0  464   [8]  55 00 B6 02 EC 8C 7E 00 ::
whereamiCoords(
    Latitude: 45.482068999999996 °,
    Longitude: 8.293612 °
)
 (085.924038)  can0  460   [4]  12 00 0B 00 ::
whereamiData(
    Speed: 0.18 km/h,
    Distance: 11 m
)
 (085.924253)  can0  462   [4]  12 00 0B 00 ::
whereamiRawData(
    RawSpeed: 0.18 km/h,
    RawDistance: 11 m
)
 (085.924447)  can0  464   [8]  56 00 B6 02 ED 8C 7E 00 ::
whereamiCoords(
    Latitude: 45.48207 °,
    Longitude: 8.293612999999999 °
)
 (086.955782)  can0  460   [4]  00 00 0B 00 ::
whereamiData(
    Speed: 0.0 km/h,
    Distance: 11 m
)
 (086.955997)  can0  462   [4]  00 00 0B 00 ::
whereamiRawData(
    RawSpeed: 0.0 km/h,
    RawDistance: 11 m
)
 (086.956189)  can0  464   [8]  56 00 B6 02 ED 8C 7E 00 ::
whereamiCoords(
    Latitude: 45.48207 °,
    Longitude: 8.293612999999999 °
)
 (087.882063)  can0  460   [4]  00 00 0B 00 ::
whereamiData(
    Speed: 0.0 km/h,
    Distance: 11 m
)
 (087.882279)  can0  462   [4]  00 00 0B 00 ::
whereamiRawData(
    RawSpeed: 0.0 km/h,
    RawDistance: 11 m
)
 (087.882475)  can0  464   [8]  56 00 B6 02 ED 8C 7E 00 ::
whereamiCoords(
    Latitude: 45.48207 °,
    Longitude: 8.293612999999999 °
)
 (088.913910)  can0  460   [4]  00 00 0B 00 ::
whereamiData(
    Speed: 0.0 km/h,
    Distance: 11 m
)
 (088.914125)  can0  462   [4]  00 00 0B 00 ::
whereamiRawData(
    RawSpeed: 0.0 km/h,
    RawDistance: 11 m
)
 (088.914319)  can0  464   [8]  56 00 B6 02 ED 8C 7E 00 ::
whereamiCoords(
    Latitude: 45.48207 °,
    Longitude: 8.293612999999999 °
)
 (089.949932)  can0  460   [4]  00 00 0B 00 ::
whereamiData(
    Speed: 0.0 km/h,
    Distance: 11 m
)
 (089.950159)  can0  462   [4]  00 00 0B 00 ::
whereamiRawData(
    RawSpeed: 0.0 km/h,
    RawDistance: 11 m
)
 (089.950354)  can0  464   [8]  56 00 B6 02 ED 8C 7E 00 ::
whereamiCoords(
    Latitude: 45.48207 °,
    Longitude: 8.293612999999999 °
)
 (090.881951)  can0  460   [4]  00 00 0B 00 ::
whereamiData(
    Speed: 0.0 km/h,
    Distance: 11 m
)
 (090.882171)  can0  462   [4]  00 00 0B 00 ::
whereamiRawData(
    RawSpeed: 0.0 km/h,
    RawDistance: 11 m
)
 (090.882367)  can0  464   [8]  56 00 B6 02 ED 8C 7E 00 ::
whereamiCoords(
    Latitude: 45.48207 °,
    Longitude: 8.293612999999999 °
)
 (091.919902)  can0  460   [4]  12 00 0B 00 ::
whereamiData(
    Speed: 0.18 km/h,
    Distance: 11 m
)
 (091.920134)  can0  462   [4]  12 00 0B 00 ::
whereamiRawData(
    RawSpeed: 0.18 km/h,
    RawDistance: 11 m
)
 (091.920333)  can0  464   [8]  56 00 B6 02 EE 8C 7E 00 ::
whereamiCoords(
    Latitude: 45.48207 °,
    Longitude: 8.293614 °
)
 (092.958157)  can0  460   [4]  12 00 0B 00 ::
whereamiData(
    Speed: 0.18 km/h,
    Distance: 11 m
)
 (092.958367)  can0  462   [4]  12 00 0B 00 ::
whereamiRawData(
    RawSpeed: 0.18 km/h,
    RawDistance: 11 m
)
 (092.958559)  can0  464   [8]  56 00 B6 02 EE 8C 7E 00 ::
whereamiCoords(
    Latitude: 45.48207 °,
    Longitude: 8.293614 °
)
 (093.892184)  can0  460   [4]  12 00 0B 00 ::
whereamiData(
    Speed: 0.18 km/h,
    Distance: 11 m
)
 (093.892405)  can0  462   [4]  12 00 0B 00 ::
whereamiRawData(
    RawSpeed: 0.18 km/h,
    RawDistance: 11 m
)
 (093.892603)  can0  464   [8]  53 00 B6 02 E9 8C 7E 00 ::
whereamiCoords(
    Latitude: 45.482067 °,
    Longitude: 8.293609 °
)
 (094.938189)  can0  460   [4]  12 00 0B 00 ::
whereamiData(
    Speed: 0.18 km/h,
    Distance: 11 m
)
 (094.938401)  can0  462   [4]  12 00 0B 00 ::
whereamiRawData(
    RawSpeed: 0.18 km/h,
    RawDistance: 11 m
)
 (094.938595)  can0  464   [8]  53 00 B6 02 E6 8C 7E 00 ::
whereamiCoords(
    Latitude: 45.482067 °,
    Longitude: 8.293606 °
)
 (095.978052)  can0  460   [4]  12 00 0B 00 ::
whereamiData(
    Speed: 0.18 km/h,
    Distance: 11 m
)
 (095.978265)  can0  462   [4]  12 00 0B 00 ::
whereamiRawData(
    RawSpeed: 0.18 km/h,
    RawDistance: 11 m
)
 (095.978458)  can0  464   [8]  52 00 B6 02 E4 8C 7E 00 ::
whereamiCoords(
    Latitude: 45.482065999999996 °,
    Longitude: 8.293604 °
)
 (096.914226)  can0  460   [4]  25 00 0B 00 ::
whereamiData(
    Speed: 0.37 km/h,
    Distance: 11 m
)
 (096.914435)  can0  462   [4]  25 00 0B 00 ::
whereamiRawData(
    RawSpeed: 0.37 km/h,
    RawDistance: 11 m
)
 (096.914623)  can0  464   [8]  52 00 B6 02 E1 8C 7E 00 ::
whereamiCoords(
    Latitude: 45.482065999999996 °,
    Longitude: 8.293600999999999 °
)
 (097.956241)  can0  460   [4]  37 00 0B 00 ::
whereamiData(
    Speed: 0.55 km/h,
    Distance: 11 m
)
 (097.956459)  can0  462   [4]  37 00 0B 00 ::
whereamiRawData(
    RawSpeed: 0.55 km/h,
    RawDistance: 11 m
)
 (097.956653)  can0  464   [8]  52 00 B6 02 E0 8C 7E 00 ::
whereamiCoords(
    Latitude: 45.482065999999996 °,
    Longitude: 8.2936 °
)
 (098.894083)  can0  460   [4]  25 00 0B 00 ::
whereamiData(
    Speed: 0.37 km/h,
    Distance: 11 m
)
 (098.894306)  can0  462   [4]  25 00 0B 00 ::
whereamiRawData(
    RawSpeed: 0.37 km/h,
    RawDistance: 11 m
)
 (098.894509)  can0  464   [8]  52 00 B6 02 DF 8C 7E 00 ::
whereamiCoords(
    Latitude: 45.482065999999996 °,
    Longitude: 8.293599 °
)
 (099.934016)  can0  460   [4]  25 00 0C 00 ::
whereamiData(
    Speed: 0.37 km/h,
    Distance: 12 m
)
 (099.934234)  can0  462   [4]  25 00 0C 00 ::
whereamiRawData(
    RawSpeed: 0.37 km/h,
    RawDistance: 12 m
)
 (099.934429)  can0  464   [8]  53 00 B6 02 DD 8C 7E 00 ::
whereamiCoords(
    Latitude: 45.482067 °,
    Longitude: 8.293597 °
)
 (100.976044)  can0  460   [4]  12 00 0C 00 ::
whereamiData(
    Speed: 0.18 km/h,
    Distance: 12 m
)
 (100.976264)  can0  462   [4]  12 00 0C 00 ::
whereamiRawData(
    RawSpeed: 0.18 km/h,
    RawDistance: 12 m
)
 (100.976455)  can0  464   [8]  53 00 B6 02 DD 8C 7E 00 ::
whereamiCoords(
    Latitude: 45.482067 °,
    Longitude: 8.293597 °
)
 (101.908312)  can0  460   [4]  25 00 0C 00 ::
whereamiData(
    Speed: 0.37 km/h,
    Distance: 12 m
)
 (101.908528)  can0  462   [4]  25 00 0C 00 ::
whereamiRawData(
    RawSpeed: 0.37 km/h,
    RawDistance: 12 m
)
 (101.908720)  can0  464   [8]  54 00 B6 02 DE 8C 7E 00 ::
whereamiCoords(
    Latitude: 45.482068 °,
    Longitude: 8.293598 °
)
 (102.950328)  can0  460   [4]  25 00 0C 00 ::
whereamiData(
    Speed: 0.37 km/h,
    Distance: 12 m
)
 (102.950542)  can0  462   [4]  25 00 0C 00 ::
whereamiRawData(
    RawSpeed: 0.37 km/h,
    RawDistance: 12 m
)
 (102.950749)  can0  464   [8]  54 00 B6 02 DF 8C 7E 00 ::
whereamiCoords(
    Latitude: 45.482068 °,
    Longitude: 8.293599 °
)
 (103.982352)  can0  460   [4]  25 00 0C 00 ::
whereamiData(
    Speed: 0.37 km/h,
    Distance: 12 m
)
 (103.982571)  can0  462   [4]  25 00 0C 00 ::
whereamiRawData(
    RawSpeed: 0.37 km/h,
    RawDistance: 12 m
)
 (103.982765)  can0  464   [8]  54 00 B6 02 DF 8C 7E 00 ::
whereamiCoords(
    Latitude: 45.482068 °,
    Longitude: 8.293599 °
)
 (104.914359)  can0  460   [4]  25 00 0C 00 ::
whereamiData(
    Speed: 0.37 km/h,
    Distance: 12 m
)
 (104.914571)  can0  462   [4]  25 00 0C 00 ::
whereamiRawData(
    RawSpeed: 0.37 km/h,
    RawDistance: 12 m
)
 (104.914764)  can0  464   [8]  54 00 B6 02 DE 8C 7E 00 ::
whereamiCoords(
    Latitude: 45.482068 °,
    Longitude: 8.293598 °
)
 (105.954373)  can0  460   [4]  25 00 0C 00 ::
whereamiData(
    Speed: 0.37 km/h,
    Distance: 12 m
)
 (105.954584)  can0  462   [4]  25 00 0C 00 ::
whereamiRawData(
    RawSpeed: 0.37 km/h,
    RawDistance: 12 m
)
 (105.954784)  can0  464   [8]  54 00 B6 02 DD 8C 7E 00 ::
whereamiCoords(
    Latitude: 45.482068 °,
    Longitude: 8.293597 °
)
 (106.886390)  can0  460   [4]  12 00 0C 00 ::
whereamiData(
    Speed: 0.18 km/h,
    Distance: 12 m
)
 (106.886608)  can0  462   [4]  12 00 0C 00 ::
whereamiRawData(
    RawSpeed: 0.18 km/h,
    RawDistance: 12 m
)
 (106.886809)  can0  464   [8]  54 00 B6 02 DB 8C 7E 00 ::
whereamiCoords(
    Latitude: 45.482068 °,
    Longitude: 8.293595 °
)
 (107.920117)  can0  460   [4]  25 00 0C 00 ::
whereamiData(
    Speed: 0.37 km/h,
    Distance: 12 m
)
 (107.920311)  can0  462   [4]  25 00 0C 00 ::
whereamiRawData(
    RawSpeed: 0.37 km/h,
    RawDistance: 12 m
)
 (107.920501)  can0  464   [8]  55 00 B6 02 DA 8C 7E 00 ::
whereamiCoords(
    Latitude: 45.482068999999996 °,
    Longitude: 8.293593999999999 °
)
 (108.954435)  can0  460   [4]  25 00 0C 00 ::
whereamiData(
    Speed: 0.37 km/h,
    Distance: 12 m
)
 (108.954655)  can0  462   [4]  25 00 0C 00 ::
whereamiRawData(
    RawSpeed: 0.37 km/h,
    RawDistance: 12 m
)
 (108.954852)  can0  464   [8]  57 00 B6 02 D7 8C 7E 00 ::
whereamiCoords(
    Latitude: 45.482071 °,
    Longitude: 8.293591 °
)
 (109.886463)  can0  460   [4]  25 00 0C 00 ::
whereamiData(
    Speed: 0.37 km/h,
    Distance: 12 m
)
 (109.886698)  can0  462   [4]  25 00 0C 00 ::
whereamiRawData(
    RawSpeed: 0.37 km/h,
    RawDistance: 12 m
)
 (109.886894)  can0  464   [8]  57 00 B6 02 D5 8C 7E 00 ::
whereamiCoords(
    Latitude: 45.482071 °,
    Longitude: 8.293588999999999 °
)
 (110.922190)  can0  460   [4]  25 00 0D 00 ::
whereamiData(
    Speed: 0.37 km/h,
    Distance: 13 m
)
 (110.922403)  can0  462   [4]  25 00 0D 00 ::
whereamiRawData(
    RawSpeed: 0.37 km/h,
    RawDistance: 13 m
)
 (110.922596)  can0  464   [8]  58 00 B6 02 D3 8C 7E 00 ::
whereamiCoords(
    Latitude: 45.482071999999995 °,
    Longitude: 8.293587 °
)
 (111.954212)  can0  460   [4]  25 00 0D 00 ::
whereamiData(
    Speed: 0.37 km/h,
    Distance: 13 m
)
 (111.954424)  can0  462   [4]  25 00 0D 00 ::
whereamiRawData(
    RawSpeed: 0.37 km/h,
    RawDistance: 13 m
)
 (111.954627)  can0  464   [8]  59 00 B6 02 D1 8C 7E 00 ::
whereamiCoords(
    Latitude: 45.482073 °,
    Longitude: 8.293585 °
)
 (112.882333)  can0  460   [4]  12 00 0D 00 ::
whereamiData(
    Speed: 0.18 km/h,
    Distance: 13 m
)
 (112.882555)  can0  462   [4]  12 00 0D 00 ::
whereamiRawData(
    RawSpeed: 0.18 km/h,
    RawDistance: 13 m
)
 (112.882749)  can0  464   [8]  5B 00 B6 02 CE 8C 7E 00 ::
whereamiCoords(
    Latitude: 45.482074999999995 °,
    Longitude: 8.293581999999999 °
)
 (113.912511)  can0  460   [4]  25 00 0D 00 ::
whereamiData(
    Speed: 0.37 km/h,
    Distance: 13 m
)
 (113.912728)  can0  462   [4]  25 00 0D 00 ::
whereamiRawData(
    RawSpeed: 0.37 km/h,
    RawDistance: 13 m
)
 (113.912924)  can0  464   [8]  5C 00 B6 02 CC 8C 7E 00 ::
whereamiCoords(
    Latitude: 45.482076 °,
    Longitude: 8.29358 °
)
 (114.946533)  can0  460   [4]  25 00 0D 00 ::
whereamiData(
    Speed: 0.37 km/h,
    Distance: 13 m
)
 (114.946749)  can0  462   [4]  25 00 0D 00 ::
whereamiRawData(
    RawSpeed: 0.37 km/h,
    RawDistance: 13 m
)
 (114.946945)  can0  464   [8]  5D 00 B6 02 CA 8C 7E 00 ::
whereamiCoords(
    Latitude: 45.482077 °,
    Longitude: 8.293578 °
)
 (115.974554)  can0  460   [4]  25 00 0D 00 ::
whereamiData(
    Speed: 0.37 km/h,
    Distance: 13 m
)
 (115.974777)  can0  462   [4]  25 00 0D 00 ::
whereamiRawData(
    RawSpeed: 0.37 km/h,
    RawDistance: 13 m
)
 (115.974970)  can0  464   [8]  5E 00 B6 02 C8 8C 7E 00 ::
whereamiCoords(
    Latitude: 45.482078 °,
    Longitude: 8.293576 °
)
 (116.902562)  can0  460   [4]  12 00 0D 00 ::
whereamiData(
    Speed: 0.18 km/h,
    Distance: 13 m
)
 (116.902776)  can0  462   [4]  12 00 0D 00 ::
whereamiRawData(
    RawSpeed: 0.18 km/h,
    RawDistance: 13 m
)
 (116.902969)  can0  464   [8]  5F 00 B6 02 C7 8C 7E 00 ::
whereamiCoords(
    Latitude: 45.482079 °,
    Longitude: 8.293574999999999 °
)
 (117.936315)  can0  460   [4]  12 00 0D 00 ::
whereamiData(
    Speed: 0.18 km/h,
    Distance: 13 m
)
 (117.936524)  can0  462   [4]  12 00 0D 00 ::
whereamiRawData(
    RawSpeed: 0.18 km/h,
    RawDistance: 13 m
)
 (117.936714)  can0  464   [8]  61 00 B6 02 C5 8C 7E 00 ::
whereamiCoords(
    Latitude: 45.482081 °,
    Longitude: 8.293573 °
)
 (118.970428)  can0  460   [4]  12 00 0D 00 ::
whereamiData(
    Speed: 0.18 km/h,
    Distance: 13 m
)
 (118.970650)  can0  462   [4]  12 00 0D 00 ::
whereamiRawData(
    RawSpeed: 0.18 km/h,
    RawDistance: 13 m
)
 (118.970846)  can0  464   [8]  63 00 B6 02 C5 8C 7E 00 ::
whereamiCoords(
    Latitude: 45.482082999999996 °,
    Longitude: 8.293573 °
)
 (119.902608)  can0  460   [4]  12 00 0D 00 ::
whereamiData(
    Speed: 0.18 km/h,
    Distance: 13 m
)
 (119.902824)  can0  462   [4]  12 00 0D 00 ::
whereamiRawData(
    RawSpeed: 0.18 km/h,
    RawDistance: 13 m
)
 (119.903016)  can0  464   [8]  65 00 B6 02 C5 8C 7E 00 ::
whereamiCoords(
    Latitude: 45.482085 °,
    Longitude: 8.293573 °
)
 (120.934630)  can0  460   [4]  12 00 0D 00 ::
whereamiData(
    Speed: 0.18 km/h,
    Distance: 13 m
)
 (120.934846)  can0  462   [4]  12 00 0D 00 ::
whereamiRawData(
    RawSpeed: 0.18 km/h,
    RawDistance: 13 m
)
 (120.935042)  can0  464   [8]  65 00 B6 02 C5 8C 7E 00 ::
whereamiCoords(
    Latitude: 45.482085 °,
    Longitude: 8.293573 °
)
 (121.966647)  can0  460   [4]  12 00 0D 00 ::
whereamiData(
    Speed: 0.18 km/h,
    Distance: 13 m
)
 (121.966864)  can0  462   [4]  12 00 0D 00 ::
whereamiRawData(
    RawSpeed: 0.18 km/h,
    RawDistance: 13 m
)
 (121.967069)  can0  464   [8]  66 00 B6 02 C6 8C 7E 00 ::
whereamiCoords(
    Latitude: 45.482085999999995 °,
    Longitude: 8.293574 °
)
 (122.900680)  can0  460   [4]  12 00 0D 00 ::
whereamiData(
    Speed: 0.18 km/h,
    Distance: 13 m
)
 (122.900897)  can0  462   [4]  12 00 0D 00 ::
whereamiRawData(
    RawSpeed: 0.18 km/h,
    RawDistance: 13 m
)
 (122.901091)  can0  464   [8]  66 00 B6 02 C7 8C 7E 00 ::
whereamiCoords(
    Latitude: 45.482085999999995 °,
    Longitude: 8.293574999999999 °
)
 (123.934672)  can0  460   [4]  12 00 0D 00 ::
whereamiData(
    Speed: 0.18 km/h,
    Distance: 13 m
)
 (123.934885)  can0  462   [4]  12 00 0D 00 ::
whereamiRawData(
    RawSpeed: 0.18 km/h,
    RawDistance: 13 m
)
 (123.935077)  can0  464   [8]  66 00 B6 02 C6 8C 7E 00 ::
whereamiCoords(
    Latitude: 45.482085999999995 °,
    Longitude: 8.293574 °
)
 (124.964793)  can0  460   [4]  12 00 0E 00 ::
whereamiData(
    Speed: 0.18 km/h,
    Distance: 14 m
)
 (124.965007)  can0  462   [4]  12 00 0E 00 ::
whereamiRawData(
    RawSpeed: 0.18 km/h,
    RawDistance: 14 m
)
 (124.965201)  can0  464   [8]  66 00 B6 02 C6 8C 7E 00 ::
whereamiCoords(
    Latitude: 45.482085999999995 °,
    Longitude: 8.293574 °
)
 (125.894725)  can0  460   [4]  12 00 0E 00 ::
whereamiData(
    Speed: 0.18 km/h,
    Distance: 14 m
)
 (125.894948)  can0  462   [4]  12 00 0E 00 ::
whereamiRawData(
    RawSpeed: 0.18 km/h,
    RawDistance: 14 m
)
 (125.895143)  can0  464   [8]  66 00 B6 02 C6 8C 7E 00 ::
whereamiCoords(
    Latitude: 45.482085999999995 °,
    Longitude: 8.293574 °
)
 (126.932465)  can0  460   [4]  00 00 0E 00 ::
whereamiData(
    Speed: 0.0 km/h,
    Distance: 14 m
)
 (126.932689)  can0  462   [4]  00 00 0E 00 ::
whereamiRawData(
    RawSpeed: 0.0 km/h,
    RawDistance: 14 m
)
 (126.932887)  can0  464   [8]  66 00 B6 02 C5 8C 7E 00 ::
whereamiCoords(
    Latitude: 45.482085999999995 °,
    Longitude: 8.293573 °
)
 (127.966477)  can0  460   [4]  00 00 0E 00 ::
whereamiData(
    Speed: 0.0 km/h,
    Distance: 14 m
)
 (127.966694)  can0  462   [4]  00 00 0E 00 ::
whereamiRawData(
    RawSpeed: 0.0 km/h,
    RawDistance: 14 m
)
 (127.966889)  can0  464   [8]  65 00 B6 02 C5 8C 7E 00 ::
whereamiCoords(
    Latitude: 45.482085 °,
    Longitude: 8.293573 °
)
 (128.898746)  can0  460   [4]  25 00 0E 00 ::
whereamiData(
    Speed: 0.37 km/h,
    Distance: 14 m
)
 (128.898948)  can0  462   [4]  25 00 0E 00 ::
whereamiRawData(
    RawSpeed: 0.37 km/h,
    RawDistance: 14 m
)
 (128.899139)  can0  464   [8]  66 00 B6 02 C5 8C 7E 00 ::
whereamiCoords(
    Latitude: 45.482085999999995 °,
    Longitude: 8.293573 °
)
 (129.936513)  can0  460   [4]  37 00 0E 00 ::
whereamiData(
    Speed: 0.55 km/h,
    Distance: 14 m
)
 (129.936728)  can0  462   [4]  37 00 0E 00 ::
whereamiRawData(
    RawSpeed: 0.55 km/h,
    RawDistance: 14 m
)
 (129.936924)  can0  464   [8]  66 00 B6 02 C6 8C 7E 00 ::
whereamiCoords(
    Latitude: 45.482085999999995 °,
    Longitude: 8.293574 °
)
 (130.968529)  can0  460   [4]  37 00 0E 00 ::
whereamiData(
    Speed: 0.55 km/h,
    Distance: 14 m
)
 (130.968742)  can0  462   [4]  37 00 0E 00 ::
whereamiRawData(
    RawSpeed: 0.55 km/h,
    RawDistance: 14 m
)
 (130.968935)  can0  464   [8]  66 00 B6 02 C7 8C 7E 00 ::
whereamiCoords(
    Latitude: 45.482085999999995 °,
    Longitude: 8.293574999999999 °
)
 (131.898822)  can0  460   [4]  37 00 0E 00 ::
whereamiData(
    Speed: 0.55 km/h,
    Distance: 14 m
)
 (131.899046)  can0  462   [4]  37 00 0E 00 ::
whereamiRawData(
    RawSpeed: 0.55 km/h,
    RawDistance: 14 m
)
 (131.899245)  can0  464   [8]  66 00 B6 02 C7 8C 7E 00 ::
whereamiCoords(
    Latitude: 45.482085999999995 °,
    Longitude: 8.293574999999999 °
)
 (132.934553)  can0  460   [4]  25 00 0E 00 ::
whereamiData(
    Speed: 0.37 km/h,
    Distance: 14 m
)
 (132.934766)  can0  462   [4]  25 00 0E 00 ::
whereamiRawData(
    RawSpeed: 0.37 km/h,
    RawDistance: 14 m
)
 (132.934970)  can0  464   [8]  66 00 B6 02 C7 8C 7E 00 ::
whereamiCoords(
    Latitude: 45.482085999999995 °,
    Longitude: 8.293574999999999 °
)
 (133.964856)  can0  460   [4]  37 00 0E 00 ::
whereamiData(
    Speed: 0.55 km/h,
    Distance: 14 m
)
 (133.965073)  can0  462   [4]  37 00 0E 00 ::
whereamiRawData(
    RawSpeed: 0.55 km/h,
    RawDistance: 14 m
)
 (133.965262)  can0  464   [8]  67 00 B6 02 C7 8C 7E 00 ::
whereamiCoords(
    Latitude: 45.482087 °,
    Longitude: 8.293574999999999 °
)
 (134.894870)  can0  460   [4]  37 00 0F 00 ::
whereamiData(
    Speed: 0.55 km/h,
    Distance: 15 m
)
 (134.895091)  can0  462   [4]  37 00 0F 00 ::
whereamiRawData(
    RawSpeed: 0.55 km/h,
    RawDistance: 15 m
)
 (134.895286)  can0  464   [8]  67 00 B6 02 C8 8C 7E 00 ::
whereamiCoords(
    Latitude: 45.482087 °,
    Longitude: 8.293576 °
)
 (135.930627)  can0  460   [4]  37 00 0F 00 ::
whereamiData(
    Speed: 0.55 km/h,
    Distance: 15 m
)
 (135.930860)  can0  462   [4]  37 00 0F 00 ::
whereamiRawData(
    RawSpeed: 0.55 km/h,
    RawDistance: 15 m
)
 (135.931068)  can0  464   [8]  67 00 B6 02 C8 8C 7E 00 ::
whereamiCoords(
    Latitude: 45.482087 °,
    Longitude: 8.293576 °
)
 (136.968640)  can0  460   [4]  37 00 0F 00 ::
whereamiData(
    Speed: 0.55 km/h,
    Distance: 15 m
)
 (136.968869)  can0  462   [4]  37 00 0F 00 ::
whereamiRawData(
    RawSpeed: 0.55 km/h,
    RawDistance: 15 m
)
 (136.969065)  can0  464   [8]  67 00 B6 02 C8 8C 7E 00 ::
whereamiCoords(
    Latitude: 45.482087 °,
    Longitude: 8.293576 °
)
 (137.898907)  can0  460   [4]  37 00 0F 00 ::
whereamiData(
    Speed: 0.55 km/h,
    Distance: 15 m
)
 (137.899124)  can0  462   [4]  37 00 0F 00 ::
whereamiRawData(
    RawSpeed: 0.55 km/h,
    RawDistance: 15 m
)
 (137.899324)  can0  464   [8]  67 00 B6 02 C7 8C 7E 00 ::
whereamiCoords(
    Latitude: 45.482087 °,
    Longitude: 8.293574999999999 °
)
 (138.934648)  can0  460   [4]  37 00 0F 00 ::
whereamiData(
    Speed: 0.55 km/h,
    Distance: 15 m
)
 (138.934851)  can0  462   [4]  37 00 0F 00 ::
whereamiRawData(
    RawSpeed: 0.55 km/h,
    RawDistance: 15 m
)
 (138.935045)  can0  464   [8]  67 00 B6 02 C7 8C 7E 00 ::
whereamiCoords(
    Latitude: 45.482087 °,
    Longitude: 8.293574999999999 °
)
 (139.969052)  can0  460   [4]  25 00 0F 00 ::
whereamiData(
    Speed: 0.37 km/h,
    Distance: 15 m
)
 (139.969272)  can0  462   [4]  25 00 0F 00 ::
whereamiRawData(
    RawSpeed: 0.37 km/h,
    RawDistance: 15 m
)
 (139.969466)  can0  464   [8]  67 00 B6 02 C7 8C 7E 00 ::
whereamiCoords(
    Latitude: 45.482087 °,
    Longitude: 8.293574999999999 °
)
 (140.896975)  can0  460   [4]  25 00 0F 00 ::
whereamiData(
    Speed: 0.37 km/h,
    Distance: 15 m
)
 (140.897199)  can0  462   [4]  25 00 0F 00 ::
whereamiRawData(
    RawSpeed: 0.37 km/h,
    RawDistance: 15 m
)
 (140.897392)  can0  464   [8]  66 00 B6 02 C7 8C 7E 00 ::
whereamiCoords(
    Latitude: 45.482085999999995 °,
    Longitude: 8.293574999999999 °
)
 (141.932712)  can0  460   [4]  37 00 0F 00 ::
whereamiData(
    Speed: 0.55 km/h,
    Distance: 15 m
)
 (141.932926)  can0  462   [4]  37 00 0F 00 ::
whereamiRawData(
    RawSpeed: 0.55 km/h,
    RawDistance: 15 m
)
 (141.933117)  can0  464   [8]  67 00 B6 02 C7 8C 7E 00 ::
whereamiCoords(
    Latitude: 45.482087 °,
    Longitude: 8.293574999999999 °
)
 (142.964993)  can0  460   [4]  12 00 10 00 ::
whereamiData(
    Speed: 0.18 km/h,
    Distance: 16 m
)
 (142.965197)  can0  462   [4]  12 00 10 00 ::
whereamiRawData(
    RawSpeed: 0.18 km/h,
    RawDistance: 16 m
)
 (142.965387)  can0  464   [8]  66 00 B6 02 C6 8C 7E 00 ::
whereamiCoords(
    Latitude: 45.482085999999995 °,
    Longitude: 8.293574 °
)
 (143.894839)  can0  460   [4]  12 00 10 00 ::
whereamiData(
    Speed: 0.18 km/h,
    Distance: 16 m
)
 (143.895053)  can0  462   [4]  12 00 10 00 ::
whereamiRawData(
    RawSpeed: 0.18 km/h,
    RawDistance: 16 m
)
 (143.895246)  can0  464   [8]  66 00 B6 02 C6 8C 7E 00 ::
whereamiCoords(
    Latitude: 45.482085999999995 °,
    Longitude: 8.293574 °
)
 (144.929039)  can0  460   [4]  12 00 10 00 ::
whereamiData(
    Speed: 0.18 km/h,
    Distance: 16 m
)
 (144.929256)  can0  462   [4]  12 00 10 00 ::
whereamiRawData(
    RawSpeed: 0.18 km/h,
    RawDistance: 16 m
)
 (144.929447)  can0  464   [8]  66 00 B6 02 C6 8C 7E 00 ::
whereamiCoords(
    Latitude: 45.482085999999995 °,
    Longitude: 8.293574 °
)
 (145.962796)  can0  460   [4]  12 00 10 00 ::
whereamiData(
    Speed: 0.18 km/h,
    Distance: 16 m
)
 (145.963022)  can0  462   [4]  12 00 10 00 ::
whereamiRawData(
    RawSpeed: 0.18 km/h,
    RawDistance: 16 m
)
 (145.963215)  can0  464   [8]  66 00 B6 02 C5 8C 7E 00 ::
whereamiCoords(
    Latitude: 45.482085999999995 °,
    Longitude: 8.293573 °
)
 (146.894906)  can0  460   [4]  12 00 10 00 ::
whereamiData(
    Speed: 0.18 km/h,
    Distance: 16 m
)
 (146.895134)  can0  462   [4]  12 00 10 00 ::
whereamiRawData(
    RawSpeed: 0.18 km/h,
    RawDistance: 16 m
)
 (146.895329)  can0  464   [8]  66 00 B6 02 C5 8C 7E 00 ::
whereamiCoords(
    Latitude: 45.482085999999995 °,
    Longitude: 8.293573 °
)
 (147.930817)  can0  460   [4]  12 00 10 00 ::
whereamiData(
    Speed: 0.18 km/h,
    Distance: 16 m
)
 (147.931035)  can0  462   [4]  12 00 10 00 ::
whereamiRawData(
    RawSpeed: 0.18 km/h,
    RawDistance: 16 m
)
 (147.931227)  can0  464   [8]  66 00 B6 02 C5 8C 7E 00 ::
whereamiCoords(
    Latitude: 45.482085999999995 °,
    Longitude: 8.293573 °
)
 (148.966935)  can0  460   [4]  12 00 10 00 ::
whereamiData(
    Speed: 0.18 km/h,
    Distance: 16 m
)
 (148.967150)  can0  462   [4]  12 00 10 00 ::
whereamiRawData(
    RawSpeed: 0.18 km/h,
    RawDistance: 16 m
)
 (148.967357)  can0  464   [8]  66 00 B6 02 C5 8C 7E 00 ::
whereamiCoords(
    Latitude: 45.482085999999995 °,
    Longitude: 8.293573 °
)
 (149.898845)  can0  460   [4]  12 00 10 00 ::
whereamiData(
    Speed: 0.18 km/h,
    Distance: 16 m
)
 (149.899060)  can0  462   [4]  12 00 10 00 ::
whereamiRawData(
    RawSpeed: 0.18 km/h,
    RawDistance: 16 m
)
 (149.899251)  can0  464   [8]  66 00 B6 02 C5 8C 7E 00 ::
whereamiCoords(
    Latitude: 45.482085999999995 °,
    Longitude: 8.293573 °
)
 (150.933140)  can0  460   [4]  12 00 10 00 ::
whereamiData(
    Speed: 0.18 km/h,
    Distance: 16 m
)
 (150.933377)  can0  462   [4]  12 00 10 00 ::
whereamiRawData(
    RawSpeed: 0.18 km/h,
    RawDistance: 16 m
)
 (150.933578)  can0  464   [8]  66 00 B6 02 C6 8C 7E 00 ::
whereamiCoords(
    Latitude: 45.482085999999995 °,
    Longitude: 8.293574 °
)
 (151.968894)  can0  460   [4]  12 00 10 00 ::
whereamiData(
    Speed: 0.18 km/h,
    Distance: 16 m
)
 (151.969121)  can0  462   [4]  12 00 10 00 ::
whereamiRawData(
    RawSpeed: 0.18 km/h,
    RawDistance: 16 m
)
 (151.969315)  can0  464   [8]  66 00 B6 02 C6 8C 7E 00 ::
whereamiCoords(
    Latitude: 45.482085999999995 °,
    Longitude: 8.293574 °
)
 (152.900906)  can0  460   [4]  12 00 10 00 ::
whereamiData(
    Speed: 0.18 km/h,
    Distance: 16 m
)
 (152.901135)  can0  462   [4]  12 00 10 00 ::
whereamiRawData(
    RawSpeed: 0.18 km/h,
    RawDistance: 16 m
)
 (152.901326)  can0  464   [8]  66 00 B6 02 C6 8C 7E 00 ::
whereamiCoords(
    Latitude: 45.482085999999995 °,
    Longitude: 8.293574 °
)
 (153.932914)  can0  460   [4]  25 00 10 00 ::
whereamiData(
    Speed: 0.37 km/h,
    Distance: 16 m
)
 (153.933134)  can0  462   [4]  25 00 10 00 ::
whereamiRawData(
    RawSpeed: 0.37 km/h,
    RawDistance: 16 m
)
 (153.933330)  can0  464   [8]  66 00 B6 02 C6 8C 7E 00 ::
whereamiCoords(
    Latitude: 45.482085999999995 °,
    Longitude: 8.293574 °
)
 (154.967008)  can0  460   [4]  25 00 10 00 ::
whereamiData(
    Speed: 0.37 km/h,
    Distance: 16 m
)
 (154.967214)  can0  462   [4]  25 00 10 00 ::
whereamiRawData(
    RawSpeed: 0.37 km/h,
    RawDistance: 16 m
)
 (154.967408)  can0  464   [8]  66 00 B6 02 C6 8C 7E 00 ::
whereamiCoords(
    Latitude: 45.482085999999995 °,
    Longitude: 8.293574 °
)
 (155.899241)  can0  460   [4]  12 00 10 00 ::
whereamiData(
    Speed: 0.18 km/h,
    Distance: 16 m
)
 (155.899466)  can0  462   [4]  12 00 10 00 ::
whereamiRawData(
    RawSpeed: 0.18 km/h,
    RawDistance: 16 m
)
 (155.899668)  can0  464   [8]  66 00 B6 02 C6 8C 7E 00 ::
whereamiCoords(
    Latitude: 45.482085999999995 °,
    Longitude: 8.293574 °
)
 (156.934974)  can0  460   [4]  12 00 10 00 ::
whereamiData(
    Speed: 0.18 km/h,
    Distance: 16 m
)
 (156.935200)  can0  462   [4]  12 00 10 00 ::
whereamiRawData(
    RawSpeed: 0.18 km/h,
    RawDistance: 16 m
)
 (156.935394)  can0  464   [8]  66 00 B6 02 C5 8C 7E 00 ::
whereamiCoords(
    Latitude: 45.482085999999995 °,
    Longitude: 8.293573 °
)
 (157.971072)  can0  460   [4]  00 00 10 00 ::
whereamiData(
    Speed: 0.0 km/h,
    Distance: 16 m
)
 (157.971298)  can0  462   [4]  00 00 10 00 ::
whereamiRawData(
    RawSpeed: 0.0 km/h,
    RawDistance: 16 m
)
 (157.971491)  can0  464   [8]  65 00 B6 02 C5 8C 7E 00 ::
whereamiCoords(
    Latitude: 45.482085 °,
    Longitude: 8.293573 °
)
 (158.901000)  can0  460   [4]  00 00 10 00 ::
whereamiData(
    Speed: 0.0 km/h,
    Distance: 16 m
)
 (158.901219)  can0  462   [4]  00 00 10 00 ::
whereamiRawData(
    RawSpeed: 0.0 km/h,
    RawDistance: 16 m
)
 (158.901426)  can0  464   [8]  65 00 B6 02 C5 8C 7E 00 ::
whereamiCoords(
    Latitude: 45.482085 °,
    Longitude: 8.293573 °
)
 (159.935017)  can0  460   [4]  00 00 10 00 ::
whereamiData(
    Speed: 0.0 km/h,
    Distance: 16 m
)
 (159.935234)  can0  462   [4]  00 00 10 00 ::
whereamiRawData(
    RawSpeed: 0.0 km/h,
    RawDistance: 16 m
)
 (159.935432)  can0  464   [8]  65 00 B6 02 C4 8C 7E 00 ::
whereamiCoords(
    Latitude: 45.482085 °,
    Longitude: 8.293572 °
)
 (160.971020)  can0  460   [4]  00 00 10 00 ::
whereamiData(
    Speed: 0.0 km/h,
    Distance: 16 m
)
 (160.971240)  can0  462   [4]  00 00 10 00 ::
whereamiRawData(
    RawSpeed: 0.0 km/h,
    RawDistance: 16 m
)
 (160.971440)  can0  464   [8]  65 00 B6 02 C4 8C 7E 00 ::
whereamiCoords(
    Latitude: 45.482085 °,
    Longitude: 8.293572 °
)
 (161.899053)  can0  460   [4]  00 00 10 00 ::
whereamiData(
    Speed: 0.0 km/h,
    Distance: 16 m
)
 (161.899281)  can0  462   [4]  00 00 10 00 ::
whereamiRawData(
    RawSpeed: 0.0 km/h,
    RawDistance: 16 m
)
 (161.899472)  can0  464   [8]  65 00 B6 02 C4 8C 7E 00 ::
whereamiCoords(
    Latitude: 45.482085 °,
    Longitude: 8.293572 °
)
 (162.937171)  can0  460   [4]  00 00 10 00 ::
whereamiData(
    Speed: 0.0 km/h,
    Distance: 16 m
)
 (162.937396)  can0  462   [4]  00 00 10 00 ::
whereamiRawData(
    RawSpeed: 0.0 km/h,
    RawDistance: 16 m
)
 (162.937591)  can0  464   [8]  65 00 B6 02 C4 8C 7E 00 ::
whereamiCoords(
    Latitude: 45.482085 °,
    Longitude: 8.293572 °
)
 (163.971088)  can0  460   [4]  00 00 10 00 ::
whereamiData(
    Speed: 0.0 km/h,
    Distance: 16 m
)
 (163.971319)  can0  462   [4]  00 00 10 00 ::
whereamiRawData(
    RawSpeed: 0.0 km/h,
    RawDistance: 16 m
)
 (163.971515)  can0  464   [8]  67 00 B6 02 C6 8C 7E 00 ::
whereamiCoords(
    Latitude: 45.482087 °,
    Longitude: 8.293574 °
)
 (164.901184)  can0  460   [4]  00 00 10 00 ::
whereamiData(
    Speed: 0.0 km/h,
    Distance: 16 m
)
 (164.901411)  can0  462   [4]  00 00 10 00 ::
whereamiRawData(
    RawSpeed: 0.0 km/h,
    RawDistance: 16 m
)
 (164.901604)  can0  464   [8]  67 00 B6 02 C6 8C 7E 00 ::
whereamiCoords(
    Latitude: 45.482087 °,
    Longitude: 8.293574 °
)
 (165.939385)  can0  460   [4]  00 00 10 00 ::
whereamiData(
    Speed: 0.0 km/h,
    Distance: 16 m
)
 (165.939604)  can0  462   [4]  00 00 10 00 ::
whereamiRawData(
    RawSpeed: 0.0 km/h,
    RawDistance: 16 m
)
 (165.939820)  can0  464   [8]  68 00 B6 02 C7 8C 7E 00 ::
whereamiCoords(
    Latitude: 45.482088 °,
    Longitude: 8.293574999999999 °
)
 (166.977113)  can0  460   [4]  00 00 10 00 ::
whereamiData(
    Speed: 0.0 km/h,
    Distance: 16 m
)
 (166.977311)  can0  462   [4]  00 00 10 00 ::
whereamiRawData(
    RawSpeed: 0.0 km/h,
    RawDistance: 16 m
)
 (166.977507)  can0  464   [8]  68 00 B6 02 C7 8C 7E 00 ::
whereamiCoords(
    Latitude: 45.482088 °,
    Longitude: 8.293574999999999 °
)
 (167.907228)  can0  460   [4]  00 00 10 00 ::
whereamiData(
    Speed: 0.0 km/h,
    Distance: 16 m
)
 (167.907441)  can0  462   [4]  00 00 10 00 ::
whereamiRawData(
    RawSpeed: 0.0 km/h,
    RawDistance: 16 m
)
 (167.907633)  can0  464   [8]  68 00 B6 02 C7 8C 7E 00 ::
whereamiCoords(
    Latitude: 45.482088 °,
    Longitude: 8.293574999999999 °
)
 (168.941244)  can0  460   [4]  00 00 10 00 ::
whereamiData(
    Speed: 0.0 km/h,
    Distance: 16 m
)
 (168.941459)  can0  462   [4]  00 00 10 00 ::
whereamiRawData(
    RawSpeed: 0.0 km/h,
    RawDistance: 16 m
)
 (168.941652)  can0  464   [8]  68 00 B6 02 C7 8C 7E 00 ::
whereamiCoords(
    Latitude: 45.482088 °,
    Longitude: 8.293574999999999 °
)
 (169.975453)  can0  460   [4]  00 00 10 00 ::
whereamiData(
    Speed: 0.0 km/h,
    Distance: 16 m
)
 (169.975678)  can0  462   [4]  00 00 10 00 ::
whereamiRawData(
    RawSpeed: 0.0 km/h,
    RawDistance: 16 m
)
 (169.975875)  can0  464   [8]  68 00 B6 02 C7 8C 7E 00 ::
whereamiCoords(
    Latitude: 45.482088 °,
    Longitude: 8.293574999999999 °
)
 (170.905202)  can0  460   [4]  00 00 10 00 ::
whereamiData(
    Speed: 0.0 km/h,
    Distance: 16 m
)
 (170.905423)  can0  462   [4]  00 00 10 00 ::
whereamiRawData(
    RawSpeed: 0.0 km/h,
    RawDistance: 16 m
)
 (170.905625)  can0  464   [8]  68 00 B6 02 C7 8C 7E 00 ::
whereamiCoords(
    Latitude: 45.482088 °,
    Longitude: 8.293574999999999 °
)
 (171.939305)  can0  460   [4]  00 00 10 00 ::
whereamiData(
    Speed: 0.0 km/h,
    Distance: 16 m
)
 (171.939523)  can0  462   [4]  00 00 10 00 ::
whereamiRawData(
    RawSpeed: 0.0 km/h,
    RawDistance: 16 m
)
 (171.939722)  can0  464   [8]  68 00 B6 02 C7 8C 7E 00 ::
whereamiCoords(
    Latitude: 45.482088 °,
    Longitude: 8.293574999999999 °
)
 (172.971330)  can0  460   [4]  00 00 10 00 ::
whereamiData(
    Speed: 0.0 km/h,
    Distance: 16 m
)
 (172.971554)  can0  462   [4]  00 00 10 00 ::
whereamiRawData(
    RawSpeed: 0.0 km/h,
    RawDistance: 16 m
)
 (172.971758)  can0  464   [8]  68 00 B6 02 C7 8C 7E 00 ::
whereamiCoords(
    Latitude: 45.482088 °,
    Longitude: 8.293574999999999 °
)
 (173.901483)  can0  460   [4]  00 00 10 00 ::
whereamiData(
    Speed: 0.0 km/h,
    Distance: 16 m
)
 (173.901680)  can0  462   [4]  00 00 10 00 ::
whereamiRawData(
    RawSpeed: 0.0 km/h,
    RawDistance: 16 m
)
 (173.901869)  can0  464   [8]  68 00 B6 02 C7 8C 7E 00 ::
whereamiCoords(
    Latitude: 45.482088 °,
    Longitude: 8.293574999999999 °
)
 (174.939259)  can0  460   [4]  00 00 10 00 ::
whereamiData(
    Speed: 0.0 km/h,
    Distance: 16 m
)
 (174.939474)  can0  462   [4]  00 00 10 00 ::
whereamiRawData(
    RawSpeed: 0.0 km/h,
    RawDistance: 16 m
)
 (174.939672)  can0  464   [8]  68 00 B6 02 C7 8C 7E 00 ::
whereamiCoords(
    Latitude: 45.482088 °,
    Longitude: 8.293574999999999 °
)
 (175.975269)  can0  460   [4]  00 00 10 00 ::
whereamiData(
    Speed: 0.0 km/h,
    Distance: 16 m
)
 (175.975482)  can0  462   [4]  00 00 10 00 ::
whereamiRawData(
    RawSpeed: 0.0 km/h,
    RawDistance: 16 m
)
 (175.975680)  can0  464   [8]  68 00 B6 02 C7 8C 7E 00 ::
whereamiCoords(
    Latitude: 45.482088 °,
    Longitude: 8.293574999999999 °
)
 (176.905389)  can0  460   [4]  00 00 10 00 ::
whereamiData(
    Speed: 0.0 km/h,
    Distance: 16 m
)
 (176.905600)  can0  462   [4]  00 00 10 00 ::
whereamiRawData(
    RawSpeed: 0.0 km/h,
    RawDistance: 16 m
)
 (176.905788)  can0  464   [8]  68 00 B6 02 C7 8C 7E 00 ::
whereamiCoords(
    Latitude: 45.482088 °,
    Longitude: 8.293574999999999 °
)
 (177.941305)  can0  460   [4]  00 00 10 00 ::
whereamiData(
    Speed: 0.0 km/h,
    Distance: 16 m
)
 (177.941519)  can0  462   [4]  00 00 10 00 ::
whereamiRawData(
    RawSpeed: 0.0 km/h,
    RawDistance: 16 m
)
 (177.941714)  can0  464   [8]  68 00 B6 02 C7 8C 7E 00 ::
whereamiCoords(
    Latitude: 45.482088 °,
    Longitude: 8.293574999999999 °
)
 (178.979327)  can0  460   [4]  00 00 10 00 ::
whereamiData(
    Speed: 0.0 km/h,
    Distance: 16 m
)
 (178.979543)  can0  462   [4]  00 00 10 00 ::
whereamiRawData(
    RawSpeed: 0.0 km/h,
    RawDistance: 16 m
)
 (178.979738)  can0  464   [8]  68 00 B6 02 C7 8C 7E 00 ::
whereamiCoords(
    Latitude: 45.482088 °,
    Longitude: 8.293574999999999 °
)
 (179.915435)  can0  460   [4]  00 00 10 00 ::
whereamiData(
    Speed: 0.0 km/h,
    Distance: 16 m
)
 (179.915679)  can0  462   [4]  00 00 10 00 ::
whereamiRawData(
    RawSpeed: 0.0 km/h,
    RawDistance: 16 m
)
 (179.915876)  can0  464   [8]  68 00 B6 02 C7 8C 7E 00 ::
whereamiCoords(
    Latitude: 45.482088 °,
    Longitude: 8.293574999999999 °
)
 (180.953457)  can0  460   [4]  00 00 10 00 ::
whereamiData(
    Speed: 0.0 km/h,
    Distance: 16 m
)
 (180.953683)  can0  462   [4]  00 00 10 00 ::
whereamiRawData(
    RawSpeed: 0.0 km/h,
    RawDistance: 16 m
)
 (180.953877)  can0  464   [8]  68 00 B6 02 C7 8C 7E 00 ::
whereamiCoords(
    Latitude: 45.482088 °,
    Longitude: 8.293574999999999 °
)
 (181.883362)  can0  460   [4]  00 00 10 00 ::
whereamiData(
    Speed: 0.0 km/h,
    Distance: 16 m
)
 (181.883569)  can0  462   [4]  00 00 10 00 ::
whereamiRawData(
    RawSpeed: 0.0 km/h,
    RawDistance: 16 m
)
 (181.883767)  can0  464   [8]  68 00 B6 02 C7 8C 7E 00 ::
whereamiCoords(
    Latitude: 45.482088 °,
    Longitude: 8.293574999999999 °
)
 (182.915478)  can0  460   [4]  00 00 10 00 ::
whereamiData(
    Speed: 0.0 km/h,
    Distance: 16 m
)
 (182.915693)  can0  462   [4]  00 00 10 00 ::
whereamiRawData(
    RawSpeed: 0.0 km/h,
    RawDistance: 16 m
)
 (182.915893)  can0  464   [8]  68 00 B6 02 C7 8C 7E 00 ::
whereamiCoords(
    Latitude: 45.482088 °,
    Longitude: 8.293574999999999 °
)
 (183.947501)  can0  460   [4]  00 00 10 00 ::
whereamiData(
    Speed: 0.0 km/h,
    Distance: 16 m
)
 (183.947728)  can0  462   [4]  00 00 10 00 ::
whereamiRawData(
    RawSpeed: 0.0 km/h,
    RawDistance: 16 m
)
 (183.947920)  can0  464   [8]  68 00 B6 02 C7 8C 7E 00 ::
whereamiCoords(
    Latitude: 45.482088 °,
    Longitude: 8.293574999999999 °
)
 (184.981526)  can0  460   [4]  00 00 10 00 ::
whereamiData(
    Speed: 0.0 km/h,
    Distance: 16 m
)
 (184.981750)  can0  462   [4]  00 00 10 00 ::
whereamiRawData(
    RawSpeed: 0.0 km/h,
    RawDistance: 16 m
)
 (184.981959)  can0  464   [8]  68 00 B6 02 C7 8C 7E 00 ::
whereamiCoords(
    Latitude: 45.482088 °,
    Longitude: 8.293574999999999 °
)
 (185.915530)  can0  460   [4]  00 00 10 00 ::
whereamiData(
    Speed: 0.0 km/h,
    Distance: 16 m
)
 (185.915747)  can0  462   [4]  00 00 10 00 ::
whereamiRawData(
    RawSpeed: 0.0 km/h,
    RawDistance: 16 m
)
 (185.915948)  can0  464   [8]  68 00 B6 02 C7 8C 7E 00 ::
whereamiCoords(
    Latitude: 45.482088 °,
    Longitude: 8.293574999999999 °
)
 (186.949736)  can0  460   [4]  12 00 10 00 ::
whereamiData(
    Speed: 0.18 km/h,
    Distance: 16 m
)
 (186.949973)  can0  462   [4]  12 00 10 00 ::
whereamiRawData(
    RawSpeed: 0.18 km/h,
    RawDistance: 16 m
)
 (186.950169)  can0  464   [8]  69 00 B6 02 C8 8C 7E 00 ::
whereamiCoords(
    Latitude: 45.482088999999995 °,
    Longitude: 8.293576 °
)
 (187.887734)  can0  460   [4]  12 00 11 00 ::
whereamiData(
    Speed: 0.18 km/h,
    Distance: 17 m
)
 (187.887949)  can0  462   [4]  12 00 11 00 ::
whereamiRawData(
    RawSpeed: 0.18 km/h,
    RawDistance: 17 m
)
 (187.888153)  can0  464   [8]  69 00 B6 02 C8 8C 7E 00 ::
whereamiCoords(
    Latitude: 45.482088999999995 °,
    Longitude: 8.293576 °
)
 (188.925489)  can0  460   [4]  12 00 11 00 ::
whereamiData(
    Speed: 0.18 km/h,
    Distance: 17 m
)
 (188.925714)  can0  462   [4]  12 00 11 00 ::
whereamiRawData(
    RawSpeed: 0.18 km/h,
    RawDistance: 17 m
)
 (188.925910)  can0  464   [8]  69 00 B6 02 C8 8C 7E 00 ::
whereamiCoords(
    Latitude: 45.482088999999995 °,
    Longitude: 8.293576 °
)
 (189.957505)  can0  460   [4]  00 00 11 00 ::
whereamiData(
    Speed: 0.0 km/h,
    Distance: 17 m
)
 (189.957724)  can0  462   [4]  00 00 11 00 ::
whereamiRawData(
    RawSpeed: 0.0 km/h,
    RawDistance: 17 m
)
 (189.957924)  can0  464   [8]  69 00 B6 02 C8 8C 7E 00 ::
whereamiCoords(
    Latitude: 45.482088999999995 °,
    Longitude: 8.293576 °
)
 (190.893523)  can0  460   [4]  00 00 11 00 ::
whereamiData(
    Speed: 0.0 km/h,
    Distance: 17 m
)
 (190.893748)  can0  462   [4]  00 00 11 00 ::
whereamiRawData(
    RawSpeed: 0.0 km/h,
    RawDistance: 17 m
)
 (190.893946)  can0  464   [8]  69 00 B6 02 C8 8C 7E 00 ::
whereamiCoords(
    Latitude: 45.482088999999995 °,
    Longitude: 8.293576 °
)
 (191.933530)  can0  460   [4]  00 00 11 00 ::
whereamiData(
    Speed: 0.0 km/h,
    Distance: 17 m
)
 (191.933745)  can0  462   [4]  00 00 11 00 ::
whereamiRawData(
    RawSpeed: 0.0 km/h,
    RawDistance: 17 m
)
 (191.933938)  can0  464   [8]  69 00 B6 02 C8 8C 7E 00 ::
whereamiCoords(
    Latitude: 45.482088999999995 °,
    Longitude: 8.293576 °
)
 (192.967642)  can0  460   [4]  00 00 11 00 ::
whereamiData(
    Speed: 0.0 km/h,
    Distance: 17 m
)
 (192.967867)  can0  462   [4]  00 00 11 00 ::
whereamiRawData(
    RawSpeed: 0.0 km/h,
    RawDistance: 17 m
)
 (192.968060)  can0  464   [8]  68 00 B6 02 C8 8C 7E 00 ::
whereamiCoords(
    Latitude: 45.482088 °,
    Longitude: 8.293576 °
)
 (193.899558)  can0  460   [4]  00 00 11 00 ::
whereamiData(
    Speed: 0.0 km/h,
    Distance: 17 m
)
 (193.899766)  can0  462   [4]  00 00 11 00 ::
whereamiRawData(
    RawSpeed: 0.0 km/h,
    RawDistance: 17 m
)
 (193.899957)  can0  464   [8]  68 00 B6 02 C8 8C 7E 00 ::
whereamiCoords(
    Latitude: 45.482088 °,
    Longitude: 8.293576 °
)
 (194.931842)  can0  460   [4]  12 00 11 00 ::
whereamiData(
    Speed: 0.18 km/h,
    Distance: 17 m
)
 (194.932055)  can0  462   [4]  12 00 11 00 ::
whereamiRawData(
    RawSpeed: 0.18 km/h,
    RawDistance: 17 m
)
 (194.932249)  can0  464   [8]  69 00 B6 02 C8 8C 7E 00 ::
whereamiCoords(
    Latitude: 45.482088999999995 °,
    Longitude: 8.293576 °
)
 (195.967698)  can0  460   [4]  12 00 11 00 ::
whereamiData(
    Speed: 0.18 km/h,
    Distance: 17 m
)
 (195.967918)  can0  462   [4]  12 00 11 00 ::
whereamiRawData(
    RawSpeed: 0.18 km/h,
    RawDistance: 17 m
)
 (195.968114)  can0  464   [8]  69 00 B6 02 C8 8C 7E 00 ::
whereamiCoords(
    Latitude: 45.482088999999995 °,
    Longitude: 8.293576 °
)
 (196.903715)  can0  460   [4]  00 00 11 00 ::
whereamiData(
    Speed: 0.0 km/h,
    Distance: 17 m
)
 (196.903948)  can0  462   [4]  00 00 11 00 ::
whereamiRawData(
    RawSpeed: 0.0 km/h,
    RawDistance: 17 m
)
 (196.904152)  can0  464   [8]  69 00 B6 02 C8 8C 7E 00 ::
whereamiCoords(
    Latitude: 45.482088999999995 °,
    Longitude: 8.293576 °
)
 (197.943748)  can0  460   [4]  12 00 11 00 ::
whereamiData(
    Speed: 0.18 km/h,
    Distance: 17 m
)
 (197.943983)  can0  462   [4]  12 00 11 00 ::
whereamiRawData(
    RawSpeed: 0.18 km/h,
    RawDistance: 17 m
)
 (197.944179)  can0  464   [8]  69 00 B6 02 C9 8C 7E 00 ::
whereamiCoords(
    Latitude: 45.482088999999995 °,
    Longitude: 8.293576999999999 °
)
 (198.981618)  can0  460   [4]  12 00 11 00 ::
whereamiData(
    Speed: 0.18 km/h,
    Distance: 17 m
)
 (198.981814)  can0  462   [4]  12 00 11 00 ::
whereamiRawData(
    RawSpeed: 0.18 km/h,
    RawDistance: 17 m
)
 (198.982003)  can0  464   [8]  69 00 B6 02 C9 8C 7E 00 ::
whereamiCoords(
    Latitude: 45.482088999999995 °,
    Longitude: 8.293576999999999 °
)
 (199.915664)  can0  460   [4]  12 00 11 00 ::
whereamiData(
    Speed: 0.18 km/h,
    Distance: 17 m
)
 (199.915875)  can0  462   [4]  12 00 11 00 ::
whereamiRawData(
    RawSpeed: 0.18 km/h,
    RawDistance: 17 m
)
 (199.916068)  can0  464   [8]  68 00 B6 02 C8 8C 7E 00 ::
whereamiCoords(
    Latitude: 45.482088 °,
    Longitude: 8.293576 °
)
 (200.955685)  can0  460   [4]  12 00 11 00 ::
whereamiData(
    Speed: 0.18 km/h,
    Distance: 17 m
)
 (200.955894)  can0  462   [4]  12 00 11 00 ::
whereamiRawData(
    RawSpeed: 0.18 km/h,
    RawDistance: 17 m
)
 (200.956087)  can0  464   [8]  68 00 B6 02 C8 8C 7E 00 ::
whereamiCoords(
    Latitude: 45.482088 °,
    Longitude: 8.293576 °
)
 (201.891968)  can0  460   [4]  12 00 11 00 ::
whereamiData(
    Speed: 0.18 km/h,
    Distance: 17 m
)
 (201.892186)  can0  462   [4]  12 00 11 00 ::
whereamiRawData(
    RawSpeed: 0.18 km/h,
    RawDistance: 17 m
)
 (201.892388)  can0  464   [8]  68 00 B6 02 C8 8C 7E 00 ::
whereamiCoords(
    Latitude: 45.482088 °,
    Longitude: 8.293576 °
)
 (202.933685)  can0  460   [4]  12 00 11 00 ::
whereamiData(
    Speed: 0.18 km/h,
    Distance: 17 m
)
 (202.933883)  can0  462   [4]  12 00 11 00 ::
whereamiRawData(
    RawSpeed: 0.18 km/h,
    RawDistance: 17 m
)
 (202.934080)  can0  464   [8]  67 00 B6 02 C8 8C 7E 00 ::
whereamiCoords(
    Latitude: 45.482087 °,
    Longitude: 8.293576 °
)
 (203.974009)  can0  460   [4]  37 00 11 00 ::
whereamiData(
    Speed: 0.55 km/h,
    Distance: 17 m
)
 (203.974225)  can0  462   [4]  37 00 11 00 ::
whereamiRawData(
    RawSpeed: 0.55 km/h,
    RawDistance: 17 m
)
 (203.974422)  can0  464   [8]  65 00 B6 02 C9 8C 7E 00 ::
whereamiCoords(
    Latitude: 45.482085 °,
    Longitude: 8.293576999999999 °
)
 (204.911813)  can0  460   [4]  12 00 11 00 ::
whereamiData(
    Speed: 0.18 km/h,
    Distance: 17 m
)
 (204.912007)  can0  462   [4]  12 00 11 00 ::
whereamiRawData(
    RawSpeed: 0.18 km/h,
    RawDistance: 17 m
)
 (204.912196)  can0  464   [8]  61 00 B6 02 CD 8C 7E 00 ::
whereamiCoords(
    Latitude: 45.482081 °,
    Longitude: 8.293581 °
)
 (205.945864)  can0  460   [4]  CB 00 12 00 ::
whereamiData(
    Speed: 2.0300000000000002 km/h,
    Distance: 18 m
)
 (205.946084)  can0  462   [4]  CB 00 12 00 ::
whereamiRawData(
    RawSpeed: 2.0300000000000002 km/h,
    RawDistance: 18 m
)
 (205.946277)  can0  464   [8]  5B 00 B6 02 CF 8C 7E 00 ::
whereamiCoords(
    Latitude: 45.482074999999995 °,
    Longitude: 8.293583 °
)
 (206.886484)  can0  460   [4]  6F 00 12 00 ::
whereamiData(
    Speed: 1.11 km/h,
    Distance: 18 m
)
 (206.886701)  can0  462   [4]  6F 00 12 00 ::
whereamiRawData(
    RawSpeed: 1.11 km/h,
    RawDistance: 18 m
)
 (206.886894)  can0  464   [8]  57 00 B6 02 D3 8C 7E 00 ::
whereamiCoords(
    Latitude: 45.482071 °,
    Longitude: 8.293587 °
)
 (207.924053)  can0  460   [4]  5C 00 12 00 ::
whereamiData(
    Speed: 0.92 km/h,
    Distance: 18 m
)
 (207.924267)  can0  462   [4]  5C 00 12 00 ::
whereamiRawData(
    RawSpeed: 0.92 km/h,
    RawDistance: 18 m
)
 (207.924460)  can0  464   [8]  55 00 B6 02 D5 8C 7E 00 ::
whereamiCoords(
    Latitude: 45.482068999999996 °,
    Longitude: 8.293588999999999 °
)
 (208.960095)  can0  460   [4]  25 00 12 00 ::
whereamiData(
    Speed: 0.37 km/h,
    Distance: 18 m
)
 (208.960309)  can0  462   [4]  25 00 12 00 ::
whereamiRawData(
    RawSpeed: 0.37 km/h,
    RawDistance: 18 m
)
 (208.960506)  can0  464   [8]  55 00 B6 02 D8 8C 7E 00 ::
whereamiCoords(
    Latitude: 45.482068999999996 °,
    Longitude: 8.293592 °
)
 (209.894096)  can0  460   [4]  25 00 13 00 ::
whereamiData(
    Speed: 0.37 km/h,
    Distance: 19 m
)
 (209.894315)  can0  462   [4]  25 00 13 00 ::
whereamiRawData(
    RawSpeed: 0.37 km/h,
    RawDistance: 19 m
)
 (209.894519)  can0  464   [8]  54 00 B6 02 DA 8C 7E 00 ::
whereamiCoords(
    Latitude: 45.482068 °,
    Longitude: 8.293593999999999 °
)
 (210.931866)  can0  460   [4]  25 00 13 00 ::
whereamiData(
    Speed: 0.37 km/h,
    Distance: 19 m
)
 (210.932085)  can0  462   [4]  25 00 13 00 ::
whereamiRawData(
    RawSpeed: 0.37 km/h,
    RawDistance: 19 m
)
 (210.932289)  can0  464   [8]  54 00 B6 02 DB 8C 7E 00 ::
whereamiCoords(
    Latitude: 45.482068 °,
    Longitude: 8.293595 °
)
 (211.970127)  can0  460   [4]  12 00 13 00 ::
whereamiData(
    Speed: 0.18 km/h,
    Distance: 19 m
)
 (211.970342)  can0  462   [4]  12 00 13 00 ::
whereamiRawData(
    RawSpeed: 0.18 km/h,
    RawDistance: 19 m
)
 (211.970537)  can0  464   [8]  55 00 B6 02 DC 8C 7E 00 ::
whereamiCoords(
    Latitude: 45.482068999999996 °,
    Longitude: 8.293595999999999 °
)
 (212.909868)  can0  460   [4]  00 00 13 00 ::
whereamiData(
    Speed: 0.0 km/h,
    Distance: 19 m
)
 (212.910075)  can0  462   [4]  00 00 13 00 ::
whereamiRawData(
    RawSpeed: 0.0 km/h,
    RawDistance: 19 m
)
 (212.910267)  can0  464   [8]  55 00 B6 02 DD 8C 7E 00 ::
whereamiCoords(
    Latitude: 45.482068999999996 °,
    Longitude: 8.293597 °
)
 (213.945896)  can0  460   [4]  00 00 13 00 ::
whereamiData(
    Speed: 0.0 km/h,
    Distance: 19 m
)
 (213.946107)  can0  462   [4]  00 00 13 00 ::
whereamiRawData(
    RawSpeed: 0.0 km/h,
    RawDistance: 19 m
)
 (213.946296)  can0  464   [8]  55 00 B6 02 DD 8C 7E 00 ::
whereamiCoords(
    Latitude: 45.482068999999996 °,
    Longitude: 8.293597 °
)
 (214.982174)  can0  460   [4]  00 00 13 00 ::
whereamiData(
    Speed: 0.0 km/h,
    Distance: 19 m
)
 (214.982390)  can0  462   [4]  00 00 13 00 ::
whereamiRawData(
    RawSpeed: 0.0 km/h,
    RawDistance: 19 m
)
 (214.982586)  can0  464   [8]  55 00 B6 02 DE 8C 7E 00 ::
whereamiCoords(
    Latitude: 45.482068999999996 °,
    Longitude: 8.293598 °
)
 (215.919939)  can0  460   [4]  00 00 13 00 ::
whereamiData(
    Speed: 0.0 km/h,
    Distance: 19 m
)
 (215.920165)  can0  462   [4]  00 00 13 00 ::
whereamiRawData(
    RawSpeed: 0.0 km/h,
    RawDistance: 19 m
)
 (215.920359)  can0  464   [8]  55 00 B6 02 DE 8C 7E 00 ::
whereamiCoords(
    Latitude: 45.482068999999996 °,
    Longitude: 8.293598 °
)
 (216.957947)  can0  460   [4]  00 00 13 00 ::
whereamiData(
    Speed: 0.0 km/h,
    Distance: 19 m
)
 (216.958157)  can0  462   [4]  00 00 13 00 ::
whereamiRawData(
    RawSpeed: 0.0 km/h,
    RawDistance: 19 m
)
 (216.958346)  can0  464   [8]  55 00 B6 02 DE 8C 7E 00 ::
whereamiCoords(
    Latitude: 45.482068999999996 °,
    Longitude: 8.293598 °
)
 (217.898585)  can0  460   [4]  00 00 13 00 ::
whereamiData(
    Speed: 0.0 km/h,
    Distance: 19 m
)
 (217.898805)  can0  462   [4]  00 00 13 00 ::
whereamiRawData(
    RawSpeed: 0.0 km/h,
    RawDistance: 19 m
)
 (217.898998)  can0  464   [8]  55 00 B6 02 DE 8C 7E 00 ::
whereamiCoords(
    Latitude: 45.482068999999996 °,
    Longitude: 8.293598 °
)
 (218.938079)  can0  460   [4]  00 00 13 00 ::
whereamiData(
    Speed: 0.0 km/h,
    Distance: 19 m
)
 (218.938299)  can0  462   [4]  00 00 13 00 ::
whereamiRawData(
    RawSpeed: 0.0 km/h,
    RawDistance: 19 m
)
 (218.938501)  can0  464   [8]  56 00 B6 02 DE 8C 7E 00 ::
whereamiCoords(
    Latitude: 45.48207 °,
    Longitude: 8.293598 °
)
 (219.978257)  can0  460   [4]  00 00 13 00 ::
whereamiData(
    Speed: 0.0 km/h,
    Distance: 19 m
)
 (219.978476)  can0  462   [4]  00 00 13 00 ::
whereamiRawData(
    RawSpeed: 0.0 km/h,
    RawDistance: 19 m
)
 (219.978669)  can0  464   [8]  56 00 B6 02 DE 8C 7E 00 ::
whereamiCoords(
    Latitude: 45.48207 °,
    Longitude: 8.293598 °
)
 (220.918015)  can0  460   [4]  00 00 13 00 ::
whereamiData(
    Speed: 0.0 km/h,
    Distance: 19 m
)
 (220.918246)  can0  462   [4]  00 00 13 00 ::
whereamiRawData(
    RawSpeed: 0.0 km/h,
    RawDistance: 19 m
)
 (220.918456)  can0  464   [8]  56 00 B6 02 DE 8C 7E 00 ::
whereamiCoords(
    Latitude: 45.48207 °,
    Longitude: 8.293598 °
)
 (221.952123)  can0  460   [4]  00 00 13 00 ::
whereamiData(
    Speed: 0.0 km/h,
    Distance: 19 m
)
 (221.952337)  can0  462   [4]  00 00 13 00 ::
whereamiRawData(
    RawSpeed: 0.0 km/h,
    RawDistance: 19 m
)
 (221.952530)  can0  464   [8]  56 00 B6 02 DE 8C 7E 00 ::
whereamiCoords(
    Latitude: 45.48207 °,
    Longitude: 8.293598 °
)
 (222.890304)  can0  460   [4]  00 00 13 00 ::
whereamiData(
    Speed: 0.0 km/h,
    Distance: 19 m
)
 (222.890513)  can0  462   [4]  00 00 13 00 ::
whereamiRawData(
    RawSpeed: 0.0 km/h,
    RawDistance: 19 m
)
 (222.890708)  can0  464   [8]  56 00 B6 02 DE 8C 7E 00 ::
whereamiCoords(
    Latitude: 45.48207 °,
    Longitude: 8.293598 °
)
 (223.928054)  can0  460   [4]  00 00 13 00 ::
whereamiData(
    Speed: 0.0 km/h,
    Distance: 19 m
)
 (223.928271)  can0  462   [4]  00 00 13 00 ::
whereamiRawData(
    RawSpeed: 0.0 km/h,
    RawDistance: 19 m
)
 (223.928470)  can0  464   [8]  56 00 B6 02 DE 8C 7E 00 ::
whereamiCoords(
    Latitude: 45.48207 °,
    Longitude: 8.293598 °
)
 (224.966340)  can0  460   [4]  00 00 13 00 ::
whereamiData(
    Speed: 0.0 km/h,
    Distance: 19 m
)
 (224.966555)  can0  462   [4]  00 00 13 00 ::
whereamiRawData(
    RawSpeed: 0.0 km/h,
    RawDistance: 19 m
)
 (224.966747)  can0  464   [8]  56 00 B6 02 DE 8C 7E 00 ::
whereamiCoords(
    Latitude: 45.48207 °,
    Longitude: 8.293598 °
)
 (225.902671)  can0  460   [4]  00 00 13 00 ::
whereamiData(
    Speed: 0.0 km/h,
    Distance: 19 m
)
 (225.902862)  can0  462   [4]  00 00 13 00 ::
whereamiRawData(
    RawSpeed: 0.0 km/h,
    RawDistance: 19 m
)
 (225.903052)  can0  464   [8]  55 00 B6 02 DE 8C 7E 00 ::
whereamiCoords(
    Latitude: 45.482068999999996 °,
    Longitude: 8.293598 °
)
 (226.940108)  can0  460   [4]  00 00 13 00 ::
whereamiData(
    Speed: 0.0 km/h,
    Distance: 19 m
)
 (226.940318)  can0  462   [4]  00 00 13 00 ::
whereamiRawData(
    RawSpeed: 0.0 km/h,
    RawDistance: 19 m
)
 (226.940506)  can0  464   [8]  56 00 B6 02 DE 8C 7E 00 ::
whereamiCoords(
    Latitude: 45.48207 °,
    Longitude: 8.293598 °
)
 (227.978388)  can0  460   [4]  00 00 13 00 ::
whereamiData(
    Speed: 0.0 km/h,
    Distance: 19 m
)
 (227.978602)  can0  462   [4]  00 00 13 00 ::
whereamiRawData(
    RawSpeed: 0.0 km/h,
    RawDistance: 19 m
)
 (227.978796)  can0  464   [8]  56 00 B6 02 DE 8C 7E 00 ::
whereamiCoords(
    Latitude: 45.48207 °,
    Longitude: 8.293598 °
)
 (228.916133)  can0  460   [4]  00 00 13 00 ::
whereamiData(
    Speed: 0.0 km/h,
    Distance: 19 m
)
 (228.916346)  can0  462   [4]  00 00 13 00 ::
whereamiRawData(
    RawSpeed: 0.0 km/h,
    RawDistance: 19 m
)
 (228.916540)  can0  464   [8]  56 00 B6 02 DE 8C 7E 00 ::
whereamiCoords(
    Latitude: 45.48207 °,
    Longitude: 8.293598 °
)
 (229.952267)  can0  460   [4]  00 00 13 00 ::
whereamiData(
    Speed: 0.0 km/h,
    Distance: 19 m
)
 (229.952485)  can0  462   [4]  00 00 13 00 ::
whereamiRawData(
    RawSpeed: 0.0 km/h,
    RawDistance: 19 m
)
 (229.952677)  can0  464   [8]  56 00 B6 02 DE 8C 7E 00 ::
whereamiCoords(
    Latitude: 45.48207 °,
    Longitude: 8.293598 °
)
 (230.888258)  can0  460   [4]  00 00 13 00 ::
whereamiData(
    Speed: 0.0 km/h,
    Distance: 19 m
)
 (230.888472)  can0  462   [4]  00 00 13 00 ::
whereamiRawData(
    RawSpeed: 0.0 km/h,
    RawDistance: 19 m
)
 (230.888664)  can0  464   [8]  56 00 B6 02 DE 8C 7E 00 ::
whereamiCoords(
    Latitude: 45.48207 °,
    Longitude: 8.293598 °
)
 (231.930190)  can0  460   [4]  00 00 13 00 ::
whereamiData(
    Speed: 0.0 km/h,
    Distance: 19 m
)
 (231.930407)  can0  462   [4]  00 00 13 00 ::
whereamiRawData(
    RawSpeed: 0.0 km/h,
    RawDistance: 19 m
)
 (231.930597)  can0  464   [8]  56 00 B6 02 DE 8C 7E 00 ::
whereamiCoords(
    Latitude: 45.48207 °,
    Longitude: 8.293598 °
)
 (232.964464)  can0  460   [4]  00 00 13 00 ::
whereamiData(
    Speed: 0.0 km/h,
    Distance: 19 m
)
 (232.964677)  can0  462   [4]  00 00 13 00 ::
whereamiRawData(
    RawSpeed: 0.0 km/h,
    RawDistance: 19 m
)
 (232.964871)  can0  464   [8]  56 00 B6 02 DE 8C 7E 00 ::
whereamiCoords(
    Latitude: 45.48207 °,
    Longitude: 8.293598 °
)
 (233.900309)  can0  460   [4]  00 00 13 00 ::
whereamiData(
    Speed: 0.0 km/h,
    Distance: 19 m
)
 (233.900518)  can0  462   [4]  00 00 13 00 ::
whereamiRawData(
    RawSpeed: 0.0 km/h,
    RawDistance: 19 m
)
 (233.900757)  can0  464   [8]  56 00 B6 02 DE 8C 7E 00 ::
whereamiCoords(
    Latitude: 45.48207 °,
    Longitude: 8.293598 °
)
 (234.942233)  can0  460   [4]  00 00 13 00 ::
whereamiData(
    Speed: 0.0 km/h,
    Distance: 19 m
)
 (234.942447)  can0  462   [4]  00 00 13 00 ::
whereamiRawData(
    RawSpeed: 0.0 km/h,
    RawDistance: 19 m
)
 (234.942642)  can0  464   [8]  56 00 B6 02 DE 8C 7E 00 ::
whereamiCoords(
    Latitude: 45.48207 °,
    Longitude: 8.293598 °
)
 (235.978248)  can0  460   [4]  37 00 13 00 ::
whereamiData(
    Speed: 0.55 km/h,
    Distance: 19 m
)
 (235.978463)  can0  462   [4]  37 00 13 00 ::
whereamiRawData(
    RawSpeed: 0.55 km/h,
    RawDistance: 19 m
)
 (235.978657)  can0  464   [8]  54 00 B6 02 DC 8C 7E 00 ::
whereamiCoords(
    Latitude: 45.482068 °,
    Longitude: 8.293595999999999 °
)
 (236.910531)  can0  460   [4]  25 00 13 00 ::
whereamiData(
    Speed: 0.37 km/h,
    Distance: 19 m
)
 (236.910746)  can0  462   [4]  25 00 13 00 ::
whereamiRawData(
    RawSpeed: 0.37 km/h,
    RawDistance: 19 m
)
 (236.910939)  can0  464   [8]  54 00 B6 02 DC 8C 7E 00 ::
whereamiCoords(
    Latitude: 45.482068 °,
    Longitude: 8.293595999999999 °
)
 (237.950289)  can0  460   [4]  25 00 13 00 ::
whereamiData(
    Speed: 0.37 km/h,
    Distance: 19 m
)
 (237.950512)  can0  462   [4]  25 00 13 00 ::
whereamiRawData(
    RawSpeed: 0.37 km/h,
    RawDistance: 19 m
)
 (237.950718)  can0  464   [8]  54 00 B6 02 DB 8C 7E 00 ::
whereamiCoords(
    Latitude: 45.482068 °,
    Longitude: 8.293595 °
)
 (238.887010)  can0  460   [4]  25 00 13 00 ::
whereamiData(
    Speed: 0.37 km/h,
    Distance: 19 m
)
 (238.887224)  can0  462   [4]  25 00 13 00 ::
whereamiRawData(
    RawSpeed: 0.37 km/h,
    RawDistance: 19 m
)
 (238.887419)  can0  464   [8]  54 00 B6 02 DC 8C 7E 00 ::
whereamiCoords(
    Latitude: 45.482068 °,
    Longitude: 8.293595999999999 °
)
 (239.920585)  can0  460   [4]  25 00 13 00 ::
whereamiData(
    Speed: 0.37 km/h,
    Distance: 19 m
)
 (239.920802)  can0  462   [4]  25 00 13 00 ::
whereamiRawData(
    RawSpeed: 0.37 km/h,
    RawDistance: 19 m
)
 (239.920993)  can0  464   [8]  55 00 B6 02 DC 8C 7E 00 ::
whereamiCoords(
    Latitude: 45.482068999999996 °,
    Longitude: 8.293595999999999 °
)
 (240.956333)  can0  460   [4]  25 00 13 00 ::
whereamiData(
    Speed: 0.37 km/h,
    Distance: 19 m
)
 (240.956552)  can0  462   [4]  25 00 13 00 ::
whereamiRawData(
    RawSpeed: 0.37 km/h,
    RawDistance: 19 m
)
 (240.956758)  can0  464   [8]  55 00 B6 02 DC 8C 7E 00 ::
whereamiCoords(
    Latitude: 45.482068999999996 °,
    Longitude: 8.293595999999999 °
)
 (241.890621)  can0  460   [4]  12 00 13 00 ::
whereamiData(
    Speed: 0.18 km/h,
    Distance: 19 m
)
 (241.890836)  can0  462   [4]  12 00 13 00 ::
whereamiRawData(
    RawSpeed: 0.18 km/h,
    RawDistance: 19 m
)
 (241.891025)  can0  464   [8]  55 00 B6 02 DC 8C 7E 00 ::
whereamiCoords(
    Latitude: 45.482068999999996 °,
    Longitude: 8.293595999999999 °
)
 (242.932371)  can0  460   [4]  37 00 14 00 ::
whereamiData(
    Speed: 0.55 km/h,
    Distance: 20 m
)
 (242.932587)  can0  462   [4]  37 00 14 00 ::
whereamiRawData(
    RawSpeed: 0.55 km/h,
    RawDistance: 20 m
)
 (242.932779)  can0  464   [8]  54 00 B6 02 DC 8C 7E 00 ::
whereamiCoords(
    Latitude: 45.482068 °,
    Longitude: 8.293595999999999 °
)
 (243.964476)  can0  460   [4]  12 00 14 00 ::
whereamiData(
    Speed: 0.18 km/h,
    Distance: 20 m
)
 (243.964692)  can0  462   [4]  12 00 14 00 ::
whereamiRawData(
    RawSpeed: 0.18 km/h,
    RawDistance: 20 m
)
 (243.964889)  can0  464   [8]  55 00 B6 02 DC 8C 7E 00 ::
whereamiCoords(
    Latitude: 45.482068999999996 °,
    Longitude: 8.293595999999999 °
)
 (244.898662)  can0  460   [4]  25 00 14 00 ::
whereamiData(
    Speed: 0.37 km/h,
    Distance: 20 m
)
 (244.898885)  can0  462   [4]  25 00 14 00 ::
whereamiRawData(
    RawSpeed: 0.37 km/h,
    RawDistance: 20 m
)
 (244.899086)  can0  464   [8]  55 00 B6 02 DC 8C 7E 00 ::
whereamiCoords(
    Latitude: 45.482068999999996 °,
    Longitude: 8.293595999999999 °
)
 (245.936514)  can0  460   [4]  12 00 14 00 ::
whereamiData(
    Speed: 0.18 km/h,
    Distance: 20 m
)
 (245.936798)  can0  462   [4]  12 00 14 00 ::
whereamiRawData(
    RawSpeed: 0.18 km/h,
    RawDistance: 20 m
)
 (245.937003)  can0  464   [8]  55 00 B6 02 DD 8C 7E 00 ::
whereamiCoords(
    Latitude: 45.482068999999996 °,
    Longitude: 8.293597 °
)
 (246.976710)  can0  460   [4]  12 00 14 00 ::
whereamiData(
    Speed: 0.18 km/h,
    Distance: 20 m
)
 (246.976927)  can0  462   [4]  12 00 14 00 ::
whereamiRawData(
    RawSpeed: 0.18 km/h,
    RawDistance: 20 m
)
 (246.977127)  can0  464   [8]  55 00 B6 02 DE 8C 7E 00 ::
whereamiCoords(
    Latitude: 45.482068999999996 °,
    Longitude: 8.293598 °
)
 (247.912718)  can0  460   [4]  25 00 14 00 ::
whereamiData(
    Speed: 0.37 km/h,
    Distance: 20 m
)
 (247.912936)  can0  462   [4]  25 00 14 00 ::
whereamiRawData(
    RawSpeed: 0.37 km/h,
    RawDistance: 20 m
)
 (247.913135)  can0  464   [8]  55 00 B6 02 DE 8C 7E 00 ::
whereamiCoords(
    Latitude: 45.482068999999996 °,
    Longitude: 8.293598 °
)
 (248.946715)  can0  460   [4]  4A 00 14 00 ::
whereamiData(
    Speed: 0.74 km/h,
    Distance: 20 m
)
 (248.946911)  can0  462   [4]  4A 00 14 00 ::
whereamiRawData(
    RawSpeed: 0.74 km/h,
    RawDistance: 20 m
)
 (248.947099)  can0  464   [8]  55 00 B6 02 DE 8C 7E 00 ::
whereamiCoords(
    Latitude: 45.482068999999996 °,
    Longitude: 8.293598 °
)
 (249.978754)  can0  460   [4]  12 00 14 00 ::
whereamiData(
    Speed: 0.18 km/h,
    Distance: 20 m
)
 (249.978970)  can0  462   [4]  12 00 14 00 ::
whereamiRawData(
    RawSpeed: 0.18 km/h,
    RawDistance: 20 m
)
 (249.979161)  can0  464   [8]  55 00 B6 02 DE 8C 7E 00 ::
whereamiCoords(
    Latitude: 45.482068999999996 °,
    Longitude: 8.293598 °
)
 (250.914602)  can0  460   [4]  4A 00 14 00 ::
whereamiData(
    Speed: 0.74 km/h,
    Distance: 20 m
)
 (250.914829)  can0  462   [4]  4A 00 14 00 ::
whereamiRawData(
    RawSpeed: 0.74 km/h,
    RawDistance: 20 m
)
 (250.915034)  can0  464   [8]  55 00 B6 02 DE 8C 7E 00 ::
whereamiCoords(
    Latitude: 45.482068999999996 °,
    Longitude: 8.293598 °
)
 (251.950803)  can0  460   [4]  25 00 14 00 ::
whereamiData(
    Speed: 0.37 km/h,
    Distance: 20 m
)
 (251.951032)  can0  462   [4]  25 00 14 00 ::
whereamiRawData(
    RawSpeed: 0.37 km/h,
    RawDistance: 20 m
)
 (251.951228)  can0  464   [8]  55 00 B6 02 DE 8C 7E 00 ::
whereamiCoords(
    Latitude: 45.482068999999996 °,
    Longitude: 8.293598 °
)
 (252.885237)  can0  460   [4]  12 00 15 00 ::
whereamiData(
    Speed: 0.18 km/h,
    Distance: 21 m
)
 (252.885459)  can0  462   [4]  12 00 15 00 ::
whereamiRawData(
    RawSpeed: 0.18 km/h,
    RawDistance: 21 m
)
 (252.885653)  can0  464   [8]  55 00 B6 02 DF 8C 7E 00 ::
whereamiCoords(
    Latitude: 45.482068999999996 °,
    Longitude: 8.293599 °
)
 (253.926812)  can0  460   [4]  12 00 15 00 ::
whereamiData(
    Speed: 0.18 km/h,
    Distance: 21 m
)
 (253.927023)  can0  462   [4]  12 00 15 00 ::
whereamiRawData(
    RawSpeed: 0.18 km/h,
    RawDistance: 21 m
)
 (253.927221)  can0  464   [8]  56 00 B6 02 DF 8C 7E 00 ::
whereamiCoords(
    Latitude: 45.48207 °,
    Longitude: 8.293599 °
)
 (254.966667)  can0  460   [4]  12 00 15 00 ::
whereamiData(
    Speed: 0.18 km/h,
    Distance: 21 m
)
 (254.966876)  can0  462   [4]  12 00 15 00 ::
whereamiRawData(
    RawSpeed: 0.18 km/h,
    RawDistance: 21 m
)
 (254.967064)  can0  464   [8]  56 00 B6 02 E0 8C 7E 00 ::
whereamiCoords(
    Latitude: 45.48207 °,
    Longitude: 8.2936 °
)
 (255.901294)  can0  460   [4]  12 00 15 00 ::
whereamiData(
    Speed: 0.18 km/h,
    Distance: 21 m
)
 (255.901515)  can0  462   [4]  12 00 15 00 ::
whereamiRawData(
    RawSpeed: 0.18 km/h,
    RawDistance: 21 m
)
 (255.901722)  can0  464   [8]  56 00 B6 02 DF 8C 7E 00 ::
whereamiCoords(
    Latitude: 45.48207 °,
    Longitude: 8.293599 °
)
 (256.942857)  can0  460   [4]  12 00 15 00 ::
whereamiData(
    Speed: 0.18 km/h,
    Distance: 21 m
)
 (256.943067)  can0  462   [4]  12 00 15 00 ::
whereamiRawData(
    RawSpeed: 0.18 km/h,
    RawDistance: 21 m
)
 (256.943262)  can0  464   [8]  56 00 B6 02 DF 8C 7E 00 ::
whereamiCoords(
    Latitude: 45.48207 °,
    Longitude: 8.293599 °
)
 (257.980709)  can0  460   [4]  25 00 15 00 ::
whereamiData(
    Speed: 0.37 km/h,
    Distance: 21 m
)
 (257.980926)  can0  462   [4]  25 00 15 00 ::
whereamiRawData(
    RawSpeed: 0.37 km/h,
    RawDistance: 21 m
)
 (257.981121)  can0  464   [8]  56 00 B6 02 DF 8C 7E 00 ::
whereamiCoords(
    Latitude: 45.48207 °,
    Longitude: 8.293599 °
)
 (258.916905)  can0  460   [4]  25 00 15 00 ::
whereamiData(
    Speed: 0.37 km/h,
    Distance: 21 m
)
 (258.917117)  can0  462   [4]  25 00 15 00 ::
whereamiRawData(
    RawSpeed: 0.37 km/h,
    RawDistance: 21 m
)
 (258.917308)  can0  464   [8]  56 00 B6 02 DF 8C 7E 00 ::
whereamiCoords(
    Latitude: 45.48207 °,
    Longitude: 8.293599 °
)
 (259.950655)  can0  460   [4]  37 00 15 00 ::
whereamiData(
    Speed: 0.55 km/h,
    Distance: 21 m
)
 (259.950879)  can0  462   [4]  37 00 15 00 ::
whereamiRawData(
    RawSpeed: 0.55 km/h,
    RawDistance: 21 m
)
 (259.951082)  can0  464   [8]  55 00 B6 02 DE 8C 7E 00 ::
whereamiCoords(
    Latitude: 45.482068999999996 °,
    Longitude: 8.293598 °
)
 (260.887365)  can0  460   [4]  12 00 15 00 ::
whereamiData(
    Speed: 0.18 km/h,
    Distance: 21 m
)
 (260.887576)  can0  462   [4]  12 00 15 00 ::
whereamiRawData(
    RawSpeed: 0.18 km/h,
    RawDistance: 21 m
)
 (260.887766)  can0  464   [8]  55 00 B6 02 DF 8C 7E 00 ::
whereamiCoords(
    Latitude: 45.482068999999996 °,
    Longitude: 8.293599 °
)
 (261.924687)  can0  460   [4]  25 00 15 00 ::
whereamiData(
    Speed: 0.37 km/h,
    Distance: 21 m
)
 (261.924909)  can0  462   [4]  25 00 15 00 ::
whereamiRawData(
    RawSpeed: 0.37 km/h,
    RawDistance: 21 m
)
 (261.925112)  can0  464   [8]  55 00 B6 02 DF 8C 7E 00 ::
whereamiCoords(
    Latitude: 45.482068999999996 °,
    Longitude: 8.293599 °
)
 (262.958965)  can0  460   [4]  12 00 15 00 ::
whereamiData(
    Speed: 0.18 km/h,
    Distance: 21 m
)
 (262.959182)  can0  462   [4]  12 00 15 00 ::
whereamiRawData(
    RawSpeed: 0.18 km/h,
    RawDistance: 21 m
)
 (262.959385)  can0  464   [8]  55 00 B6 02 DF 8C 7E 00 ::
whereamiCoords(
    Latitude: 45.482068999999996 °,
    Longitude: 8.293599 °
)
 (263.893409)  can0  460   [4]  4A 00 15 00 ::
whereamiData(
    Speed: 0.74 km/h,
    Distance: 21 m
)
 (263.893625)  can0  462   [4]  4A 00 15 00 ::
whereamiRawData(
    RawSpeed: 0.74 km/h,
    RawDistance: 21 m
)
 (263.893823)  can0  464   [8]  55 00 B6 02 DD 8C 7E 00 ::
whereamiCoords(
    Latitude: 45.482068999999996 °,
    Longitude: 8.293597 °
)
 (264.928853)  can0  460   [4]  25 00 16 00 ::
whereamiData(
    Speed: 0.37 km/h,
    Distance: 22 m
)
 (264.929076)  can0  462   [4]  25 00 16 00 ::
whereamiRawData(
    RawSpeed: 0.37 km/h,
    RawDistance: 22 m
)
 (264.929272)  can0  464   [8]  55 00 B6 02 DE 8C 7E 00 ::
whereamiCoords(
    Latitude: 45.482068999999996 °,
    Longitude: 8.293598 °
)
 (265.967034)  can0  460   [4]  12 00 16 00 ::
whereamiData(
    Speed: 0.18 km/h,
    Distance: 22 m
)
 (265.967257)  can0  462   [4]  12 00 16 00 ::
whereamiRawData(
    RawSpeed: 0.18 km/h,
    RawDistance: 22 m
)
 (265.967450)  can0  464   [8]  55 00 B6 02 DF 8C 7E 00 ::
whereamiCoords(
    Latitude: 45.482068999999996 °,
    Longitude: 8.293599 °
)
 (266.903452)  can0  460   [4]  12 00 16 00 ::
whereamiData(
    Speed: 0.18 km/h,
    Distance: 22 m
)
 (266.903648)  can0  462   [4]  12 00 16 00 ::
whereamiRawData(
    RawSpeed: 0.18 km/h,
    RawDistance: 22 m
)
 (266.903856)  can0  464   [8]  56 00 B6 02 DF 8C 7E 00 ::
whereamiCoords(
    Latitude: 45.48207 °,
    Longitude: 8.293599 °
)
 (267.943047)  can0  460   [4]  12 00 16 00 ::
whereamiData(
    Speed: 0.18 km/h,
    Distance: 22 m
)
 (267.943263)  can0  462   [4]  12 00 16 00 ::
whereamiRawData(
    RawSpeed: 0.18 km/h,
    RawDistance: 22 m
)
 (267.943456)  can0  464   [8]  56 00 B6 02 E0 8C 7E 00 ::
whereamiCoords(
    Latitude: 45.48207 °,
    Longitude: 8.2936 °
)
 (268.983061)  can0  460   [4]  00 00 16 00 ::
whereamiData(
    Speed: 0.0 km/h,
    Distance: 22 m
)
 (268.983269)  can0  462   [4]  00 00 16 00 ::
whereamiRawData(
    RawSpeed: 0.0 km/h,
    RawDistance: 22 m
)
 (268.983457)  can0  464   [8]  56 00 B6 02 E0 8C 7E 00 ::
whereamiCoords(
    Latitude: 45.48207 °,
    Longitude: 8.2936 °
)
 (269.921079)  can0  460   [4]  12 00 16 00 ::
whereamiData(
    Speed: 0.18 km/h,
    Distance: 22 m
)
 (269.921300)  can0  462   [4]  12 00 16 00 ::
whereamiRawData(
    RawSpeed: 0.18 km/h,
    RawDistance: 22 m
)
 (269.921494)  can0  464   [8]  56 00 B6 02 E0 8C 7E 00 ::
whereamiCoords(
    Latitude: 45.48207 °,
    Longitude: 8.2936 °
)
 (270.953087)  can0  460   [4]  25 00 16 00 ::
whereamiData(
    Speed: 0.37 km/h,
    Distance: 22 m
)
 (270.953298)  can0  462   [4]  25 00 16 00 ::
whereamiRawData(
    RawSpeed: 0.37 km/h,
    RawDistance: 22 m
)
 (270.953489)  can0  464   [8]  56 00 B6 02 DF 8C 7E 00 ::
whereamiCoords(
    Latitude: 45.48207 °,
    Longitude: 8.293599 °
)
 (271.893536)  can0  460   [4]  37 00 16 00 ::
whereamiData(
    Speed: 0.55 km/h,
    Distance: 22 m
)
 (271.893750)  can0  462   [4]  37 00 16 00 ::
whereamiRawData(
    RawSpeed: 0.55 km/h,
    RawDistance: 22 m
)
 (271.893944)  can0  464   [8]  55 00 B6 02 DF 8C 7E 00 ::
whereamiCoords(
    Latitude: 45.482068999999996 °,
    Longitude: 8.293599 °
)
 (272.927131)  can0  460   [4]  25 00 16 00 ::
whereamiData(
    Speed: 0.37 km/h,
    Distance: 22 m
)
 (272.927336)  can0  462   [4]  25 00 16 00 ::
whereamiRawData(
    RawSpeed: 0.37 km/h,
    RawDistance: 22 m
)
 (272.927531)  can0  464   [8]  55 00 B6 02 DF 8C 7E 00 ::
whereamiCoords(
    Latitude: 45.482068999999996 °,
    Longitude: 8.293599 °
)
 (273.966866)  can0  460   [4]  12 00 16 00 ::
whereamiData(
    Speed: 0.18 km/h,
    Distance: 22 m
)
 (273.967068)  can0  462   [4]  12 00 16 00 ::
whereamiRawData(
    RawSpeed: 0.18 km/h,
    RawDistance: 22 m
)
 (273.967274)  can0  464   [8]  55 00 B6 02 DF 8C 7E 00 ::
whereamiCoords(
    Latitude: 45.482068999999996 °,
    Longitude: 8.293599 °
)
 (274.901177)  can0  460   [4]  12 00 16 00 ::
whereamiData(
    Speed: 0.18 km/h,
    Distance: 22 m
)
 (274.901389)  can0  462   [4]  12 00 16 00 ::
whereamiRawData(
    RawSpeed: 0.18 km/h,
    RawDistance: 22 m
)
 (274.901581)  can0  464   [8]  56 00 B6 02 DF 8C 7E 00 ::
whereamiCoords(
    Latitude: 45.48207 °,
    Longitude: 8.293599 °
)
 (275.936918)  can0  460   [4]  00 00 16 00 ::
whereamiData(
    Speed: 0.0 km/h,
    Distance: 22 m
)
 (275.937142)  can0  462   [4]  00 00 16 00 ::
whereamiRawData(
    RawSpeed: 0.0 km/h,
    RawDistance: 22 m
)
 (275.937336)  can0  464   [8]  56 00 B6 02 E0 8C 7E 00 ::
whereamiCoords(
    Latitude: 45.48207 °,
    Longitude: 8.2936 °
)
 (276.974931)  can0  460   [4]  12 00 16 00 ::
whereamiData(
    Speed: 0.18 km/h,
    Distance: 22 m
)
 (276.975149)  can0  462   [4]  12 00 16 00 ::
whereamiRawData(
    RawSpeed: 0.18 km/h,
    RawDistance: 22 m
)
 (276.975349)  can0  464   [8]  56 00 B6 02 E0 8C 7E 00 ::
whereamiCoords(
    Latitude: 45.48207 °,
    Longitude: 8.2936 °
)
 (277.909214)  can0  460   [4]  12 00 16 00 ::
whereamiData(
    Speed: 0.18 km/h,
    Distance: 22 m
)
 (277.909428)  can0  462   [4]  12 00 16 00 ::
whereamiRawData(
    RawSpeed: 0.18 km/h,
    RawDistance: 22 m
)
 (277.909621)  can0  464   [8]  56 00 B6 02 DF 8C 7E 00 ::
whereamiCoords(
    Latitude: 45.48207 °,
    Longitude: 8.293599 °
)
 (278.946962)  can0  460   [4]  25 00 16 00 ::
whereamiData(
    Speed: 0.37 km/h,
    Distance: 22 m
)
 (278.947177)  can0  462   [4]  25 00 16 00 ::
whereamiRawData(
    RawSpeed: 0.37 km/h,
    RawDistance: 22 m
)
 (278.947372)  can0  464   [8]  56 00 B6 02 DF 8C 7E 00 ::
whereamiCoords(
    Latitude: 45.48207 °,
    Longitude: 8.293599 °
)
 (279.983073)  can0  460   [4]  12 00 17 00 ::
whereamiData(
    Speed: 0.18 km/h,
    Distance: 23 m
)
 (279.983287)  can0  462   [4]  12 00 17 00 ::
whereamiRawData(
    RawSpeed: 0.18 km/h,
    RawDistance: 23 m
)
 (279.983480)  can0  464   [8]  56 00 B6 02 DF 8C 7E 00 ::
whereamiCoords(
    Latitude: 45.48207 °,
    Longitude: 8.293599 °
)
 (280.919280)  can0  460   [4]  25 00 17 00 ::
whereamiData(
    Speed: 0.37 km/h,
    Distance: 23 m
)
 (280.919519)  can0  462   [4]  25 00 17 00 ::
whereamiRawData(
    RawSpeed: 0.37 km/h,
    RawDistance: 23 m
)
 (280.919728)  can0  464   [8]  55 00 B6 02 DF 8C 7E 00 ::
whereamiCoords(
    Latitude: 45.482068999999996 °,
    Longitude: 8.293599 °
)
 (281.957271)  can0  460   [4]  12 00 17 00 ::
whereamiData(
    Speed: 0.18 km/h,
    Distance: 23 m
)
 (281.957488)  can0  462   [4]  12 00 17 00 ::
whereamiRawData(
    RawSpeed: 0.18 km/h,
    RawDistance: 23 m
)
 (281.957685)  can0  464   [8]  56 00 B6 02 DF 8C 7E 00 ::
whereamiCoords(
    Latitude: 45.48207 °,
    Longitude: 8.293599 °
)
 (282.899296)  can0  460   [4]  12 00 17 00 ::
whereamiData(
    Speed: 0.18 km/h,
    Distance: 23 m
)
 (282.899509)  can0  462   [4]  12 00 17 00 ::
whereamiRawData(
    RawSpeed: 0.18 km/h,
    RawDistance: 23 m
)
 (282.899701)  can0  464   [8]  56 00 B6 02 DF 8C 7E 00 ::
whereamiCoords(
    Latitude: 45.48207 °,
    Longitude: 8.293599 °
)
 (283.939045)  can0  460   [4]  00 00 17 00 ::
whereamiData(
    Speed: 0.0 km/h,
    Distance: 23 m
)
 (283.939273)  can0  462   [4]  00 00 17 00 ::
whereamiRawData(
    RawSpeed: 0.0 km/h,
    RawDistance: 23 m
)
 (283.939466)  can0  464   [8]  56 00 B6 02 E0 8C 7E 00 ::
whereamiCoords(
    Latitude: 45.48207 °,
    Longitude: 8.2936 °
)
 (284.973412)  can0  460   [4]  12 00 17 00 ::
whereamiData(
    Speed: 0.18 km/h,
    Distance: 23 m
)
 (284.973627)  can0  462   [4]  12 00 17 00 ::
whereamiRawData(
    RawSpeed: 0.18 km/h,
    RawDistance: 23 m
)
 (284.973818)  can0  464   [8]  56 00 B6 02 E0 8C 7E 00 ::
whereamiCoords(
    Latitude: 45.48207 °,
    Longitude: 8.2936 °
)
 (285.911171)  can0  460   [4]  00 00 17 00 ::
whereamiData(
    Speed: 0.0 km/h,
    Distance: 23 m
)
 (285.911392)  can0  462   [4]  00 00 17 00 ::
whereamiRawData(
    RawSpeed: 0.0 km/h,
    RawDistance: 23 m
)
 (285.911596)  can0  464   [8]  56 00 B6 02 E0 8C 7E 00 ::
whereamiCoords(
    Latitude: 45.48207 °,
    Longitude: 8.2936 °
)
 (286.953094)  can0  460   [4]  00 00 17 00 ::
whereamiData(
    Speed: 0.0 km/h,
    Distance: 23 m
)
 (286.953320)  can0  462   [4]  00 00 17 00 ::
whereamiRawData(
    RawSpeed: 0.0 km/h,
    RawDistance: 23 m
)
