 (000.000000)  can0  422   [1]  00
 (000.999976)  can0  422   [1]  00
 (001.999947)  can0  422   [1]  00
 (002.999921)  can0  422   [1]  00
 (003.999904)  can0  422   [1]  00
 (004.999862)  can0  422   [1]  00
 (005.999945)  can0  422   [1]  00
 (006.999809)  can0  422   [1]  00
 (007.999780)  can0  422   [1]  00
 (008.999758)  can0  422   [1]  00
 (009.999728)  can0  422   [1]  00
 (010.999697)  can0  422   [1]  00
 (011.999674)  can0  422   [1]  00
 (012.999642)  can0  422   [1]  00
 (013.999611)  can0  422   [1]  00
 (014.999587)  can0  422   [1]  00
 (015.999599)  can0  422   [1]  00
 (016.999536)  can0  422   [1]  00
 (017.999505)  can0  422   [1]  00
 (018.999477)  can0  422   [1]  00
 (019.999442)  can0  422   [1]  00
 (020.999421)  can0  422   [1]  00
 (021.999387)  can0  422   [1]  00
 (022.999357)  can0  422   [1]  00
 (023.999330)  can0  422   [1]  00
 (024.999300)  can0  422   [1]  00
 (025.999273)  can0  422   [1]  00
 (026.999249)  can0  422   [1]  00
 (027.999215)  can0  422   [1]  00
 (028.999187)  can0  422   [1]  00
 (029.999164)  can0  422   [1]  00
 (030.999130)  can0  422   [1]  00
 (031.999101)  can0  422   [1]  00
 (032.999075)  can0  422   [1]  00
 (033.999044)  can0  422   [1]  00
 (034.999014)  can0  422   [1]  00
 (035.998996)  can0  422   [1]  00
 (036.998957)  can0  422   [1]  00
 (037.998938)  can0  422   [1]  00
 (038.998893)  can0  422   [1]  00
 (039.998874)  can0  422   [1]  00
 (040.998838)  can0  422   [1]  00
 (041.998809)  can0  422   [1]  00
 (042.998782)  can0  422   [1]  00
 (043.998751)  can0  422   [1]  00
 (044.998745)  can0  422   [1]  00
 (045.998693)  can0  422   [1]  00
 (046.998665)  can0  422   [1]  00
 (047.998632)  can0  422   [1]  00
 (048.998607)  can0  422   [1]  00
 (049.998581)  can0  422   [1]  00
 (050.998543)  can0  422   [1]  00
 (051.998513)  can0  422   [1]  00
 (052.998502)  can0  422   [1]  00
 (053.998457)  can0  422   [1]  00
 (054.998427)  can0  422   [1]  00
 (055.998417)  can0  422   [1]  00
 (056.998363)  can0  422   [1]  00
 (057.998342)  can0  422   [1]  00
 (058.998310)  can0  422   [1]  00
 (059.998295)  can0  422   [1]  00
 (060.049328)  can0  421   [2]  00 00
 (060.120319)  can0  421   [2]  00 00
 (060.191292)  can0  421   [2]  00 00
 (060.262273)  can0  421   [2]  00 00
 (060.333254)  can0  421   [2]  00 00
 (060.404225)  can0  421   [2]  00 00
 (060.475186)  can0  421   [2]  00 00
 (060.546172)  can0  421   [2]  00 00
 (060.617150)  can0  421   [2]  00 00
 (060.688132)  can0  421   [2]  00 00
 (060.759082)  can0  421   [2]  00 00
 (060.830062)  can0  421   [2]  00 00
 (060.901041)  can0  421   [2]  00 00
 (060.972017)  can0  421   [2]  00 00
 (060.998248)  can0  422   [1]  00
 (061.042988)  can0  421   [2]  00 00
 (061.113952)  can0  421   [2]  00 00
 (061.184927)  can0  421   [2]  00 00
 (061.255900)  can0  421   [2]  00 00
 (061.326876)  can0  421   [2]  00 00
 (061.397840)  can0  421   [2]  00 00
 (061.468813)  can0  421   [2]  00 00
 (061.539789)  can0  421   [2]  00 00
 (061.610771)  can0  421   [2]  00 00
 (061.681745)  can0  421   [2]  00 00
 (061.752706)  can0  421   [2]  00 00
 (061.823690)  can0  421   [2]  00 00
 (061.894647)  can0  421   [2]  00 00
 (061.965613)  can0  421   [2]  00 00
 (061.998214)  can0  422   [1]  00
 (062.036584)  can0  421   [2]  00 00
 (062.107573)  can0  421   [2]  00 00
 (062.178552)  can0  421   [2]  00 00
 (062.249524)  can0  421   [2]  00 00
 (062.320508)  can0  421   [2]  00 00
 (062.391467)  can0  421   [2]  00 00
 (062.462446)  can0  421   [2]  00 00
 (062.533422)  can0  421   [2]  00 00
 (062.604394)  can0  421   [2]  00 00
 (062.675372)  can0  421   [2]  00 00
 (062.746345)  can0  421   [2]  00 00
 (062.817313)  can0  421   [2]  00 00
 (062.888311)  can0  421   [2]  00 00
 (062.959281)  can0  421   [2]  00 00
 (062.998191)  can0  422   [1]  00
 (063.030287)  can0  421   [2]  00 00
 (063.101234)  can0  421   [2]  00 00
 (063.172221)  can0  421   [2]  00 00
 (063.243208)  can0  421   [2]  00 00
 (063.314184)  can0  421   [2]  00 00
 (063.385203)  can0  421   [2]  00 00
 (063.456214)  can0  421   [2]  00 00
 (063.527144)  can0  421   [2]  00 00
 (063.598125)  can0  421   [2]  00 00
 (063.669108)  can0  421   [2]  00 00
 (063.740099)  can0  421   [2]  00 00
 (063.811080)  can0  421   [2]  00 00
 (063.882057)  can0  421   [2]  00 00
 (063.953034)  can0  421   [2]  00 00
 (063.998162)  can0  422   [1]  00
 (064.024018)  can0  421   [2]  00 00
 (064.095010)  can0  421   [2]  00 00
 (064.165994)  can0  421   [2]  00 00
 (064.236968)  can0  421   [2]  00 00
 (064.307944)  can0  421   [2]  00 00
 (064.378929)  can0  421   [2]  00 00
 (064.449889)  can0  421   [2]  00 00
 (064.520855)  can0  421   [2]  00 00
 (064.591838)  can0  421   [2]  00 00
 (064.662805)  can0  421   [2]  00 00
 (064.733795)  can0  421   [2]  00 00
 (064.804768)  can0  421   [2]  00 00
 (064.875750)  can0  421   [2]  00 00
 (064.946727)  can0  421   [2]  00 00
 (064.998129)  can0  422   [1]  00
 (065.017702)  can0  421   [2]  00 00
 (065.088696)  can0  421   [2]  00 00
 (065.159787)  can0  421   [2]  00 00
 (065.230649)  can0  421   [2]  00 00
 (065.301628)  can0  421   [2]  00 00
 (065.372605)  can0  421   [2]  00 00
 (065.514570)  can0  421   [2]  00 00
 (065.585551)  can0  421   [2]  00 00
 (065.656528)  can0  421   [2]  00 00
 (065.727510)  can0  421   [2]  00 00
 (065.798482)  can0  421   [2]  00 00
 (065.869447)  can0  421   [2]  00 00
 (065.940420)  can0  421   [2]  00 00
 (065.998094)  can0  422   [1]  00
 (066.011390)  can0  421   [2]  00 00
 (066.082377)  can0  421   [2]  00 00
 (066.153336)  can0  421   [2]  00 00
 (066.224297)  can0  421   [2]  00 00
 (066.295275)  can0  421   [2]  00 00
 (066.366252)  can0  421   [2]  00 00
 (066.437225)  can0  421   [2]  00 00
 (066.508197)  can0  421   [2]  00 00
 (066.579174)  can0  421   [2]  00 00
 (066.650152)  can0  421   [2]  00 00
 (066.721124)  can0  421   [2]  00 00
 (066.792096)  can0  421   [2]  00 00
 (066.863075)  can0  421   [2]  00 00
 (066.934052)  can0  421   [2]  00 00
 (066.998072)  can0  422   [1]  00
 (067.005016)  can0  421   [2]  00 00
 (067.076005)  can0  421   [2]  00 00
 (067.146998)  can0  421   [2]  00 00
 (067.217957)  can0  421   [2]  00 00
 (067.288931)  can0  421   [2]  00 00
 (067.359904)  can0  421   [2]  00 00
 (067.430874)  can0  421   [2]  00 00
 (067.501830)  can0  421   [2]  00 00
 (067.572804)  can0  421   [2]  00 00
 (067.643770)  can0  421   [2]  00 00
 (067.714743)  can0  421   [2]  00 00
 (067.785721)  can0  421   [2]  00 00
 (067.856696)  can0  421   [2]  00 00
 (067.927674)  can0  421   [2]  00 00
 (067.998042)  can0  422   [1]  00
 (067.998626)  can0  421   [2]  00 00
 (068.069622)  can0  421   [2]  00 00
 (068.140593)  can0  421   [2]  00 00
 (068.211558)  can0  421   [2]  00 00
 (068.282526)  can0  421   [2]  00 00
 (068.353501)  can0  421   [2]  00 00
 (068.424469)  can0  421   [2]  00 00
 (068.495445)  can0  421   [2]  00 00
 (068.566413)  can0  421   [2]  00 00
 (068.637396)  can0  421   [2]  00 00
 (068.708345)  can0  421   [2]  00 00
 (068.779303)  can0  421   [2]  00 00
 (068.850265)  can0  421   [2]  00 00
 (068.921234)  can0  421   [2]  00 00
 (068.992204)  can0  421   [2]  00 00
 (068.997986)  can0  422   [1]  00
 (069.063171)  can0  421   [2]  00 00
 (069.134150)  can0  421   [2]  00 00
 (069.205106)  can0  421   [2]  00 00
 (069.276083)  can0  421   [2]  00 00
 (069.347053)  can0  421   [2]  00 00
 (069.418013)  can0  421   [2]  00 00
 (069.489003)  can0  421   [2]  00 00
 (069.559974)  can0  421   [2]  00 00
 (069.630951)  can0  421   [2]  00 00
 (069.701926)  can0  421   [2]  00 00
 (069.772906)  can0  421   [2]  00 00
 (069.843869)  can0  421   [2]  00 00
 (069.914836)  can0  421   [2]  00 00
 (069.985803)  can0  421   [2]  00 00
 (070.006991)  can0  422   [1]  00
 (070.056767)  can0  421   [2]  00 00
 (070.127724)  can0  421   [2]  00 00
 (070.198701)  can0  421   [2]  00 00
 (070.269672)  can0  421   [2]  00 00
 (070.340642)  can0  421   [2]  00 00
 (070.411610)  can0  421   [2]  00 00
 (070.482578)  can0  421   [2]  00 00
 (070.553552)  can0  421   [2]  00 00
 (070.624520)  can0  421   [2]  00 00
 (070.695496)  can0  421   [2]  00 00
 (070.766471)  can0  421   [2]  00 00
 (070.837437)  can0  421   [2]  00 00
 (070.908406)  can0  421   [2]  00 00
 (070.979354)  can0  421   [2]  00 00
 (071.006945)  can0  422   [1]  00
 (071.050350)  can0  421   [2]  00 00
 (071.121323)  can0  421   [2]  00 00
 (071.192301)  can0  421   [2]  00 00
 (071.263262)  can0  421   [2]  00 00
 (071.334236)  can0  421   [2]  00 00
 (071.405210)  can0  421   [2]  00 00
 (071.476184)  can0  421   [2]  00 00
 (071.547166)  can0  421   [2]  00 00
 (071.618138)  can0  421   [2]  00 00
 (071.689116)  can0  421   [2]  00 00
 (071.760090)  can0  421   [2]  00 00
 (071.831058)  can0  421   [2]  00 00
 (071.902025)  can0  421   [2]  00 00
 (071.972998)  can0  421   [2]  00 00
 (072.006909)  can0  422   [1]  00
 (072.043950)  can0  421   [2]  00 00
 (072.114929)  can0  421   [2]  00 00
 (072.185892)  can0  421   [2]  00 00
 (072.256854)  can0  421   [2]  00 00
 (072.327845)  can0  421   [2]  00 00
 (072.398803)  can0  421   [2]  00 00
 (072.469767)  can0  421   [2]  00 00
 (072.540737)  can0  421   [2]  00 00
 (072.611693)  can0  421   [2]  00 00
 (072.682655)  can0  421   [2]  00 00
 (072.753614)  can0  421   [2]  00 00
 (072.824577)  can0  421   [2]  00 00
 (072.895545)  can0  421   [2]  00 00
 (072.966515)  can0  421   [2]  00 00
 (073.006888)  can0  422   [1]  00
 (073.037452)  can0  421   [2]  00 00
 (073.108422)  can0  421   [2]  00 00
 (073.179383)  can0  421   [2]  00 00
 (073.250365)  can0  421   [2]  00 00
 (073.321348)  can0  421   [2]  00 00
 (073.392336)  can0  421   [2]  00 00
 (073.463307)  can0  421   [2]  00 00
 (073.534315)  can0  421   [2]  00 00
 (073.605269)  can0  421   [2]  00 00
 (073.676247)  can0  421   [2]  00 00
 (073.747235)  can0  421   [2]  00 00
 (073.818222)  can0  421   [2]  00 00
 (073.889198)  can0  421   [2]  00 00
 (073.960172)  can0  421   [2]  00 00
 (074.006861)  can0  422   [1]  00
 (074.031155)  can0  421   [2]  00 00
 (074.102152)  can0  421   [2]  00 00
 (074.173126)  can0  421   [2]  00 00
 (074.244110)  can0  421   [2]  00 00
 (074.315093)  can0  421   [2]  00 00
 (074.386081)  can0  421   [2]  00 00
 (074.457063)  can0  421   [2]  00 00
 (074.528039)  can0  421   [2]  00 00
 (074.599020)  can0  421   [2]  00 00
 (074.670001)  can0  421   [2]  00 00
 (074.740968)  can0  421   [2]  00 00
 (074.811945)  can0  421   [2]  00 00
 (074.882909)  can0  421   [2]  00 00
 (074.953888)  can0  421   [2]  00 00
 (075.006843)  can0  422   [1]  00
 (075.024850)  can0  421   [2]  00 00
 (075.095823)  can0  421   [2]  00 00
 (075.166804)  can0  421   [2]  00 00
 (075.237773)  can0  421   [2]  00 00
 (075.308747)  can0  421   [2]  00 00
 (075.379748)  can0  421   [2]  00 00
 (075.450699)  can0  421   [2]  00 00
 (075.521677)  can0  421   [2]  00 00
 (075.592651)  can0  421   [2]  00 00
 (075.663623)  can0  421   [2]  00 00
 (075.734591)  can0  421   [2]  00 00
 (075.805567)  can0  421   [2]  00 00
 (075.876544)  can0  421   [2]  00 00
 (075.947522)  can0  421   [2]  00 00
 (076.006814)  can0  422   [1]  00
 (076.018489)  can0  421   [2]  00 00
 (076.089482)  can0  421   [2]  00 00
 (076.160457)  can0  421   [2]  00 00
 (076.231432)  can0  421   [2]  00 00
 (076.302398)  can0  421   [2]  00 00
 (076.373363)  can0  421   [2]  00 00
 (076.444349)  can0  421   [2]  00 00
 (076.515306)  can0  421   [2]  00 00
 (076.586284)  can0  421   [2]  00 00
 (076.657257)  can0  421   [2]  00 00
 (076.728225)  can0  421   [2]  00 00
 (076.799200)  can0  421   [2]  00 00
 (076.870171)  can0  421   [2]  00 00
 (076.941119)  can0  421   [2]  00 00
 (077.006774)  can0  422   [1]  00
 (077.012065)  can0  421   [2]  00 00
 (077.083061)  can0  421   [2]  00 00
 (077.154041)  can0  421   [2]  00 00
 (077.225008)  can0  421   [2]  00 00
 (077.295980)  can0  421   [2]  00 00
 (077.366948)  can0  421   [2]  00 00
 (077.437924)  can0  421   [2]  00 00
 (077.508898)  can0  421   [2]  00 00
 (077.579881)  can0  421   [2]  00 00
 (077.650855)  can0  421   [2]  00 00
 (077.721833)  can0  421   [2]  00 00
 (077.792806)  can0  421   [2]  00 00
 (077.863791)  can0  421   [2]  00 00
 (077.934758)  can0  421   [2]  00 00
 (078.005735)  can0  421   [2]  00 00
 (078.006717)  can0  422   [1]  00
 (078.076729)  can0  421   [2]  00 00
 (078.147699)  can0  421   [2]  00 00
 (078.218680)  can0  421   [2]  00 00
 (078.289651)  can0  421   [2]  00 00
 (078.360624)  can0  421   [2]  00 00
 (078.431601)  can0  421   [2]  00 00
 (078.502576)  can0  421   [2]  00 00
 (078.573553)  can0  421   [2]  00 00
 (078.644532)  can0  421   [2]  00 00
 (078.715495)  can0  421   [2]  00 00
 (078.786474)  can0  421   [2]  00 00
 (078.857454)  can0  421   [2]  00 00
 (078.886059)  can0  460   [4]  00 00 2B C0
 (078.886267)  can0  462   [4]  00 00 2B C0
 (078.886466)  can0  464   [8]  A9 E9 68 02 81 EA 05 F9
 (078.928426)  can0  421   [2]  00 00
 (078.999408)  can0  421   [2]  00 00
 (079.006691)  can0  422   [1]  00
 (079.070379)  can0  421   [2]  00 00
 (079.141349)  can0  421   [2]  00 00
 (079.212324)  can0  421   [2]  00 00
 (079.283310)  can0  421   [2]  00 00
 (079.354272)  can0  421   [2]  00 00
 (079.425236)  can0  421   [2]  00 00
 (079.496221)  can0  421   [2]  00 00
 (079.567196)  can0  421   [2]  00 00
 (079.638163)  can0  421   [2]  00 00
 (079.709125)  can0  421   [2]  00 00
 (079.780097)  can0  421   [2]  00 00
 (079.851063)  can0  421   [2]  00 00
 (079.922035)  can0  421   [2]  00 00
 (079.934268)  can0  460   [4]  00 00 2B C0
 (079.934486)  can0  462   [4]  00 00 2B C0
 (079.934690)  can0  464   [8]  A9 E9 68 02 81 EA 05 F9
 (079.993004)  can0  421   [2]  00 00
 (080.006687)  can0  422   [1]  00
 (080.063981)  can0  421   [2]  00 00
 (080.134949)  can0  421   [2]  00 00
 (080.205929)  can0  421   [2]  00 00
 (080.276906)  can0  421   [2]  00 00
 (080.347876)  can0  421   [2]  00 00
 (080.418857)  can0  421   [2]  00 00
 (080.489832)  can0  421   [2]  00 00
 (080.560817)  can0  421   [2]  00 00
 (080.631800)  can0  421   [2]  00 00
 (080.702765)  can0  421   [2]  00 00
 (080.773745)  can0  421   [2]  00 00
 (080.844714)  can0  421   [2]  00 00
 (080.914391)  can0  460   [4]  00 00 2B C0
 (080.914624)  can0  462   [4]  00 00 2B C0
 (080.914821)  can0  464   [8]  A9 E9 68 02 81 EA 05 F9
 (080.915666)  can0  421   [2]  00 00
 (080.986669)  can0  421   [2]  00 00
 (081.006656)  can0  422   [1]  00
 (081.057643)  can0  421   [2]  00 00
 (081.128631)  can0  421   [2]  00 00
 (081.199578)  can0  421   [2]  00 00
 (081.270547)  can0  421   [2]  00 00
 (081.341518)  can0  421   [2]  00 00
 (081.412489)  can0  421   [2]  00 00
 (081.483458)  can0  421   [2]  00 00
 (081.554444)  can0  421   [2]  00 00
 (081.625399)  can0  421   [2]  00 00
 (081.696373)  can0  421   [2]  00 00
 (081.767341)  can0  421   [2]  00 00
 (081.838309)  can0  421   [2]  00 00
 (081.890351)  can0  460   [4]  00 00 2B C0
 (081.890567)  can0  462   [4]  00 00 2B C0
 (081.890761)  can0  464   [8]  A9 E9 68 02 81 EA 05 F9
 (081.909367)  can0  421   [2]  00 00
 (081.980263)  can0  421   [2]  00 00
 (082.006617)  can0  422   [1]  00
 (082.051221)  can0  421   [2]  00 00
 (082.122190)  can0  421   [2]  00 00
 (082.193152)  can0  421   [2]  00 00
 (082.264111)  can0  421   [2]  00 00
 (082.335094)  can0  421   [2]  00 00
 (082.406058)  can0  421   [2]  00 00
 (082.477025)  can0  421   [2]  00 00
 (082.547987)  can0  421   [2]  00 00
 (082.618946)  can0  421   [2]  00 00
 (082.689900)  can0  421   [2]  00 00
 (082.760862)  can0  421   [2]  00 00
 (082.831824)  can0  421   [2]  00 00
 (082.902783)  can0  421   [2]  00 00
 (082.966218)  can0  460   [4]  00 00 2B C0
 (082.966433)  can0  462   [4]  00 00 2B C0
 (082.966625)  can0  464   [8]  A9 E9 68 02 81 EA 05 F9
 (082.973753)  can0  421   [2]  00 00
 (083.006606)  can0  422   [1]  00
 (083.044700)  can0  421   [2]  00 00
 (083.115682)  can0  421   [2]  00 00
 (083.186635)  can0  421   [2]  00 00
 (083.257595)  can0  421   [2]  00 00
 (083.328539)  can0  421   [2]  00 00
 (083.399507)  can0  421   [2]  00 00
 (083.470464)  can0  421   [2]  00 00
 (083.541411)  can0  421   [2]  00 00
 (083.612380)  can0  421   [2]  00 00
 (083.683340)  can0  421   [2]  00 00
 (083.754320)  can0  421   [2]  00 00
 (083.825387)  can0  421   [2]  00 00
 (083.896287)  can0  421   [2]  00 00
 (083.944331)  can0  460   [4]  00 00 27 C0
 (083.944545)  can0  462   [4]  00 00 27 C0
 (083.944743)  can0  464   [8]  DA E9 68 02 81 EA 05 F9
 (083.967307)  can0  421   [2]  00 00
 (084.006569)  can0  422   [1]  00
 (084.038215)  can0  421   [2]  00 00
 (084.109154)  can0  421   [2]  00 00
 (084.180126)  can0  421   [2]  00 00
 (084.251093)  can0  421   [2]  00 00
 (084.322105)  can0  421   [2]  00 00
 (084.393032)  can0  421   [2]  00 00
 (084.464006)  can0  421   [2]  00 00
 (084.534979)  can0  421   [2]  00 00
 (084.605959)  can0  421   [2]  00 00
 (084.676937)  can0  421   [2]  00 00
 (084.747901)  can0  421   [2]  00 00
 (084.818878)  can0  421   [2]  00 00
 (084.889837)  can0  421   [2]  00 00
 (084.960809)  can0  421   [2]  00 00
 (085.006533)  can0  422   [1]  00
 (085.031796)  can0  421   [2]  00 00
 (085.102773)  can0  421   [2]  00 00
 (085.173737)  can0  421   [2]  00 00
 (085.244721)  can0  421   [2]  00 00
 (085.315690)  can0  421   [2]  00 00
 (085.386682)  can0  421   [2]  00 00
 (085.457634)  can0  421   [2]  00 00
 (085.528609)  can0  421   [2]  00 00
 (085.599579)  can0  421   [2]  00 00
 (085.670544)  can0  421   [2]  00 00
 (085.741516)  can0  421   [2]  00 00
 (085.812485)  can0  421   [2]  00 00
 (085.883457)  can0  421   [2]  00 00
 (085.954447)  can0  421   [2]  00 00
 (086.006507)  can0  422   [1]  00
 (086.025418)  can0  421   [2]  00 00
 (086.096393)  can0  421   [2]  00 00
 (086.167377)  can0  421   [2]  00 00
 (086.238353)  can0  421   [2]  00 00
 (086.309420)  can0  421   [2]  00 00
 (086.380301)  can0  421   [2]  00 00
 (086.451259)  can0  421   [2]  00 00
 (086.522218)  can0  421   [2]  00 00
 (086.593172)  can0  421   [2]  00 00
 (086.664137)  can0  421   [2]  00 00
 (086.735089)  can0  421   [2]  00 00
 (086.806061)  can0  421   [2]  00 00
 (086.877010)  can0  421   [2]  00 00
 (086.947963)  can0  421   [2]  00 00
 (087.006487)  can0  422   [1]  00
 (087.018924)  can0  421   [2]  00 00
 (087.089906)  can0  421   [2]  00 00
 (087.160856)  can0  421   [2]  00 00
 (087.231817)  can0  421   [2]  00 00
 (087.302778)  can0  421   [2]  00 00
 (087.373733)  can0  421   [2]  00 00
 (087.444704)  can0  421   [2]  00 00
 (087.515657)  can0  421   [2]  00 00
 (087.586608)  can0  421   [2]  00 00
 (087.657577)  can0  421   [2]  00 00
 (087.728529)  can0  421   [2]  00 00
 (087.799484)  can0  421   [2]  00 00
 (087.870445)  can0  421   [2]  00 00
 (087.941406)  can0  421   [2]  00 00
 (088.006457)  can0  422   [1]  00
 (088.012339)  can0  421   [2]  00 00
 (088.083317)  can0  421   [2]  00 00
 (088.154260)  can0  421   [2]  00 00
 (088.225216)  can0  421   [2]  00 00
 (088.296172)  can0  421   [2]  00 00
 (088.367129)  can0  421   [2]  00 00
 (088.438091)  can0  421   [2]  00 00
 (088.509091)  can0  421   [2]  00 00
 (088.580031)  can0  421   [2]  00 00
 (088.650978)  can0  421   [2]  00 00
 (088.721937)  can0  421   [2]  00 00
 (088.792898)  can0  421   [2]  00 00
 (088.863868)  can0  421   [2]  00 00
 (088.934811)  can0  421   [2]  00 00
 (089.005778)  can0  421   [2]  00 00
 (089.006389)  can0  422   [1]  00
 (089.076747)  can0  421   [2]  00 00
 (089.147696)  can0  421   [2]  00 00
 (089.218661)  can0  421   [2]  00 00
 (089.289630)  can0  421   [2]  00 00
 (089.360580)  can0  421   [2]  00 00
 (089.431537)  can0  421   [2]  00 00
 (089.502499)  can0  421   [2]  00 00
 (089.573458)  can0  421   [2]  00 00
 (089.644421)  can0  421   [2]  00 00
 (089.715379)  can0  421   [2]  00 00
 (089.786410)  can0  421   [2]  00 00
 (089.857291)  can0  421   [2]  00 00
 (089.928263)  can0  421   [2]  00 00
 (089.999225)  can0  421   [2]  00 00
 (090.006417)  can0  422   [1]  00
 (090.070169)  can0  421   [2]  00 00
 (090.141131)  can0  421   [2]  00 00
 (090.212088)  can0  421   [2]  00 00
 (090.283057)  can0  421   [2]  00 00
 (090.354007)  can0  421   [2]  00 00
 (090.424976)  can0  421   [2]  00 00
 (090.495937)  can0  421   [2]  00 00
 (090.566907)  can0  421   [2]  00 00
 (090.637878)  can0  421   [2]  00 00
 (090.708837)  can0  421   [2]  00 00
 (090.779817)  can0  421   [2]  00 00
 (090.850764)  can0  421   [2]  00 00
 (090.921724)  can0  421   [2]  00 00
 (090.992694)  can0  421   [2]  00 00
 (091.006340)  can0  422   [1]  00
 (091.063654)  can0  421   [2]  00 00
 (091.134612)  can0  421   [2]  00 00
 (091.205604)  can0  421   [2]  00 00
 (091.276559)  can0  421   [2]  00 00
 (091.347506)  can0  421   [2]  00 00
 (091.418467)  can0  421   [2]  00 00
 (091.489423)  can0  421   [2]  00 00
 (091.560385)  can0  421   [2]  00 00
 (091.631349)  can0  421   [2]  00 00
 (091.702323)  can0  421   [2]  00 00
 (091.773377)  can0  421   [2]  00 00
 (091.915223)  can0  421   [2]  00 00
 (091.986187)  can0  421   [2]  00 00
 (092.006309)  can0  422   [1]  00
 (092.057154)  can0  421   [2]  00 00
 (092.128114)  can0  421   [2]  00 00
 (092.199253)  can0  421   [2]  00 00
 (092.270035)  can0  421   [2]  00 00
 (092.341004)  can0  421   [2]  00 00
 (092.411977)  can0  421   [2]  00 00
 (092.482929)  can0  421   [2]  00 00
 (092.553885)  can0  421   [2]  00 00
 (092.624855)  can0  421   [2]  00 00
 (092.695856)  can0  421   [2]  00 00
 (092.766786)  can0  421   [2]  00 00
 (092.837752)  can0  421   [2]  00 00
 (092.908718)  can0  421   [2]  00 00
 (092.979707)  can0  421   [2]  00 00
 (093.006292)  can0  422   [1]  00
 (093.050640)  can0  421   [2]  00 00
 (093.121600)  can0  421   [2]  00 00
 (093.192575)  can0  421   [2]  00 00
 (093.263536)  can0  421   [2]  00 00
 (093.334495)  can0  421   [2]  00 00
 (093.405475)  can0  421   [2]  00 00
 (093.476429)  can0  421   [2]  00 00
 (093.547391)  can0  421   [2]  00 00
 (093.618347)  can0  421   [2]  00 00
 (093.689295)  can0  421   [2]  00 00
 (093.760265)  can0  421   [2]  00 00
 (093.831219)  can0  421   [2]  00 00
 (093.902182)  can0  421   [2]  00 00
 (093.973139)  can0  421   [2]  00 00
 (094.006256)  can0  422   [1]  00
 (094.044106)  can0  421   [2]  00 00
 (094.115069)  can0  421   [2]  00 00
 (094.186022)  can0  421   [2]  00 00
 (094.256985)  can0  421   [2]  00 00
 (094.327953)  can0  421   [2]  00 00
 (094.398916)  can0  421   [2]  00 00
 (094.469882)  can0  421   [2]  00 00
 (094.540853)  can0  421   [2]  00 00
 (094.611814)  can0  421   [2]  00 00
 (094.682773)  can0  421   [2]  00 00
 (094.753733)  can0  421   [2]  00 00
 (094.824692)  can0  421   [2]  00 00
 (094.895678)  can0  421   [2]  00 00
 (094.966731)  can0  421   [2]  00 00
 (095.006241)  can0  422   [1]  00
 (095.037614)  can0  421   [2]  00 00
 (095.108579)  can0  421   [2]  00 00
 (095.179543)  can0  421   [2]  00 00
 (095.250499)  can0  421   [2]  00 00
 (095.321454)  can0  421   [2]  00 00
 (095.392411)  can0  421   [2]  00 00
 (095.463367)  can0  421   [2]  00 00
 (095.534331)  can0  421   [2]  00 00
 (095.605289)  can0  421   [2]  00 00
 (095.676269)  can0  421   [2]  00 00
 (095.747215)  can0  421   [2]  00 00
 (095.818162)  can0  421   [2]  00 00
 (095.889134)  can0  421   [2]  00 00
 (095.960085)  can0  421   [2]  00 00
 (096.006208)  can0  422   [1]  00
 (096.031022)  can0  421   [2]  00 00
 (096.101982)  can0  421   [2]  00 00
 (096.172926)  can0  421   [2]  00 00
 (096.243877)  can0  421   [2]  00 00
 (096.314833)  can0  421   [2]  00 00
 (096.385796)  can0  421   [2]  00 00
 (096.456752)  can0  421   [2]  00 00
 (096.527714)  can0  421   [2]  00 00
 (096.598673)  can0  421   [2]  00 00
 (096.669632)  can0  421   [2]  00 00
 (096.740597)  can0  421   [2]  00 00
 (096.811562)  can0  421   [2]  00 00
 (096.882543)  can0  421   [2]  00 00
 (096.953506)  can0  421   [2]  00 00
 (097.006179)  can0  422   [1]  00
 (097.024455)  can0  421   [2]  00 00
 (097.095448)  can0  421   [2]  00 00
 (097.166406)  can0  421   [2]  00 00
 (097.237364)  can0  421   [2]  00 00
 (097.308342)  can0  421   [2]  00 00
 (097.379301)  can0  421   [2]  00 00
 (097.450266)  can0  421   [2]  00 00
 (097.521221)  can0  421   [2]  00 00
 (097.592177)  can0  421   [2]  00 00
 (097.663126)  can0  421   [2]  00 00
 (097.734084)  can0  421   [2]  00 00
 (097.805036)  can0  421   [2]  00 00
 (097.875988)  can0  421   [2]  00 00
 (097.946938)  can0  421   [2]  00 00
 (098.006160)  can0  422   [1]  00
 (098.017889)  can0  421   [2]  00 00
 (098.088841)  can0  421   [2]  00 00
 (098.159784)  can0  421   [2]  00 00
 (098.230726)  can0  421   [2]  00 00
 (098.301675)  can0  421   [2]  00 00
 (098.372632)  can0  421   [2]  00 00
 (098.443600)  can0  421   [2]  00 00
 (098.514548)  can0  421   [2]  00 00
 (098.585488)  can0  421   [2]  00 00
 (098.656451)  can0  421   [2]  00 00
 (098.727408)  can0  421   [2]  00 00
 (098.798363)  can0  421   [2]  00 00
 (098.869321)  can0  421   [2]  00 00
 (098.940282)  can0  421   [2]  00 00
 (099.006117)  can0  422   [1]  00
 (099.011276)  can0  421   [2]  00 00
 (099.082205)  can0  421   [2]  00 00
 (099.153167)  can0  421   [2]  00 00
 (099.224124)  can0  421   [2]  00 00
 (099.295088)  can0  421   [2]  00 00
 (099.366046)  can0  421   [2]  00 00
 (099.436980)  can0  421   [2]  00 00
 (099.507934)  can0  421   [2]  00 00
 (099.578886)  can0  421   [2]  00 00
 (099.649845)  can0  421   [2]  00 00
 (099.720803)  can0  421   [2]  00 00
 (099.791757)  can0  421   [2]  00 00
 (099.862715)  can0  421   [2]  00 00
 (099.933657)  can0  421   [2]  00 00
 (100.004594)  can0  421   [2]  00 00
 (100.006060)  can0  422   [1]  00
 (100.075548)  can0  421   [2]  00 00
 (100.146493)  can0  421   [2]  00 00
 (100.217436)  can0  421   [2]  00 00
 (100.288392)  can0  421   [2]  00 00
 (100.359346)  can0  421   [2]  00 00
 (100.430302)  can0  421   [2]  00 00
 (100.501268)  can0  421   [2]  00 00
 (100.572202)  can0  421   [2]  00 00
 (100.643152)  can0  421   [2]  00 00
 (100.714113)  can0  421   [2]  00 00
 (100.785071)  can0  421   [2]  00 00
 (100.856031)  can0  421   [2]  00 00
 (100.926982)  can0  421   [2]  00 00
 (100.997928)  can0  421   [2]  00 00
 (101.006053)  can0  422   [1]  00
 (101.068867)  can0  421   [2]  00 00
 (101.139795)  can0  421   [2]  00 00
 (101.210729)  can0  421   [2]  00 00
 (101.281670)  can0  421   [2]  00 00
 (101.352603)  can0  421   [2]  00 00
 (101.423531)  can0  421   [2]  00 00
 (101.494469)  can0  421   [2]  00 00
 (101.565391)  can0  421   [2]  00 00
 (101.636322)  can0  421   [2]  00 00
 (101.707253)  can0  421   [2]  00 00
 (101.778182)  can0  421   [2]  00 00
 (101.849117)  can0  421   [2]  00 00
 (101.920040)  can0  421   [2]  00 00
 (101.990955)  can0  421   [2]  00 00
 (102.006008)  can0  422   [1]  00
 (102.061879)  can0  421   [2]  00 00
 (102.132812)  can0  421   [2]  00 00
 (102.203757)  can0  421   [2]  00 00
 (102.274692)  can0  421   [2]  00 00
 (102.345619)  can0  421   [2]  00 00
 (102.416555)  can0  421   [2]  00 00
 (102.487482)  can0  421   [2]  00 00
 (102.558423)  can0  421   [2]  00 00
 (102.629361)  can0  421   [2]  00 00
 (102.700314)  can0  421   [2]  00 00
 (102.771245)  can0  421   [2]  00 00
 (102.842187)  can0  421   [2]  00 00
 (102.913129)  can0  421   [2]  00 00
 (102.984065)  can0  421   [2]  00 00
 (103.005996)  can0  422   [1]  00
 (103.055023)  can0  421   [2]  00 00
 (103.125951)  can0  421   [2]  00 00
 (103.196884)  can0  421   [2]  00 00
 (103.267815)  can0  421   [2]  00 00
 (103.338764)  can0  421   [2]  00 00
 (103.409709)  can0  421   [2]  00 00
 (103.480643)  can0  421   [2]  00 00
 (103.551574)  can0  421   [2]  00 00
 (103.622523)  can0  421   [2]  00 00
 (103.693457)  can0  421   [2]  00 00
 (103.764393)  can0  421   [2]  00 00
 (103.835335)  can0  421   [2]  00 00
 (103.906270)  can0  421   [2]  00 00
 (103.977203)  can0  421   [2]  00 00
 (104.005958)  can0  422   [1]  00
 (104.048141)  can0  421   [2]  00 00
 (104.119074)  can0  421   [2]  00 00
 (104.190033)  can0  421   [2]  00 00
 (104.260963)  can0  421   [2]  00 00
 (104.331899)  can0  421   [2]  00 00
 (104.402844)  can0  421   [2]  00 00
 (104.473779)  can0  421   [2]  00 00
 (104.544732)  can0  421   [2]  00 00
 (104.615687)  can0  421   [2]  00 00
 (104.686605)  can0  421   [2]  00 00
 (104.757543)  can0  421   [2]  00 00
 (104.828483)  can0  421   [2]  00 00
 (104.899417)  can0  421   [2]  00 00
 (104.970351)  can0  421   [2]  00 00
 (105.005944)  can0  422   [1]  00
 (105.041271)  can0  421   [2]  00 00
 (105.112215)  can0  421   [2]  00 00
 (105.183152)  can0  421   [2]  00 00
 (105.254091)  can0  421   [2]  00 00
 (105.325020)  can0  421   [2]  00 00
 (105.395967)  can0  421   [2]  00 00
 (105.466915)  can0  421   [2]  00 00
 (105.537852)  can0  421   [2]  00 00
 (105.608783)  can0  421   [2]  00 00
 (105.679735)  can0  421   [2]  00 00
 (105.750670)  can0  421   [2]  00 00
 (105.821602)  can0  421   [2]  00 00
 (105.892561)  can0  421   [2]  00 00
 (105.963490)  can0  421   [2]  00 00
 (106.005911)  can0  422   [1]  00
 (106.034491)  can0  421   [2]  00 00
 (106.105365)  can0  421   [2]  00 00
 (106.176296)  can0  421   [2]  00 00
 (106.247235)  can0  421   [2]  00 00
 (106.318177)  can0  421   [2]  00 00
 (106.389112)  can0  421   [2]  00 00
 (106.460062)  can0  421   [2]  00 00
 (106.531002)  can0  421   [2]  00 00
 (106.601951)  can0  421   [2]  00 00
 (106.672895)  can0  421   [2]  00 00
 (106.743841)  can0  421   [2]  00 00
 (106.814783)  can0  421   [2]  00 00
 (106.885730)  can0  421   [2]  00 00
 (106.956672)  can0  421   [2]  00 00
 (107.005874)  can0  422   [1]  00
 (107.027599)  can0  421   [2]  00 00
 (107.098546)  can0  421   [2]  00 00
 (107.169496)  can0  421   [2]  00 00
 (107.240437)  can0  421   [2]  00 00
 (107.311371)  can0  421   [2]  00 00
 (107.382310)  can0  421   [2]  00 00
 (107.453262)  can0  421   [2]  00 00
 (107.524213)  can0  421   [2]  00 00
 (107.595144)  can0  421   [2]  00 00
 (107.666078)  can0  421   [2]  00 00
 (107.737022)  can0  421   [2]  00 00
 (107.807966)  can0  421   [2]  00 00
 (107.878901)  can0  421   [2]  00 00
 (107.908987)  can0  460   [4]  00 00 2B C0
 (107.909438)  can0  462   [4]  00 00 2B C0
 (107.909686)  can0  464   [8]  AA E9 68 02 81 EA 05 F9
 (107.949849)  can0  421   [2]  00 00
 (108.005851)  can0  422   [1]  00
 (108.020766)  can0  421   [2]  00 00
 (108.091744)  can0  421   [2]  00 00
 (108.162678)  can0  421   [2]  00 00
 (108.233624)  can0  421   [2]  00 00
 (108.304564)  can0  421   [2]  00 00
 (108.375535)  can0  421   [2]  00 00
 (108.446477)  can0  421   [2]  00 00
 (108.517418)  can0  421   [2]  00 00
 (108.588369)  can0  421   [2]  00 00
 (108.659315)  can0  421   [2]  00 00
 (108.730267)  can0  421   [2]  00 00
 (108.801214)  can0  421   [2]  00 00
 (108.872156)  can0  421   [2]  00 00
 (108.901526)  can0  460   [4]  00 00 2B C0
 (108.901731)  can0  462   [4]  12 00 2B C0
 (108.901929)  can0  464   [8]  AA E9 68 02 81 EA 05 F9
 (108.943101)  can0  421   [2]  00 00
 (109.005828)  can0  422   [1]  00
 (109.014046)  can0  421   [2]  00 00
 (109.084996)  can0  421   [2]  00 00
 (109.155947)  can0  421   [2]  00 00
 (109.226880)  can0  421   [2]  00 00
 (109.297824)  can0  421   [2]  00 00
 (109.368776)  can0  421   [2]  00 00
 (109.439726)  can0  421   [2]  00 00
 (109.510663)  can0  421   [2]  00 00
 (109.581613)  can0  421   [2]  00 00
 (109.652548)  can0  421   [2]  00 00
 (109.723495)  can0  421   [2]  00 00
 (109.794433)  can0  421   [2]  00 00
 (109.865377)  can0  421   [2]  00 00
 (109.901637)  can0  460   [4]  00 00 2B C0
 (109.901899)  can0  464   [8]  AA E9 68 02 81 EA 05 F9
 (109.902473)  can0  462   [4]  12 00 2B C0
 (109.902678)  can0  468   [2]  96 00
 (109.936353)  can0  421   [2]  00 00
 (110.005801)  can0  422   [1]  00
 (110.007280)  can0  421   [2]  00 00
 (110.078197)  can0  421   [2]  00 00
 (110.149133)  can0  421   [2]  00 00
 (110.220088)  can0  421   [2]  00 00
 (110.291021)  can0  421   [2]  00 00
 (110.361971)  can0  421   [2]  00 00
 (110.432924)  can0  421   [2]  00 00
 (110.503870)  can0  421   [2]  00 00
 (110.574811)  can0  421   [2]  00 00
 (110.645748)  can0  421   [2]  00 00
 (110.716686)  can0  421   [2]  00 00
 (110.787623)  can0  421   [2]  00 00
 (110.858565)  can0  421   [2]  00 00
 (110.901485)  can0  460   [4]  00 00 2B C0
 (110.901695)  can0  462   [4]  25 00 2B C0
 (110.901894)  can0  464   [8]  AB E9 68 02 81 EA 05 F9
 (110.929596)  can0  421   [2]  00 00
 (111.000454)  can0  421   [2]  00 00
 (111.005739)  can0  422   [1]  00
 (111.071394)  can0  421   [2]  00 00
 (111.142341)  can0  421   [2]  00 00
 (111.213283)  can0  421   [2]  00 00
 (111.284216)  can0  421   [2]  00 00
 (111.355161)  can0  421   [2]  00 00
 (111.426100)  can0  421   [2]  00 00
 (111.497039)  can0  421   [2]  00 00
 (111.567987)  can0  421   [2]  00 00
 (111.638938)  can0  421   [2]  00 00
 (111.709879)  can0  421   [2]  00 00
 (111.780825)  can0  421   [2]  00 00
 (111.851767)  can0  421   [2]  00 00
 (111.905521)  can0  460   [4]  00 00 2B C0
 (111.905737)  can0  462   [4]  25 00 2B C0
 (111.905933)  can0  464   [8]  AC E9 68 02 81 EA 05 F9
 (111.922705)  can0  421   [2]  00 00
 (111.993652)  can0  421   [2]  00 00
 (112.005709)  can0  422   [1]  00
 (112.064584)  can0  421   [2]  00 00
 (112.135522)  can0  421   [2]  00 00
 (112.206459)  can0  421   [2]  00 00
 (112.277399)  can0  421   [2]  00 00
 (112.348339)  can0  421   [2]  00 00
 (112.419288)  can0  421   [2]  00 00
 (112.490222)  can0  421   [2]  00 00
 (112.561160)  can0  421   [2]  00 00
 (112.632087)  can0  421   [2]  00 00
 (112.703014)  can0  421   [2]  00 00
 (112.773949)  can0  421   [2]  00 00
 (112.844887)  can0  421   [2]  00 00
 (112.910544)  can0  460   [4]  00 00 24 C0
 (112.910759)  can0  462   [4]  25 00 24 C0
 (112.910951)  can0  464   [8]  DA E9 68 02 C0 EA 05 F9
 (112.915866)  can0  421   [2]  00 00
 (112.986749)  can0  421   [2]  00 00
 (113.005680)  can0  422   [1]  00
 (113.057679)  can0  421   [2]  00 00
 (113.128618)  can0  421   [2]  00 00
 (113.199548)  can0  421   [2]  00 00
 (113.270492)  can0  421   [2]  00 00
 (113.341424)  can0  421   [2]  00 00
 (113.412365)  can0  421   [2]  00 00
 (113.483289)  can0  421   [2]  00 00
 (113.554246)  can0  421   [2]  00 00
 (113.625168)  can0  421   [2]  00 00
 (113.696105)  can0  421   [2]  00 00
 (113.767037)  can0  421   [2]  00 00
 (113.837969)  can0  421   [2]  00 00
 (113.908900)  can0  421   [2]  00 00
 (113.911688)  can0  460   [4]  00 00 24 C0
 (113.911941)  can0  464   [8]  DB E9 68 02 C1 EA 05 F9
 (113.912548)  can0  462   [4]  12 00 24 C0
 (113.912747)  can0  468   [2]  96 00
 (113.979835)  can0  421   [2]  00 00
 (114.005667)  can0  422   [1]  00
 (114.050766)  can0  421   [2]  00 00
 (114.121700)  can0  421   [2]  00 00
 (114.192636)  can0  421   [2]  00 00
 (114.263571)  can0  421   [2]  00 00
 (114.334510)  can0  421   [2]  00 00
 (114.405436)  can0  421   [2]  00 00
 (114.476357)  can0  421   [2]  00 00
 (114.547300)  can0  421   [2]  00 00
 (114.618231)  can0  421   [2]  00 00
 (114.689167)  can0  421   [2]  00 00
 (114.760101)  can0  421   [2]  00 00
 (114.831031)  can0  421   [2]  00 00
 (114.901959)  can0  421   [2]  00 00
 (114.915486)  can0  460   [4]  00 00 24 C0
 (114.915699)  can0  462   [4]  12 00 24 C0
 (114.915895)  can0  464   [8]  DC E9 68 02 C1 EA 05 F9
 (114.972893)  can0  421   [2]  00 00
 (115.005645)  can0  422   [1]  00
 (115.043821)  can0  421   [2]  00 00
 (115.114756)  can0  421   [2]  00 00
 (115.185696)  can0  421   [2]  00 00
 (115.256639)  can0  421   [2]  00 00
 (115.327570)  can0  421   [2]  00 00
 (115.398501)  can0  421   [2]  00 00
 (115.469447)  can0  421   [2]  00 00
 (115.540387)  can0  421   [2]  00 00
 (115.611335)  can0  421   [2]  00 00
 (115.682285)  can0  421   [2]  00 00
 (115.753237)  can0  421   [2]  00 00
 (115.824173)  can0  421   [2]  00 00
 (115.895127)  can0  421   [2]  00 00
 (115.915295)  can0  460   [4]  00 00 23 C0
 (115.915508)  can0  462   [4]  00 00 23 C0
 (115.915702)  can0  464   [8]  DD E9 68 02 C2 EA 05 F9
 (115.966087)  can0  421   [2]  00 00
 (116.005614)  can0  422   [1]  00
 (116.037020)  can0  421   [2]  00 00
 (116.107975)  can0  421   [2]  00 00
 (116.178919)  can0  421   [2]  00 00
 (116.249863)  can0  421   [2]  00 00
 (116.320808)  can0  421   [2]  00 00
 (116.391781)  can0  421   [2]  00 00
 (116.462709)  can0  421   [2]  00 00
 (116.533657)  can0  421   [2]  00 00
 (116.604605)  can0  421   [2]  00 00
 (116.675567)  can0  421   [2]  00 00
 (116.746523)  can0  421   [2]  00 00
 (116.817460)  can0  421   [2]  00 00
 (116.888430)  can0  421   [2]  00 00
 (116.911231)  can0  460   [4]  00 00 23 C0
 (116.911444)  can0  462   [4]  00 00 23 C0
 (116.911641)  can0  464   [8]  DE E9 68 02 C2 EA 05 F9
 (116.959607)  can0  421   [2]  00 00
 (117.005578)  can0  422   [1]  00
 (117.030329)  can0  421   [2]  00 00
 (117.101279)  can0  421   [2]  00 00
 (117.172224)  can0  421   [2]  00 00
 (117.243176)  can0  421   [2]  00 00
 (117.314129)  can0  421   [2]  00 00
 (117.385085)  can0  421   [2]  00 00
 (117.456042)  can0  421   [2]  00 00
 (117.527009)  can0  421   [2]  00 00
 (117.597954)  can0  421   [2]  00 00
 (117.668895)  can0  421   [2]  00 00
 (117.739843)  can0  421   [2]  00 00
 (117.810786)  can0  421   [2]  00 00
 (117.881737)  can0  421   [2]  00 00
 (117.909357)  can0  460   [4]  00 00 23 C0
 (117.909572)  can0  462   [4]  00 00 23 C0
 (117.909764)  can0  464   [8]  DF E9 68 02 C2 EA 05 F9
 (117.952671)  can0  421   [2]  00 00
 (118.005550)  can0  422   [1]  00
 (118.023629)  can0  421   [2]  00 00
 (118.094590)  can0  421   [2]  00 00
 (118.165537)  can0  421   [2]  00 00
 (118.236485)  can0  421   [2]  00 00
 (118.307434)  can0  421   [2]  00 00
 (118.378390)  can0  421   [2]  00 00
 (118.449325)  can0  421   [2]  00 00
 (118.520275)  can0  421   [2]  00 00
 (118.591216)  can0  421   [2]  00 00
 (118.662168)  can0  421   [2]  00 00
 (118.733115)  can0  421   [2]  00 00
 (118.804062)  can0  421   [2]  00 00
 (118.875008)  can0  421   [2]  00 00
 (118.907350)  can0  460   [4]  00 00 23 C0
 (118.907564)  can0  462   [4]  00 00 23 C0
 (118.907761)  can0  464   [8]  DE E9 68 02 C0 EA 05 F9
 (118.945973)  can0  421   [2]  00 00
 (119.005521)  can0  422   [1]  00
 (119.016914)  can0  421   [2]  00 00
 (119.087883)  can0  421   [2]  00 00
 (119.158825)  can0  421   [2]  00 00
 (119.229774)  can0  421   [2]  00 00
 (119.300730)  can0  421   [2]  00 00
 (119.371678)  can0  421   [2]  00 00
 (119.442626)  can0  421   [2]  00 00
 (119.513576)  can0  421   [2]  00 00
 (119.584518)  can0  421   [2]  00 00
 (119.655469)  can0  421   [2]  00 00
 (119.726404)  can0  421   [2]  00 00
 (119.797357)  can0  421   [2]  00 00
 (119.868284)  can0  421   [2]  00 00
 (119.903363)  can0  460   [4]  00 00 24 C0
 (119.903629)  can0  462   [4]  00 00 24 C0
 (119.903871)  can0  464   [8]  DD E9 68 02 BE EA 05 F9
 (119.939343)  can0  421   [2]  00 00
 (120.005496)  can0  422   [1]  00
 (120.010133)  can0  421   [2]  00 00
 (120.081103)  can0  421   [2]  00 00
 (120.152035)  can0  421   [2]  00 00
 (120.222993)  can0  421   [2]  00 00
 (120.293931)  can0  421   [2]  00 00
 (120.364861)  can0  421   [2]  00 00
 (120.435800)  can0  421   [2]  00 00
 (120.506742)  can0  421   [2]  00 00
 (120.577687)  can0  421   [2]  00 00
 (120.648633)  can0  421   [2]  00 00
 (120.719593)  can0  421   [2]  00 00
 (120.790509)  can0  421   [2]  00 00
 (120.861452)  can0  421   [2]  00 00
 (120.903757)  can0  460   [4]  00 00 24 C0
 (120.904019)  can0  464   [8]  DD E9 68 02 BD EA 05 F9
 (120.904674)  can0  462   [4]  25 00 24 C0
 (120.904890)  can0  468   [2]  96 00
 (120.932391)  can0  421   [2]  00 00
 (121.003323)  can0  421   [2]  00 00
 (121.005438)  can0  422   [1]  00
 (121.074281)  can0  421   [2]  00 00
 (121.145212)  can0  421   [2]  00 00
 (121.216166)  can0  421   [2]  00 00
 (121.287100)  can0  421   [2]  00 00
 (121.358043)  can0  421   [2]  00 00
 (121.428985)  can0  421   [2]  00 00
 (121.499923)  can0  421   [2]  00 00
 (121.570874)  can0  421   [2]  00 00
 (121.641833)  can0  421   [2]  00 00
 (121.712774)  can0  421   [2]  00 00
 (121.783714)  can0  421   [2]  00 00
 (121.854665)  can0  421   [2]  00 00
 (121.905662)  can0  460   [4]  00 00 23 C0
 (121.905878)  can0  462   [4]  81 00 23 C0
 (121.906072)  can0  464   [8]  E2 E9 68 02 BD EA 05 F9
 (121.925610)  can0  421   [2]  00 00
 (121.996562)  can0  421   [2]  00 00
 (122.005416)  can0  422   [1]  00
 (122.067488)  can0  421   [2]  00 00
 (122.138439)  can0  421   [2]  00 00
 (122.209369)  can0  421   [2]  00 00
 (122.280322)  can0  421   [2]  00 00
 (122.351251)  can0  421   [2]  00 00
 (122.422190)  can0  421   [2]  00 00
 (122.493127)  can0  421   [2]  00 00
 (122.564083)  can0  421   [2]  00 00
 (122.635009)  can0  421   [2]  00 00
 (122.705947)  can0  421   [2]  00 00
 (122.776885)  can0  421   [2]  00 00
 (122.847830)  can0  421   [2]  00 00
 (122.909504)  can0  460   [4]  03 00 23 C0
 (122.909716)  can0  462   [4]  4A 00 23 C0
 (122.909907)  can0  464   [8]  E1 E9 68 02 BC EA 05 F9
 (122.918961)  can0  421   [2]  00 00
 (122.989711)  can0  421   [2]  00 00
 (123.005399)  can0  422   [1]  00
 (123.060650)  can0  421   [2]  00 00
 (123.131609)  can0  421   [2]  00 00
 (123.202541)  can0  421   [2]  00 00
 (123.273487)  can0  421   [2]  00 00
 (123.344429)  can0  421   [2]  00 00
 (123.415370)  can0  421   [2]  00 00
 (123.486311)  can0  421   [2]  00 00
 (123.557261)  can0  421   [2]  00 00
 (123.628184)  can0  421   [2]  00 00
 (123.699129)  can0  421   [2]  00 00
 (123.770069)  can0  421   [2]  00 00
 (123.841003)  can0  421   [2]  00 00
 (123.911951)  can0  421   [2]  00 00
 (123.917153)  can0  460   [4]  05 00 24 C0
 (123.917353)  can0  462   [4]  25 00 24 C0
 (123.917550)  can0  464   [8]  DD E9 68 02 BA EA 05 F9
 (123.982910)  can0  421   [2]  00 00
 (124.005370)  can0  422   [1]  00
 (124.053861)  can0  421   [2]  00 00
 (124.124793)  can0  421   [2]  00 00
 (124.195743)  can0  421   [2]  00 00
 (124.266693)  can0  421   [2]  00 00
 (124.337642)  can0  421   [2]  00 00
 (124.408599)  can0  421   [2]  00 00
 (124.479538)  can0  421   [2]  00 00
 (124.550498)  can0  421   [2]  00 00
 (124.621444)  can0  421   [2]  00 00
 (124.692391)  can0  421   [2]  00 00
 (124.763330)  can0  421   [2]  00 00
 (124.834270)  can0  421   [2]  00 00
 (124.905222)  can0  421   [2]  00 00
 (124.921265)  can0  460   [4]  00 00 24 C0
 (124.921470)  can0  462   [4]  25 00 24 C0
 (124.921660)  can0  464   [8]  D9 E9 68 02 B8 EA 05 F9
 (124.976172)  can0  421   [2]  00 00
 (125.005424)  can0  422   [1]  00
 (125.047116)  can0  421   [2]  00 00
 (125.118057)  can0  421   [2]  00 00
 (125.189007)  can0  421   [2]  00 00
 (125.259959)  can0  421   [2]  00 00
 (125.330902)  can0  421   [2]  00 00
 (125.401857)  can0  421   [2]  00 00
 (125.472809)  can0  421   [2]  00 00
 (125.543766)  can0  421   [2]  00 00
 (125.614714)  can0  421   [2]  00 00
 (125.685661)  can0  421   [2]  00 00
 (125.756616)  can0  421   [2]  00 00
 (125.827571)  can0  421   [2]  00 00
 (125.898525)  can0  421   [2]  00 00
 (125.927658)  can0  460   [4]  00 00 24 C0
 (125.927871)  can0  462   [4]  12 00 24 C0
 (125.928066)  can0  464   [8]  D7 E9 68 02 B7 EA 05 F9
 (125.969482)  can0  421   [2]  00 00
 (126.005313)  can0  422   [1]  00
 (126.040419)  can0  421   [2]  00 00
 (126.111371)  can0  421   [2]  00 00
 (126.182318)  can0  421   [2]  00 00
 (126.253273)  can0  421   [2]  00 00
 (126.324231)  can0  421   [2]  00 00
 (126.395172)  can0  421   [2]  00 00
 (126.466132)  can0  421   [2]  00 00
 (126.537069)  can0  421   [2]  00 00
 (126.608011)  can0  421   [2]  00 00
 (126.678960)  can0  421   [2]  00 00
 (126.749896)  can0  421   [2]  00 00
 (126.820828)  can0  421   [2]  00 00
 (126.891772)  can0  421   [2]  00 00
 (126.933392)  can0  460   [4]  00 00 25 C0
 (126.933600)  can0  462   [4]  12 00 25 C0
 (126.933796)  can0  464   [8]  D7 E9 68 02 B4 EA 05 F9
 (126.962800)  can0  421   [2]  00 00
 (127.005286)  can0  422   [1]  00
 (127.033658)  can0  421   [2]  00 00
 (127.104607)  can0  421   [2]  00 00
 (127.175551)  can0  421   [2]  00 00
 (127.246489)  can0  421   [2]  00 00
 (127.317436)  can0  421   [2]  00 00
 (127.388383)  can0  421   [2]  00 00
 (127.459338)  can0  421   [2]  00 00
 (127.530273)  can0  421   [2]  00 00
 (127.601218)  can0  421   [2]  00 00
 (127.672152)  can0  421   [2]  00 00
 (127.743108)  can0  421   [2]  00 00
 (127.814048)  can0  421   [2]  00 00
 (127.884982)  can0  421   [2]  00 00
 (127.939618)  can0  460   [4]  00 00 25 C0
 (127.939832)  can0  462   [4]  12 00 25 C0
 (127.940028)  can0  464   [8]  D7 E9 68 02 B1 EA 05 F9
 (127.955916)  can0  421   [2]  00 00
 (128.005251)  can0  422   [1]  00
 (128.026855)  can0  421   [2]  00 00
 (128.097794)  can0  421   [2]  00 00
 (128.168744)  can0  421   [2]  00 00
 (128.239684)  can0  421   [2]  00 00
 (128.310613)  can0  421   [2]  00 00
 (128.381553)  can0  421   [2]  00 00
 (128.452489)  can0  421   [2]  00 00
 (128.523423)  can0  421   [2]  00 00
 (128.594375)  can0  421   [2]  00 00
 (128.665307)  can0  421   [2]  00 00
 (128.736259)  can0  421   [2]  00 00
 (128.807195)  can0  421   [2]  00 00
 (128.878126)  can0  421   [2]  00 00
 (128.947608)  can0  460   [4]  00 00 25 C0
 (128.947823)  can0  462   [4]  00 00 25 C0
 (128.948018)  can0  464   [8]  D6 E9 68 02 AF EA 05 F9
 (128.949075)  can0  421   [2]  00 00
 (129.005224)  can0  422   [1]  00
 (129.020024)  can0  421   [2]  00 00
 (129.090969)  can0  421   [2]  00 00
 (129.161914)  can0  421   [2]  00 00
 (129.232856)  can0  421   [2]  00 00
 (129.303793)  can0  421   [2]  00 00
 (129.374729)  can0  421   [2]  00 00
 (129.445672)  can0  421   [2]  00 00
 (129.516607)  can0  421   [2]  00 00
 (129.587547)  can0  421   [2]  00 00
 (129.658493)  can0  421   [2]  00 00
 (129.729444)  can0  421   [2]  00 00
 (129.800392)  can0  421   [2]  00 00
 (129.871319)  can0  421   [2]  00 00
 (129.942255)  can0  421   [2]  00 00
 (129.951606)  can0  460   [4]  00 00 25 C0
 (129.951806)  can0  462   [4]  00 00 25 C0
 (129.952005)  can0  464   [8]  D6 E9 68 02 AE EA 05 F9
 (130.005189)  can0  422   [1]  00
 (130.013170)  can0  421   [2]  00 00
 (130.084135)  can0  421   [2]  00 00
 (130.155063)  can0  421   [2]  00 00
 (130.226004)  can0  421   [2]  00 00
 (130.296936)  can0  421   [2]  00 00
 (130.367880)  can0  421   [2]  00 00
 (130.438822)  can0  421   [2]  00 00
 (130.509754)  can0  421   [2]  00 00
 (130.580702)  can0  421   [2]  00 00
 (130.651639)  can0  421   [2]  00 00
 (130.722579)  can0  421   [2]  00 00
 (130.793521)  can0  421   [2]  00 00
 (130.864462)  can0  421   [2]  00 00
 (130.935407)  can0  421   [2]  00 00
 (130.963735)  can0  460   [4]  00 00 25 C0
 (130.964070)  can0  462   [4]  00 00 25 C0
 (130.964328)  can0  464   [8]  D4 E9 68 02 AC EA 05 F9
 (131.005171)  can0  422   [1]  00
 (131.006340)  can0  421   [2]  00 00
 (131.077283)  can0  421   [2]  00 00
 (131.148215)  can0  421   [2]  00 00
 (131.219148)  can0  421   [2]  00 00
 (131.290076)  can0  421   [2]  00 00
 (131.361008)  can0  421   [2]  00 00
 (131.431951)  can0  421   [2]  00 00
 (131.502886)  can0  421   [2]  00 00
 (131.573815)  can0  421   [2]  00 00
 (131.644743)  can0  421   [2]  00 00
 (131.715682)  can0  421   [2]  00 00
 (131.786610)  can0  421   [2]  00 00
 (131.857555)  can0  421   [2]  00 00
 (131.928483)  can0  421   [2]  00 00
 (131.973491)  can0  460   [4]  00 00 25 C0
 (131.973703)  can0  462   [4]  37 00 25 C0
 (131.973902)  can0  464   [8]  D5 E9 68 02 AB EA 05 F9
 (131.999431)  can0  421   [2]  00 00
 (132.005130)  can0  422   [1]  00
 (132.070345)  can0  421   [2]  00 00
 (132.141280)  can0  421   [2]  00 00
 (132.212233)  can0  421   [2]  00 00
 (132.283166)  can0  421   [2]  00 00
 (132.354102)  can0  421   [2]  00 00
 (132.425045)  can0  421   [2]  00 00
 (132.495986)  can0  421   [2]  00 00
 (132.566919)  can0  421   [2]  00 00
 (132.637851)  can0  421   [2]  00 00
 (132.708797)  can0  421   [2]  00 00
 (132.779724)  can0  421   [2]  00 00
 (132.850657)  can0  421   [2]  00 00
 (132.883878)  can0  460   [4]  00 00 25 C0
 (132.884103)  can0  462   [4]  4A 00 25 C0
 (132.884313)  can0  464   [8]  D5 E9 68 02 AB EA 05 F9
 (132.921605)  can0  421   [2]  00 00
 (132.992534)  can0  421   [2]  00 00
 (133.005080)  can0  422   [1]  00
 (133.063479)  can0  421   [2]  00 00
 (133.134416)  can0  421   [2]  00 00
 (133.205362)  can0  421   [2]  00 00
 (133.276314)  can0  421   [2]  00 00
 (133.347244)  can0  421   [2]  00 00
 (133.418177)  can0  421   [2]  00 00
 (133.489118)  can0  421   [2]  00 00
 (133.560055)  can0  421   [2]  00 00
 (133.631019)  can0  421   [2]  00 00
 (133.701947)  can0  421   [2]  00 00
 (133.772884)  can0  421   [2]  00 00
 (133.843829)  can0  421   [2]  00 00
 (133.893645)  can0  460   [4]  00 00 25 C0
 (133.893854)  can0  462   [4]  37 00 25 C0
 (133.894049)  can0  464   [8]  D3 E9 68 02 AB EA 05 F9
 (133.914886)  can0  421   [2]  00 00
 (133.985729)  can0  421   [2]  00 00
 (134.005063)  can0  422   [1]  00
 (134.056679)  can0  421   [2]  00 00
 (134.127615)  can0  421   [2]  00 00
 (134.198552)  can0  421   [2]  00 00
 (134.269503)  can0  421   [2]  00 00
 (134.340454)  can0  421   [2]  00 00
 (134.411398)  can0  421   [2]  00 00
 (134.482337)  can0  421   [2]  00 00
 (134.553290)  can0  421   [2]  00 00
 (134.624239)  can0  421   [2]  00 00
 (134.695190)  can0  421   [2]  00 00
 (134.766146)  can0  421   [2]  00 00
 (134.837082)  can0  421   [2]  00 00
 (134.904278)  can0  460   [4]  00 00 26 C0
 (134.904538)  can0  464   [8]  D1 E9 68 02 AB EA 05 F9
 (134.904890)  can0  462   [4]  12 00 26 C0
 (134.905088)  can0  468   [2]  45 00
 (134.908032)  can0  421   [2]  00 00
 (134.979004)  can0  421   [2]  00 00
 (135.005042)  can0  422   [1]  00
 (135.049947)  can0  421   [2]  00 00
 (135.120877)  can0  421   [2]  00 00
 (135.191831)  can0  421   [2]  00 00
 (135.262765)  can0  421   [2]  00 00
 (135.333709)  can0  421   [2]  00 00
 (135.404642)  can0  421   [2]  00 00
 (135.475591)  can0  421   [2]  00 00
 (135.546539)  can0  421   [2]  00 00
 (135.617498)  can0  421   [2]  00 00
 (135.688441)  can0  421   [2]  00 00
 (135.759380)  can0  421   [2]  00 00
 (135.830335)  can0  421   [2]  00 00
 (135.901280)  can0  421   [2]  00 00
 (135.917810)  can0  460   [4]  00 00 26 C0
 (135.918027)  can0  462   [4]  25 00 26 C0
 (135.918221)  can0  464   [8]  CE E9 68 02 AA EA 05 F9
 (135.972330)  can0  421   [2]  00 00
 (136.005018)  can0  422   [1]  00
 (136.043162)  can0  421   [2]  00 00
 (136.114110)  can0  421   [2]  00 00
 (136.185049)  can0  421   [2]  00 00
 (136.256006)  can0  421   [2]  00 00
 (136.326956)  can0  421   [2]  00 00
 (136.397884)  can0  421   [2]  00 00
 (136.468843)  can0  421   [2]  00 00
 (136.539787)  can0  421   [2]  00 00
 (136.610710)  can0  421   [2]  00 00
 (136.681660)  can0  421   [2]  00 00
 (136.752602)  can0  421   [2]  00 00
 (136.823559)  can0  421   [2]  00 00
 (136.894517)  can0  421   [2]  00 00
 (136.929809)  can0  460   [4]  00 00 26 C0
 (136.930023)  can0  462   [4]  00 00 26 C0
 (136.930217)  can0  464   [8]  CC E9 68 02 A7 EA 05 F9
 (136.965455)  can0  421   [2]  00 00
 (137.004993)  can0  422   [1]  00
 (137.036399)  can0  421   [2]  00 00
 (137.107331)  can0  421   [2]  00 00
 (137.178282)  can0  421   [2]  00 00
 (137.249216)  can0  421   [2]  00 00
 (137.320151)  can0  421   [2]  00 00
 (137.391109)  can0  421   [2]  00 00
 (137.462039)  can0  421   [2]  00 00
 (137.532976)  can0  421   [2]  00 00
 (137.603915)  can0  421   [2]  00 00
 (137.674848)  can0  421   [2]  00 00
 (137.745786)  can0  421   [2]  00 00
 (137.816721)  can0  421   [2]  00 00
 (137.887663)  can0  421   [2]  00 00
 (137.947786)  can0  460   [4]  5B 00 27 C0
 (137.948127)  can0  462   [4]  5C 00 27 C0
 (137.948371)  can0  464   [8]  CC E9 68 02 A4 EA 05 F9
 (137.958613)  can0  421   [2]  00 00
 (138.005000)  can0  422   [1]  00
 (138.029558)  can0  421   [2]  00 00
 (138.100478)  can0  421   [2]  00 00
 (138.171412)  can0  421   [2]  00 00
 (138.242362)  can0  421   [2]  00 00
 (138.313296)  can0  421   [2]  00 00
 (138.384221)  can0  421   [2]  00 00
 (138.455167)  can0  421   [2]  00 00
 (138.526120)  can0  421   [2]  00 00
 (138.597050)  can0  421   [2]  00 00
 (138.667997)  can0  421   [2]  00 00
 (138.738938)  can0  421   [2]  00 00
 (138.809875)  can0  421   [2]  00 00
 (138.880829)  can0  421   [2]  00 00
 (138.951760)  can0  421   [2]  00 00
 (138.959703)  can0  460   [4]  24 00 27 C0
 (138.959926)  can0  462   [4]  25 00 27 C0
 (138.960129)  can0  464   [8]  CA E9 68 02 A0 EA 05 F9
 (139.004937)  can0  422   [1]  00
 (139.022707)  can0  421   [2]  00 00
 (139.093642)  can0  421   [2]  00 00
 (139.164613)  can0  421   [2]  00 00
 (139.235584)  can0  421   [2]  00 00
 (139.306544)  can0  421   [2]  00 00
 (139.377487)  can0  421   [2]  00 00
 (139.448432)  can0  421   [2]  00 00
 (139.519372)  can0  421   [2]  00 00
 (139.590332)  can0  421   [2]  00 00
 (139.661275)  can0  421   [2]  00 00
 (139.732232)  can0  421   [2]  00 00
 (139.803176)  can0  421   [2]  00 00
 (139.874124)  can0  421   [2]  00 00
 (139.945075)  can0  421   [2]  00 00
 (139.971915)  can0  460   [4]  14 00 27 C0
 (139.972140)  can0  462   [4]  4A 00 27 C0
 (139.972334)  can0  464   [8]  C9 E9 68 02 9B EA 05 F9
 (140.004926)  can0  422   [1]  00
 (140.016043)  can0  421   [2]  00 00
 (140.086968)  can0  421   [2]  00 00
 (140.157913)  can0  421   [2]  00 00
 (140.228874)  can0  421   [2]  00 00
 (140.299819)  can0  421   [2]  00 00
 (140.370768)  can0  421   [2]  00 00
 (140.441713)  can0  421   [2]  00 00
 (140.512659)  can0  421   [2]  00 00
 (140.583615)  can0  421   [2]  00 00
 (140.654554)  can0  421   [2]  00 00
 (140.725490)  can0  421   [2]  00 00
 (140.796432)  can0  421   [2]  00 00
 (140.867387)  can0  421   [2]  00 00
 (140.883888)  can0  460   [4]  24 00 27 C0
 (140.884384)  can0  462   [4]  81 00 27 C0
 (140.884620)  can0  464   [8]  CB E9 68 02 98 EA 05 F9
 (140.938332)  can0  421   [2]  00 00
 (141.004883)  can0  422   [1]  00
 (141.009272)  can0  421   [2]  00 00
 (141.080208)  can0  421   [2]  00 00
 (141.151148)  can0  421   [2]  00 00
 (141.222075)  can0  421   [2]  00 00
 (141.293036)  can0  421   [2]  00 00
 (141.363979)  can0  421   [2]  00 00
 (141.434932)  can0  421   [2]  00 00
 (141.505870)  can0  421   [2]  00 00
 (141.576800)  can0  421   [2]  00 00
 (141.647746)  can0  421   [2]  00 00
 (141.718683)  can0  421   [2]  00 00
 (141.789640)  can0  421   [2]  00 00
 (141.860571)  can0  421   [2]  00 00
 (141.900024)  can0  460   [4]  01 00 27 C0
 (141.900238)  can0  462   [4]  5C 00 27 C0
 (141.900431)  can0  464   [8]  CC E9 68 02 95 EA 05 F9
 (141.931503)  can0  421   [2]  00 00
 (142.002450)  can0  421   [2]  00 00
 (142.004838)  can0  422   [1]  00
 (142.073373)  can0  421   [2]  00 00
 (142.144348)  can0  421   [2]  00 00
 (142.215287)  can0  421   [2]  00 00
 (142.286234)  can0  421   [2]  00 00
 (142.357197)  can0  421   [2]  00 00
 (142.428134)  can0  421   [2]  00 00
 (142.499103)  can0  421   [2]  00 00
 (142.570043)  can0  421   [2]  00 00
 (142.641007)  can0  421   [2]  00 00
 (142.711958)  can0  421   [2]  00 00
 (142.782900)  can0  421   [2]  00 00
 (142.853835)  can0  421   [2]  00 00
 (142.917661)  can0  460   [4]  5B 00 27 C0
 (142.917875)  can0  462   [4]  5C 00 27 C0
 (142.918080)  can0  464   [8]  CC E9 68 02 94 EA 05 F9
 (142.924851)  can0  421   [2]  00 00
 (142.995729)  can0  421   [2]  00 00
 (143.004788)  can0  422   [1]  00
 (143.066672)  can0  421   [2]  00 00
 (143.137667)  can0  421   [2]  00 00
 (143.208584)  can0  421   [2]  00 00
 (143.279532)  can0  421   [2]  00 00
 (143.350451)  can0  421   [2]  00 00
 (143.421388)  can0  421   [2]  00 00
 (143.492346)  can0  421   [2]  00 00
 (143.563283)  can0  421   [2]  00 00
 (143.634221)  can0  421   [2]  00 00
 (143.705152)  can0  421   [2]  00 00
 (143.776108)  can0  421   [2]  00 00
 (143.847049)  can0  421   [2]  00 00
 (143.917983)  can0  421   [2]  00 00
 (143.936072)  can0  460   [4]  00 00 27 C0
 (143.936280)  can0  462   [4]  25 00 27 C0
 (143.936474)  can0  464   [8]  CB E9 68 02 93 EA 05 F9
 (143.988928)  can0  421   [2]  00 00
 (144.004826)  can0  422   [1]  00
 (144.059885)  can0  421   [2]  00 00
 (144.130824)  can0  421   [2]  00 00
 (144.201771)  can0  421   [2]  00 00
 (144.272718)  can0  421   [2]  00 00
 (144.343651)  can0  421   [2]  00 00
 (144.414604)  can0  421   [2]  00 00
 (144.485537)  can0  421   [2]  00 00
 (144.556471)  can0  421   [2]  00 00
 (144.627425)  can0  421   [2]  00 00
 (144.698372)  can0  421   [2]  00 00
 (144.769299)  can0  421   [2]  00 00
 (144.840233)  can0  421   [2]  00 00
 (144.911189)  can0  421   [2]  00 00
 (144.956111)  can0  460   [4]  0F 00 27 C0
 (144.956340)  can0  462   [4]  37 00 27 C0
 (144.956539)  can0  464   [8]  CC E9 68 02 92 EA 05 F9
 (144.982138)  can0  421   [2]  00 00
 (145.004845)  can0  422   [1]  00
 (145.053067)  can0  421   [2]  00 00
 (145.124019)  can0  421   [2]  00 00
 (145.194970)  can0  421   [2]  00 00
 (145.265911)  can0  421   [2]  00 00
 (145.336862)  can0  421   [2]  00 00
 (145.407833)  can0  421   [2]  00 00
 (145.478768)  can0  421   [2]  00 00
 (145.549721)  can0  421   [2]  00 00
 (145.620668)  can0  421   [2]  00 00
 (145.691609)  can0  421   [2]  00 00
 (145.762553)  can0  421   [2]  00 00
 (145.833491)  can0  421   [2]  00 00
 (145.904437)  can0  421   [2]  00 00
 (145.975370)  can0  421   [2]  00 00
 (145.975964)  can0  460   [4]  22 00 27 C0
 (145.976161)  can0  462   [4]  4A 00 27 C0
 (145.976406)  can0  464   [8]  CE E9 68 02 91 EA 05 F9
 (146.004719)  can0  422   [1]  00
 (146.046315)  can0  421   [2]  00 00
 (146.117232)  can0  421   [2]  00 00
 (146.188173)  can0  421   [2]  00 00
 (146.259117)  can0  421   [2]  00 00
 (146.330061)  can0  421   [2]  00 00
 (146.400999)  can0  421   [2]  00 00
 (146.471926)  can0  421   [2]  00 00
 (146.542873)  can0  421   [2]  00 00
 (146.613808)  can0  421   [2]  00 00
 (146.684732)  can0  421   [2]  00 00
 (146.755675)  can0  421   [2]  00 00
 (146.826616)  can0  421   [2]  00 00
 (146.897548)  can0  421   [2]  00 00
 (146.898282)  can0  460   [4]  00 00 27 C0
 (146.898485)  can0  462   [4]  5C 00 27 C0
 (146.898702)  can0  464   [8]  D1 E9 68 02 90 EA 05 F9
 (146.968524)  can0  421   [2]  00 00
 (147.004694)  can0  422   [1]  00
 (147.039460)  can0  421   [2]  00 00
 (147.110363)  can0  421   [2]  00 00
 (147.181311)  can0  421   [2]  00 00
 (147.252276)  can0  421   [2]  00 00
 (147.323199)  can0  421   [2]  00 00
 (147.394128)  can0  421   [2]  00 00
 (147.465063)  can0  421   [2]  00 00
 (147.536017)  can0  421   [2]  00 00
 (147.606961)  can0  421   [2]  00 00
 (147.677915)  can0  421   [2]  00 00
 (147.748868)  can0  421   [2]  00 00
 (147.819809)  can0  421   [2]  00 00
 (147.890763)  can0  421   [2]  00 00
 (147.916123)  can0  460   [4]  6F 00 27 C0
 (147.916334)  can0  462   [4]  81 00 27 C0
 (147.916534)  can0  464   [8]  D5 E9 68 02 8E EA 05 F9
 (147.961729)  can0  421   [2]  00 00
 (148.004653)  can0  422   [1]  00
 (148.032662)  can0  421   [2]  00 00
 (148.103605)  can0  421   [2]  00 00
 (148.174560)  can0  421   [2]  00 00
 (148.245517)  can0  421   [2]  00 00
 (148.316453)  can0  421   [2]  00 00
 (148.387400)  can0  421   [2]  00 00
 (148.458346)  can0  421   [2]  00 00
 (148.529289)  can0  421   [2]  00 00
 (148.600234)  can0  421   [2]  00 00
 (148.671180)  can0  421   [2]  00 00
 (148.742130)  can0  421   [2]  00 00
 (148.813072)  can0  421   [2]  00 00
 (148.884014)  can0  421   [2]  00 00
 (148.939166)  can0  460   [4]  00 00 26 C0
 (148.939389)  can0  462   [4]  A6 00 26 C0
 (148.939584)  can0  464   [8]  D9 E9 68 02 8C EA 05 F9
 (148.954995)  can0  421   [2]  00 00
 (149.004642)  can0  422   [1]  00
 (149.025931)  can0  421   [2]  00 00
 (149.096858)  can0  421   [2]  00 00
 (149.167786)  can0  421   [2]  00 00
 (149.238719)  can0  421   [2]  00 00
 (149.309669)  can0  421   [2]  00 00
 (149.380613)  can0  421   [2]  00 00
 (149.451559)  can0  421   [2]  00 00
 (149.522493)  can0  421   [2]  00 00
 (149.593429)  can0  421   [2]  00 00
 (149.664368)  can0  421   [2]  00 00
 (149.735318)  can0  421   [2]  00 00
 (149.806251)  can0  421   [2]  00 00
 (149.877199)  can0  421   [2]  00 00
 (149.948146)  can0  421   [2]  00 00
 (149.955861)  can0  460   [4]  A5 00 26 C0
 (149.956080)  can0  462   [4]  A6 00 26 C0
 (149.956281)  can0  464   [8]  DC E9 68 02 86 EA 05 F9
 (150.004628)  can0  422   [1]  00
 (150.019070)  can0  421   [2]  00 00
 (150.090007)  can0  421   [2]  00 00
 (150.160937)  can0  421   [2]  00 00
 (150.231894)  can0  421   [2]  00 00
 (150.302824)  can0  421   [2]  00 00
 (150.373769)  can0  421   [2]  00 00
 (150.444706)  can0  421   [2]  00 00
 (150.515636)  can0  421   [2]  00 00
 (150.586569)  can0  421   [2]  00 00
 (150.657499)  can0  421   [2]  00 00
 (150.728443)  can0  421   [2]  00 00
 (150.799358)  can0  421   [2]  00 00
 (150.870297)  can0  421   [2]  00 00
 (150.941230)  can0  421   [2]  00 00
 (150.980373)  can0  460   [4]  8F 00 27 C0
 (150.980595)  can0  462   [4]  94 00 27 C0
 (150.980785)  can0  464   [8]  DD E9 68 02 80 EA 05 F9
 (151.004563)  can0  422   [1]  00
 (151.012174)  can0  421   [2]  00 00
 (151.083107)  can0  421   [2]  00 00
 (151.154023)  can0  421   [2]  00 00
 (151.224957)  can0  421   [2]  00 00
 (151.295885)  can0  421   [2]  00 00
 (151.366835)  can0  421   [2]  00 00
 (151.437765)  can0  421   [2]  00 00
 (151.508681)  can0  421   [2]  00 00
 (151.579606)  can0  421   [2]  00 00
 (151.650540)  can0  421   [2]  00 00
 (151.721468)  can0  421   [2]  00 00
 (151.792403)  can0  421   [2]  00 00
 (151.863329)  can0  421   [2]  00 00
 (151.904298)  can0  460   [4]  00 00 27 C0
 (151.904503)  can0  462   [4]  A6 00 27 C0
 (151.904685)  can0  464   [8]  DE E9 68 02 7A EA 05 F9
 (151.934258)  can0  421   [2]  00 00
 (152.004536)  can0  422   [1]  00
 (152.005188)  can0  421   [2]  00 00
 (152.076141)  can0  421   [2]  00 00
 (152.147080)  can0  421   [2]  00 00
 (152.218004)  can0  421   [2]  00 00
 (152.288958)  can0  421   [2]  00 00
 (152.359899)  can0  421   [2]  00 00
 (152.430844)  can0  421   [2]  00 00
 (152.501787)  can0  421   [2]  00 00
 (152.572747)  can0  421   [2]  00 00
 (152.643676)  can0  421   [2]  00 00
 (152.714618)  can0  421   [2]  00 00
 (152.785559)  can0  421   [2]  00 00
 (152.856478)  can0  421   [2]  00 00
 (152.927411)  can0  421   [2]  00 00
 (152.930136)  can0  460   [4]  00 00 27 C0
 (152.930340)  can0  462   [4]  A6 00 27 C0
 (152.930822)  can0  464   [8]  E0 E9 68 02 73 EA 05 F9
 (152.998338)  can0  421   [2]  00 00
 (153.004528)  can0  422   [1]  00
 (153.069290)  can0  421   [2]  00 00
 (153.140239)  can0  421   [2]  00 00
 (153.211165)  can0  421   [2]  00 00
 (153.282109)  can0  421   [2]  00 00
 (153.353062)  can0  421   [2]  00 00
 (153.423998)  can0  421   [2]  00 00
 (153.494937)  can0  421   [2]  00 00
 (153.565886)  can0  421   [2]  00 00
 (153.636821)  can0  421   [2]  00 00
 (153.707774)  can0  421   [2]  00 00
 (153.778717)  can0  421   [2]  00 00
 (153.849652)  can0  421   [2]  00 00
 (153.920597)  can0  421   [2]  00 00
 (153.956354)  can0  460   [4]  8F 00 27 C0
 (153.956578)  can0  462   [4]  94 00 27 C0
 (153.956779)  can0  464   [8]  E0 E9 68 02 6D EA 05 F9
 (153.991537)  can0  421   [2]  00 00
 (154.004475)  can0  422   [1]  00
 (154.062484)  can0  421   [2]  00 00
 (154.133426)  can0  421   [2]  00 00
 (154.204361)  can0  421   [2]  00 00
 (154.275300)  can0  421   [2]  00 00
 (154.346243)  can0  421   [2]  00 00
 (154.417187)  can0  421   [2]  00 00
 (154.488136)  can0  421   [2]  00 00
 (154.559061)  can0  421   [2]  00 00
 (154.629999)  can0  421   [2]  00 00
 (154.700916)  can0  421   [2]  00 00
 (154.771861)  can0  421   [2]  00 00
 (154.842799)  can0  421   [2]  00 00
 (154.913724)  can0  421   [2]  00 00
 (154.984650)  can0  421   [2]  00 00
 (155.004450)  can0  422   [1]  00
 (155.055579)  can0  421   [2]  00 00
 (155.126533)  can0  421   [2]  00 00
 (155.197463)  can0  421   [2]  00 00
 (155.268401)  can0  421   [2]  00 00
 (155.339333)  can0  421   [2]  00 00
 (155.410273)  can0  421   [2]  00 00
 (155.481211)  can0  421   [2]  00 00
 (155.552153)  can0  421   [2]  00 00
 (155.623090)  can0  421   [2]  00 00
 (155.694039)  can0  421   [2]  00 00
 (155.764977)  can0  421   [2]  00 00
 (155.835906)  can0  421   [2]  00 00
 (155.906840)  can0  421   [2]  00 00
 (155.977772)  can0  421   [2]  00 00
 (156.004426)  can0  422   [1]  00
 (156.048745)  can0  421   [2]  00 00
 (156.119666)  can0  421   [2]  00 00
 (156.190626)  can0  421   [2]  00 00
 (156.261560)  can0  421   [2]  00 00
 (156.332496)  can0  421   [2]  00 00
 (156.403458)  can0  421   [2]  00 00
 (156.474394)  can0  421   [2]  00 00
 (156.545312)  can0  421   [2]  00 00
 (156.616289)  can0  421   [2]  00 00
 (156.687205)  can0  421   [2]  00 00
 (156.758164)  can0  421   [2]  00 00
 (156.829110)  can0  421   [2]  00 00
 (156.900061)  can0  421   [2]  00 00
 (156.971011)  can0  421   [2]  00 00
 (157.004387)  can0  422   [1]  00
 (157.041960)  can0  421   [2]  00 00
 (157.112899)  can0  421   [2]  00 00
 (157.183867)  can0  421   [2]  00 00
 (157.254810)  can0  421   [2]  00 00
 (157.325771)  can0  421   [2]  00 00
 (157.396729)  can0  421   [2]  00 00
 (157.467665)  can0  421   [2]  00 00
 (157.538624)  can0  421   [2]  00 00
 (157.609567)  can0  421   [2]  00 00
 (157.680504)  can0  421   [2]  00 00
 (157.751450)  can0  421   [2]  00 00
 (157.822404)  can0  421   [2]  00 00
 (157.893340)  can0  421   [2]  00 00
 (157.964293)  can0  421   [2]  00 00
 (158.004357)  can0  422   [1]  00
 (158.035226)  can0  421   [2]  00 00
 (158.106164)  can0  421   [2]  00 00
 (158.177107)  can0  421   [2]  00 00
 (158.248041)  can0  421   [2]  00 00
 (158.319011)  can0  421   [2]  00 00
 (158.389955)  can0  421   [2]  00 00
 (158.460879)  can0  421   [2]  00 00
 (158.531828)  can0  421   [2]  00 00
 (158.602797)  can0  421   [2]  00 00
 (158.673734)  can0  421   [2]  00 00
 (158.744669)  can0  421   [2]  00 00
 (158.815625)  can0  421   [2]  00 00
 (158.886570)  can0  421   [2]  00 00
 (158.957513)  can0  421   [2]  00 00
 (159.004345)  can0  422   [1]  00
 (159.028498)  can0  421   [2]  00 00
 (159.099399)  can0  421   [2]  00 00
 (159.170334)  can0  421   [2]  00 00
 (159.241306)  can0  421   [2]  00 00
 (159.312240)  can0  421   [2]  00 00
 (159.383193)  can0  421   [2]  00 00
 (159.454134)  can0  421   [2]  00 00
 (159.525080)  can0  421   [2]  00 00
 (159.596028)  can0  421   [2]  00 00
 (159.666975)  can0  421   [2]  00 00
 (159.737918)  can0  421   [2]  00 00
 (159.808867)  can0  421   [2]  00 00
 (159.879811)  can0  421   [2]  00 00
 (159.950753)  can0  421   [2]  00 00
 (160.004295)  can0  422   [1]  00
 (160.021703)  can0  421   [2]  00 00
 (160.092653)  can0  421   [2]  00 00
 (160.163600)  can0  421   [2]  00 00
 (160.234546)  can0  421   [2]  00 00
 (160.305500)  can0  421   [2]  00 00
 (160.376432)  can0  421   [2]  00 00
 (160.447365)  can0  421   [2]  00 00
 (160.518310)  can0  421   [2]  00 00
 (160.589255)  can0  421   [2]  00 00
 (160.660208)  can0  421   [2]  00 00
 (160.731162)  can0  421   [2]  00 00
 (160.802099)  can0  421   [2]  00 00
 (160.873040)  can0  421   [2]  00 00
 (160.943984)  can0  421   [2]  00 00
 (161.004282)  can0  422   [1]  00
 (161.014951)  can0  421   [2]  00 00
 (161.085882)  can0  421   [2]  00 00
 (161.156821)  can0  421   [2]  00 00
 (161.227779)  can0  421   [2]  00 00
 (161.298697)  can0  421   [2]  00 00
 (161.369630)  can0  421   [2]  00 00
 (161.440578)  can0  421   [2]  00 00
 (161.511544)  can0  421   [2]  00 00
 (161.582475)  can0  421   [2]  00 00
 (161.653406)  can0  421   [2]  00 00
 (161.724337)  can0  421   [2]  00 00
 (161.795314)  can0  421   [2]  00 00
 (161.866248)  can0  421   [2]  00 00
 (161.937207)  can0  421   [2]  00 00
 (162.004237)  can0  422   [1]  00
 (162.008169)  can0  421   [2]  00 00
 (162.079116)  can0  421   [2]  00 00
 (162.150084)  can0  421   [2]  00 00
 (162.221071)  can0  421   [2]  00 00
 (162.292008)  can0  421   [2]  00 00
 (162.362962)  can0  421   [2]  00 00
 (162.433918)  can0  421   [2]  00 00
 (162.504858)  can0  421   [2]  00 00
 (162.575801)  can0  421   [2]  00 00
 (162.646746)  can0  421   [2]  00 00
 (162.717703)  can0  421   [2]  00 00
 (162.788638)  can0  421   [2]  00 00
 (162.859593)  can0  421   [2]  00 00
 (162.930537)  can0  421   [2]  00 00
 (163.001520)  can0  421   [2]  00 00
 (163.004205)  can0  422   [1]  00
 (163.072474)  can0  421   [2]  00 00
 (163.143423)  can0  421   [2]  00 00
 (163.214372)  can0  421   [2]  00 00
 (163.285333)  can0  421   [2]  00 00
 (163.356280)  can0  421   [2]  00 00
 (163.427240)  can0  421   [2]  00 00
 (163.498175)  can0  421   [2]  00 00
 (163.569121)  can0  421   [2]  00 00
 (163.640067)  can0  421   [2]  00 00
 (163.710998)  can0  421   [2]  00 00
 (163.781959)  can0  421   [2]  00 00
 (163.852910)  can0  421   [2]  00 00
 (163.923837)  can0  421   [2]  00 00
 (163.994775)  can0  421   [2]  00 00
 (164.004183)  can0  422   [1]  00
 (164.065723)  can0  421   [2]  00 00
 (164.136675)  can0  421   [2]  00 00
 (164.207610)  can0  421   [2]  00 00
 (164.278541)  can0  421   [2]  00 00
 (164.349475)  can0  421   [2]  00 00
 (164.420437)  can0  421   [2]  00 00
 (164.491364)  can0  421   [2]  00 00
 (164.562298)  can0  421   [2]  00 00
 (164.633222)  can0  421   [2]  00 00
 (164.704149)  can0  421   [2]  00 00
 (164.775065)  can0  421   [2]  00 00
 (164.846002)  can0  421   [2]  00 00
 (164.916926)  can0  421   [2]  00 00
 (164.987855)  can0  421   [2]  00 00
 (165.004154)  can0  422   [1]  00
 (165.058785)  can0  421   [2]  00 00
 (165.129757)  can0  421   [2]  00 00
 (165.200647)  can0  421   [2]  00 00
 (165.271580)  can0  421   [2]  00 00
 (165.342538)  can0  421   [2]  00 00
 (165.413462)  can0  421   [2]  00 00
 (165.484386)  can0  421   [2]  00 00
 (165.555333)  can0  421   [2]  00 00
 (165.626245)  can0  421   [2]  00 00
 (165.697173)  can0  421   [2]  00 00
 (165.768099)  can0  421   [2]  00 00
 (165.839022)  can0  421   [2]  00 00
 (165.909959)  can0  421   [2]  00 00
 (165.980881)  can0  421   [2]  00 00
 (166.004145)  can0  422   [1]  00
 (166.051805)  can0  421   [2]  00 00
 (166.122756)  can0  421   [2]  00 00
 (166.193677)  can0  421   [2]  00 00
 (166.264611)  can0  421   [2]  00 00
 (166.335543)  can0  421   [2]  00 00
 (166.406479)  can0  421   [2]  00 00
 (166.477436)  can0  421   [2]  00 00
 (166.548368)  can0  421   [2]  00 00
 (166.619306)  can0  421   [2]  00 00
 (166.690236)  can0  421   [2]  00 00
 (166.761189)  can0  421   [2]  00 00
 (166.832150)  can0  421   [2]  00 00
 (166.903098)  can0  421   [2]  00 00
 (166.973989)  can0  421   [2]  00 00
 (167.004132)  can0  422   [1]  00
 (167.044940)  can0  421   [2]  00 00
 (167.115864)  can0  421   [2]  00 00
 (167.186802)  can0  421   [2]  00 00
 (167.257736)  can0  421   [2]  00 00
 (167.328694)  can0  421   [2]  00 00
 (167.399609)  can0  421   [2]  00 00
 (167.470529)  can0  421   [2]  00 00
 (167.541482)  can0  421   [2]  00 00
 (167.612426)  can0  421   [2]  00 00
 (167.683364)  can0  421   [2]  00 00
 (167.754282)  can0  421   [2]  00 00
 (167.825245)  can0  421   [2]  00 00
 (167.896160)  can0  421   [2]  00 00
 (167.967096)  can0  421   [2]  00 00
 (168.004054)  can0  422   [1]  00
 (168.038034)  can0  421   [2]  00 00
 (168.108983)  can0  421   [2]  00 00
 (168.179888)  can0  421   [2]  00 00
 (168.250811)  can0  421   [2]  00 00
 (168.321748)  can0  421   [2]  00 00
 (168.392700)  can0  421   [2]  00 00
 (168.463624)  can0  421   [2]  00 00
 (168.534570)  can0  421   [2]  00 00
 (168.605504)  can0  421   [2]  00 00
 (168.676438)  can0  421   [2]  00 00
 (168.747366)  can0  421   [2]  00 00
 (168.818309)  can0  421   [2]  00 00
 (168.889237)  can0  421   [2]  00 00
 (168.960183)  can0  421   [2]  00 00
 (169.004033)  can0  422   [1]  00
 (169.031117)  can0  421   [2]  00 00
 (169.102075)  can0  421   [2]  00 00
 (169.173015)  can0  421   [2]  00 00
 (169.243957)  can0  421   [2]  00 00
 (169.314897)  can0  421   [2]  00 00
 (169.385873)  can0  421   [2]  00 00
 (169.456791)  can0  421   [2]  00 00
 (169.527720)  can0  421   [2]  00 00
 (169.598673)  can0  421   [2]  00 00
 (169.669622)  can0  421   [2]  00 00
 (169.740544)  can0  421   [2]  00 00
 (169.811493)  can0  421   [2]  00 00
 (169.882431)  can0  421   [2]  00 00
 (169.953399)  can0  421   [2]  00 00
 (170.004008)  can0  422   [1]  00
 (170.024384)  can0  421   [2]  00 00
 (170.095294)  can0  421   [2]  00 00
 (170.166255)  can0  421   [2]  00 00
 (170.237215)  can0  421   [2]  00 00
 (170.308182)  can0  421   [2]  00 00
 (170.379119)  can0  421   [2]  00 00
 (170.450090)  can0  421   [2]  00 00
 (170.521029)  can0  421   [2]  00 00
 (170.591984)  can0  421   [2]  00 00
 (170.662908)  can0  421   [2]  00 00
 (170.733844)  can0  421   [2]  00 00
 (170.804785)  can0  421   [2]  00 00
 (170.875755)  can0  421   [2]  00 00
 (170.946690)  can0  421   [2]  00 00
 (171.004033)  can0  422   [1]  00
 (171.017733)  can0  421   [2]  00 00
 (171.088597)  can0  421   [2]  00 00
 (171.159553)  can0  421   [2]  00 00
 (171.230509)  can0  421   [2]  00 00
 (171.301445)  can0  421   [2]  00 00
 (171.372384)  can0  421   [2]  00 00
 (171.443335)  can0  421   [2]  00 00
 (171.514292)  can0  421   [2]  00 00
 (171.585227)  can0  421   [2]  00 00
 (171.656182)  can0  421   [2]  00 00
 (171.727141)  can0  421   [2]  00 00
 (171.798081)  can0  421   [2]  00 00
 (171.869030)  can0  421   [2]  00 00
 (171.939976)  can0  421   [2]  00 00
 (172.003956)  can0  422   [1]  00
 (172.010923)  can0  421   [2]  00 00
 (172.081869)  can0  421   [2]  00 00
 (172.152812)  can0  421   [2]  00 00
 (172.223759)  can0  421   [2]  00 00
 (172.294732)  can0  421   [2]  00 00
 (172.365662)  can0  421   [2]  00 00
 (172.436590)  can0  421   [2]  00 00
 (172.507536)  can0  421   [2]  00 00
 (172.578511)  can0  421   [2]  00 00
 (172.649433)  can0  421   [2]  00 00
 (172.720375)  can0  421   [2]  00 00
 (172.791315)  can0  421   [2]  00 00
 (172.862261)  can0  421   [2]  00 00
 (172.933215)  can0  421   [2]  00 00
 (173.003910)  can0  422   [1]  00
 (173.004171)  can0  421   [2]  00 00
 (173.075109)  can0  421   [2]  00 00
 (173.146066)  can0  421   [2]  00 00
 (173.217004)  can0  421   [2]  00 00
 (173.287962)  can0  421   [2]  00 00
 (173.358890)  can0  421   [2]  00 00
 (173.429856)  can0  421   [2]  00 00
 (173.500813)  can0  421   [2]  00 00
 (173.571768)  can0  421   [2]  00 00
 (173.642715)  can0  421   [2]  00 00
 (173.713673)  can0  421   [2]  00 00
 (173.784630)  can0  421   [2]  00 00
 (173.855584)  can0  421   [2]  00 00
 (173.926544)  can0  421   [2]  00 00
 (173.997488)  can0  421   [2]  00 00
 (174.003899)  can0  422   [1]  00
 (174.068439)  can0  421   [2]  00 00
 (174.139394)  can0  421   [2]  00 00
