 (000.000000)  can0  460   [4]  00 00 5B 60
 (000.000215)  can0  462   [4]  A8 17 5B 60
 (000.000403)  can0  464   [8]  88 8C 6C 02 52 C3 07 F9
 (000.981321)  can0  460   [4]  00 00 68 60
 (000.981549)  can0  462   [4]  BA 17 68 60
 (000.981739)  can0  464   [8]  1B 8D 6C 02 25 C3 07 F9
 (001.962132)  can0  460   [4]  00 00 74 60
 (001.962341)  can0  462   [4]  4B 17 74 60
 (001.962530)  can0  464   [8]  AB 8D 6C 02 F9 C2 07 F9
 (002.940250)  can0  460   [4]  E5 03 81 60
 (002.940470)  can0  462   [4]  EE 16 81 60
 (002.940659)  can0  464   [8]  39 8E 6C 02 CE C2 07 F9
 (004.028007)  can0  460   [4]  3A 06 8E 60
 (004.028217)  can0  462   [4]  4B 17 8E 60
 (004.028408)  can0  464   [8]  CA 8E 6C 02 A3 C2 07 F9
 (005.009932)  can0  460   [4]  77 0A 9A 60
 (005.010144)  can0  462   [4]  13 17 9A 60
 (005.010337)  can0  464   [8]  59 8F 6C 02 79 C2 07 F9
 (005.992044)  can0  460   [4]  91 0E A7 60
 (005.992255)  can0  462   [4]  70 17 A7 60
 (005.992447)  can0  464   [8]  EB 8F 6C 02 4F C2 07 F9
 (006.980001)  can0  460   [4]  25 12 B4 60
 (006.980211)  can0  462   [4]  BA 17 B4 60
 (006.980403)  can0  464   [8]  7F 90 6C 02 26 C2 07 F9
 (007.966270)  can0  460   [4]  1A 13 C1 60
 (007.966478)  can0  462   [4]  26 17 C1 60
 (007.966667)  can0  464   [8]  0F 91 6C 02 FE C1 07 F9
 (008.958123)  can0  460   [4]  F4 04 81 60
 (008.958333)  can0  462   [4]  01 06 81 60
 (008.958523)  can0  464   [8]  92 8E 6C 02 EB C1 07 F9
 (009.950268)  can0  460   [4]  18 02 40 60
 (009.950486)  can0  462   [4]  63 02 40 60
 (009.950677)  can0  464   [8]  07 8C 6C 02 DE C1 07 F9
 (010.938267)  can0  460   [4]  E3 00 FF 5F
 (010.938486)  can0  462   [4]  03 01 FF 5F
 (010.938677)  can0  464   [8]  7C 89 6C 02 D4 C1 07 F9
 (011.932282)  can0  460   [4]  71 00 BF 5F
 (011.932492)  can0  462   [4]  81 00 BF 5F
 (011.932682)  can0  464   [8]  F7 86 6C 02 CA C1 07 F9
 (012.935607)  can0  460   [4]  41 00 80 5F
 (012.935818)  can0  462   [4]  4A 00 80 5F
 (012.936007)  can0  464   [8]  80 84 6C 02 C1 C1 07 F9
 (013.933627)  can0  460   [4]  33 00 43 5F
 (013.933838)  can0  462   [4]  37 00 43 5F
 (013.934033)  can0  464   [8]  19 82 6C 02 B7 C1 07 F9
 (014.933651)  can0  460   [4]  11 00 06 5F
 (014.933859)  can0  462   [4]  12 00 06 5F
 (014.934052)  can0  464   [8]  BA 7F 6C 02 AD C1 07 F9
 (015.937671)  can0  460   [4]  11 00 CA 5E
 (015.937880)  can0  462   [4]  12 00 CA 5E
 (015.938071)  can0  464   [8]  61 7D 6C 02 A4 C1 07 F9
 (016.936404)  can0  460   [4]  35 00 90 5E
 (016.936615)  can0  462   [4]  37 00 90 5E
 (016.936805)  can0  464   [8]  19 7B 6C 02 9A C1 07 F9
 (017.940593)  can0  460   [4]  00 00 56 5E
 (017.940806)  can0  462   [4]  00 00 56 5E
 (017.941000)  can0  464   [8]  D1 78 6C 02 90 C1 07 F9
 (018.939745)  can0  460   [4]  00 00 1F 5E
 (018.939954)  can0  462   [4]  00 00 1F 5E
 (018.940144)  can0  464   [8]  A9 76 6C 02 86 C1 07 F9
 (019.940574)  can0  460   [4]  12 00 E7 5D
 (019.940791)  can0  462   [4]  12 00 E7 5D
 (019.940983)  can0  464   [8]  75 74 6C 02 7B C1 07 F9
 (020.942765)  can0  460   [4]  33 00 B1 5D
 (020.943040)  can0  464   [8]  4F 72 6C 02 71 C1 07 F9
 (020.943787)  can0  462   [4]  37 00 B1 5D
 (020.943998)  can0  468   [2]  72 01
 (021.945819)  can0  460   [4]  6A 00 7E 5D
 (021.946030)  can0  462   [4]  6F 00 7E 5D
 (021.946221)  can0  464   [8]  50 70 6C 02 65 C1 07 F9
 (022.946627)  can0  460   [4]  36 00 4B 5D
 (022.946837)  can0  462   [4]  37 00 4B 5D
 (022.947027)  can0  464   [8]  4F 6E 6C 02 5A C1 07 F9
 (023.946749)  can0  460   [4]  00 00 18 5D
 (023.946965)  can0  462   [4]  00 00 18 5D
 (023.947155)  can0  464   [8]  4D 6C 6C 02 4F C1 07 F9
 (024.948413)  can0  460   [4]  00 00 E6 5C
 (024.948627)  can0  462   [4]  00 00 E6 5C
 (024.948825)  can0  464   [8]  59 6A 6C 02 44 C1 07 F9
 (025.952349)  can0  460   [4]  12 00 B6 5C
 (025.952558)  can0  462   [4]  12 00 B6 5C
 (025.952750)  can0  464   [8]  76 68 6C 02 38 C1 07 F9
 (026.952381)  can0  460   [4]  12 00 B6 5C
 (026.952587)  can0  462   [4]  12 00 B6 5C
 (026.952778)  can0  464   [8]  77 68 6C 02 38 C1 07 F9
 (027.954490)  can0  460   [4]  12 00 B6 5C
 (027.954704)  can0  462   [4]  12 00 B6 5C
 (027.954895)  can0  464   [8]  77 68 6C 02 38 C1 07 F9
 (028.954443)  can0  460   [4]  12 00 B7 5C
 (028.954669)  can0  462   [4]  12 00 B7 5C
 (028.954860)  can0  464   [8]  77 68 6C 02 38 C1 07 F9
 (029.954712)  can0  460   [4]  11 00 B7 5C
 (029.954926)  can0  462   [4]  12 00 B7 5C
 (029.955117)  can0  464   [8]  78 68 6C 02 38 C1 07 F9
 (030.962309)  can0  460   [4]  00 00 B7 5C
 (030.962526)  can0  462   [4]  00 00 B7 5C
 (030.962718)  can0  464   [8]  78 68 6C 02 38 C1 07 F9
 (031.962777)  can0  460   [4]  0E 00 B7 5C
 (031.963001)  can0  462   [4]  12 00 B7 5C
 (031.963192)  can0  464   [8]  78 68 6C 02 38 C1 07 F9
 (032.966530)  can0  460   [4]  0C 00 B7 5C
 (032.966743)  can0  462   [4]  12 00 B7 5C
 (032.966936)  can0  464   [8]  79 68 6C 02 38 C1 07 F9
 (033.972892)  can0  460   [4]  0C 00 B7 5C
 (033.973109)  can0  462   [4]  12 00 B7 5C
 (033.973306)  can0  464   [8]  79 68 6C 02 38 C1 07 F9
 (034.978827)  can0  460   [4]  0A 00 B7 5C
 (034.979040)  can0  462   [4]  12 00 B7 5C
 (034.979238)  can0  464   [8]  79 68 6C 02 37 C1 07 F9
 (035.980427)  can0  460   [4]  08 00 B7 5C
 (035.980644)  can0  462   [4]  12 00 B7 5C
 (035.980835)  can0  464   [8]  79 68 6C 02 37 C1 07 F9
 (036.982890)  can0  460   [4]  2A 00 6D 5C
 (036.983105)  can0  462   [4]  5C 00 6D 5C
 (036.983296)  can0  464   [8]  95 65 6C 02 29 C1 07 F9
 (037.986739)  can0  460   [4]  0A 00 28 5C
 (037.986962)  can0  462   [4]  12 00 28 5C
 (037.987153)  can0  464   [8]  DC 62 6C 02 1B C1 07 F9
 (038.997101)  can0  460   [4]  21 00 26 54
 (038.997312)  can0  462   [4]  4A 00 26 54
 (038.997502)  can0  464   [8]  89 1D 6C 02 5F A2 07 F9
 (040.006869)  can0  460   [4]  14 00 EE 53
 (040.007081)  can0  462   [4]  25 00 EE 53
 (040.007271)  can0  464   [8]  90 1B 6C 02 B8 A1 07 F9
 (041.021237)  can0  460   [4]  10 00 DA 53
 (041.021495)  can0  464   [8]  DD 1A 6C 02 7A A1 07 F9
 (041.022249)  can0  462   [4]  25 00 DA 53
 (041.022459)  can0  468   [2]  82 05
 (041.932295)  can0  460   [4]  0A 00 D0 53
 (041.932504)  can0  462   [4]  12 00 D0 53
 (041.932697)  can0  464   [8]  88 1A 6C 02 5D A1 07 F9
 (042.947019)  can0  460   [4]  0A 00 CB 53
 (042.947228)  can0  462   [4]  12 00 CB 53
 (042.947422)  can0  464   [8]  5B 1A 6C 02 4E A1 07 F9
 (043.956791)  can0  460   [4]  06 00 CB 53
 (043.957002)  can0  462   [4]  12 00 CB 53
 (043.957195)  can0  464   [8]  5C 1A 6C 02 4E A1 07 F9
 (044.970801)  can0  460   [4]  00 00 CB 53
 (044.971012)  can0  462   [4]  00 00 CB 53
 (044.971201)  can0  464   [8]  5C 1A 6C 02 4E A1 07 F9
 (045.980666)  can0  460   [4]  00 00 CB 53
 (045.980892)  can0  462   [4]  00 00 CB 53
 (045.981084)  can0  464   [8]  5C 1A 6C 02 4E A1 07 F9
 (046.987042)  can0  460   [4]  00 00 CB 53
 (046.987250)  can0  462   [4]  00 00 CB 53
 (046.987439)  can0  464   [8]  5C 1A 6C 02 4E A1 07 F9
 (048.000722)  can0  460   [4]  00 00 CB 53
 (048.000937)  can0  462   [4]  00 00 CB 53
 (048.001134)  can0  464   [8]  5C 1A 6C 02 4E A1 07 F9
 (049.010997)  can0  460   [4]  00 00 CB 53
 (049.011206)  can0  462   [4]  00 00 CB 53
 (049.011394)  can0  464   [8]  5C 1A 6C 02 4E A1 07 F9
 (050.027013)  can0  460   [4]  00 00 CB 53
 (050.027221)  can0  462   [4]  00 00 CB 53
 (050.027411)  can0  464   [8]  5D 1A 6C 02 4E A1 07 F9
 (050.939219)  can0  460   [4]  00 00 CB 53
 (050.939430)  can0  462   [4]  00 00 CB 53
 (050.939620)  can0  464   [8]  5D 1A 6C 02 4E A1 07 F9
 (051.954986)  can0  460   [4]  00 00 CB 53
 (051.955200)  can0  462   [4]  12 00 CB 53
 (051.955392)  can0  464   [8]  5D 1A 6C 02 4E A1 07 F9
 (052.969006)  can0  460   [4]  00 00 CB 53
 (052.969236)  can0  462   [4]  00 00 CB 53
 (052.969425)  can0  464   [8]  5E 1A 6C 02 4E A1 07 F9
 (053.988861)  can0  460   [4]  00 00 CB 53
 (053.989076)  can0  462   [4]  00 00 CB 53
 (053.989268)  can0  464   [8]  5E 1A 6C 02 4E A1 07 F9
 (055.007490)  can0  460   [4]  00 00 CB 53
 (055.007700)  can0  462   [4]  25 00 CB 53
 (055.007892)  can0  464   [8]  5F 1A 6C 02 4E A1 07 F9
 (056.031161)  can0  460   [4]  00 00 CC 53
 (056.031371)  can0  462   [4]  12 00 CC 53
 (056.031565)  can0  464   [8]  60 1A 6C 02 4D A1 07 F9
 (056.947367)  can0  460   [4]  00 00 CC 53
 (056.947577)  can0  462   [4]  12 00 CC 53
 (056.947769)  can0  464   [8]  60 1A 6C 02 4D A1 07 F9
 (057.965215)  can0  460   [4]  00 00 CC 53
 (057.965423)  can0  462   [4]  37 00 CC 53
 (057.965615)  can0  464   [8]  61 1A 6C 02 4D A1 07 F9
 (058.981596)  can0  460   [4]  00 00 CC 53
 (058.981814)  can0  462   [4]  12 00 CC 53
 (058.982008)  can0  464   [8]  62 1A 6C 02 4D A1 07 F9
 (059.999440)  can0  460   [4]  00 00 CC 53
 (059.999655)  can0  462   [4]  37 00 CC 53
 (059.999847)  can0  464   [8]  63 1A 6C 02 4D A1 07 F9
 (061.017641)  can0  460   [4]  00 00 CC 53
 (061.017855)  can0  462   [4]  25 00 CC 53
 (061.018046)  can0  464   [8]  64 1A 6C 02 4C A1 07 F9
 (061.933076)  can0  460   [4]  00 00 CC 53
 (061.933284)  can0  462   [4]  25 00 CC 53
 (061.933484)  can0  464   [8]  65 1A 6C 02 4C A1 07 F9
 (062.951337)  can0  460   [4]  00 00 CC 53
 (062.951552)  can0  462   [4]  00 00 CC 53
 (062.951747)  can0  464   [8]  66 1A 6C 02 4C A1 07 F9
 (063.965438)  can0  460   [4]  00 00 CC 53
 (063.965648)  can0  462   [4]  00 00 CC 53
 (063.965838)  can0  464   [8]  66 1A 6C 02 4C A1 07 F9
 (064.981655)  can0  460   [4]  00 00 CC 53
 (064.981872)  can0  462   [4]  12 00 CC 53
 (064.982064)  can0  464   [8]  68 1A 6C 02 4C A1 07 F9
 (065.997145)  can0  460   [4]  00 00 CC 53
 (065.997357)  can0  462   [4]  00 00 CC 53
 (065.997549)  can0  464   [8]  68 1A 6C 02 4C A1 07 F9
 (067.011690)  can0  460   [4]  00 00 CC 53
 (067.011911)  can0  462   [4]  25 00 CC 53
 (067.012108)  can0  464   [8]  6A 1A 6C 02 4B A1 07 F9
 (068.029807)  can0  460   [4]  00 00 CD 53
 (068.030030)  can0  462   [4]  12 00 CD 53
 (068.030227)  can0  464   [8]  6B 1A 6C 02 4B A1 07 F9
 (068.945727)  can0  460   [4]  00 00 CD 53
 (068.945944)  can0  462   [4]  00 00 CD 53
 (068.946145)  can0  464   [8]  6C 1A 6C 02 4B A1 07 F9
 (069.959845)  can0  460   [4]  00 00 CD 53
 (069.960069)  can0  462   [4]  25 00 CD 53
 (069.960262)  can0  464   [8]  6E 1A 6C 02 4B A1 07 F9
 (070.977609)  can0  460   [4]  00 00 CD 53
 (070.977826)  can0  462   [4]  25 00 CD 53
 (070.978027)  can0  464   [8]  6F 1A 6C 02 4A A1 07 F9
 (071.991986)  can0  460   [4]  00 00 CD 53
 (071.992257)  can0  464   [8]  71 1A 6C 02 4A A1 07 F9
 (071.992999)  can0  462   [4]  25 00 CD 53
 (071.993207)  can0  468   [2]  09 05
 (073.007408)  can0  460   [4]  00 00 CD 53
 (073.007635)  can0  462   [4]  00 00 CD 53
 (073.007832)  can0  464   [8]  71 1A 6C 02 4A A1 07 F9
 (074.023074)  can0  460   [4]  00 00 CD 53
 (074.023291)  can0  462   [4]  25 00 CD 53
 (074.023492)  can0  464   [8]  73 1A 6C 02 4A A1 07 F9
 (074.939212)  can0  460   [4]  00 00 CD 53
 (074.939444)  can0  462   [4]  12 00 CD 53
 (074.939641)  can0  464   [8]  74 1A 6C 02 4A A1 07 F9
 (075.953910)  can0  460   [4]  00 00 CE 53
 (075.954129)  can0  462   [4]  12 00 CE 53
 (075.954332)  can0  464   [8]  75 1A 6C 02 49 A1 07 F9
 (076.971677)  can0  460   [4]  00 00 CE 53
 (076.971892)  can0  462   [4]  25 00 CE 53
 (076.972090)  can0  464   [8]  76 1A 6C 02 49 A1 07 F9
 (077.985880)  can0  460   [4]  03 00 CE 53
 (077.986098)  can0  462   [4]  25 00 CE 53
 (077.986290)  can0  464   [8]  78 1A 6C 02 49 A1 07 F9
 (079.001726)  can0  460   [4]  00 00 CE 53
 (079.001939)  can0  462   [4]  00 00 CE 53
 (079.002131)  can0  464   [8]  78 1A 6C 02 49 A1 07 F9
 (080.021835)  can0  460   [4]  0F 00 CE 53
 (080.022044)  can0  462   [4]  37 00 CE 53
 (080.022235)  can0  464   [8]  7A 1A 6C 02 49 A1 07 F9
 (080.938208)  can0  460   [4]  14 00 CE 53
 (080.938464)  can0  464   [8]  7C 1A 6C 02 48 A1 07 F9
 (080.939206)  can0  462   [4]  37 00 CE 53
 (080.939397)  can0  468   [2]  EC 04
 (081.959963)  can0  460   [4]  1A 00 CE 53
 (081.960169)  can0  462   [4]  37 00 CE 53
 (081.960358)  can0  464   [8]  7E 1A 6C 02 48 A1 07 F9
 (082.976169)  can0  460   [4]  14 00 CE 53
 (082.976379)  can0  462   [4]  25 00 CE 53
 (082.976573)  can0  464   [8]  80 1A 6C 02 48 A1 07 F9
 (083.989840)  can0  460   [4]  27 00 CF 53
 (083.990048)  can0  462   [4]  37 00 CF 53
 (083.990240)  can0  464   [8]  82 1A 6C 02 48 A1 07 F9
 (085.006225)  can0  460   [4]  1C 00 CF 53
 (085.006434)  can0  462   [4]  25 00 CF 53
 (085.006626)  can0  464   [8]  83 1A 6C 02 48 A1 07 F9
 (086.026254)  can0  460   [4]  1E 00 CF 53
 (086.026479)  can0  462   [4]  25 00 CF 53
 (086.026669)  can0  464   [8]  84 1A 6C 02 47 A1 07 F9
 (086.941491)  can0  460   [4]  10 00 CF 53
 (086.941702)  can0  462   [4]  12 00 CF 53
 (086.941894)  can0  464   [8]  85 1A 6C 02 47 A1 07 F9
 (087.956124)  can0  460   [4]  11 00 CF 53
 (087.956343)  can0  462   [4]  12 00 CF 53
 (087.956535)  can0  464   [8]  86 1A 6C 02 47 A1 07 F9
 (088.973973)  can0  460   [4]  12 00 CF 53
 (088.974186)  can0  462   [4]  12 00 CF 53
 (088.974378)  can0  464   [8]  87 1A 6C 02 47 A1 07 F9
 (089.988341)  can0  460   [4]  36 00 CF 53
 (089.988555)  can0  462   [4]  37 00 CF 53
 (089.988746)  can0  464   [8]  88 1A 6C 02 47 A1 07 F9
 (091.004104)  can0  460   [4]  37 00 CF 53
 (091.004312)  can0  462   [4]  37 00 CF 53
 (091.004503)  can0  464   [8]  8A 1A 6C 02 47 A1 07 F9
 (092.022389)  can0  460   [4]  24 00 D0 53
 (092.022620)  can0  462   [4]  25 00 D0 53
 (092.022815)  can0  464   [8]  8B 1A 6C 02 46 A1 07 F9
 (092.942406)  can0  460   [4]  23 00 D0 53
 (092.942613)  can0  462   [4]  25 00 D0 53
 (092.942804)  can0  464   [8]  8C 1A 6C 02 46 A1 07 F9
 (093.959661)  can0  460   [4]  32 00 D0 53
 (093.959868)  can0  462   [4]  37 00 D0 53
 (093.960058)  can0  464   [8]  8D 1A 6C 02 46 A1 07 F9
 (094.974290)  can0  460   [4]  20 00 D0 53
 (094.974501)  can0  462   [4]  25 00 D0 53
 (094.974694)  can0  464   [8]  8F 1A 6C 02 46 A1 07 F9
 (095.992054)  can0  460   [4]  2D 00 D0 53
 (095.992265)  can0  462   [4]  37 00 D0 53
 (095.992456)  can0  464   [8]  91 1A 6C 02 46 A1 07 F9
 (097.006363)  can0  460   [4]  29 00 D0 53
 (097.006597)  can0  462   [4]  37 00 D0 53
 (097.006786)  can0  464   [8]  93 1A 6C 02 46 A1 07 F9
 (098.024101)  can0  460   [4]  21 00 D0 53
 (098.024310)  can0  462   [4]  37 00 D0 53
 (098.024500)  can0  464   [8]  95 1A 6C 02 46 A1 07 F9
 (098.938405)  can0  460   [4]  1D 00 D1 53
 (098.938623)  can0  462   [4]  37 00 D1 53
 (098.938816)  can0  464   [8]  96 1A 6C 02 45 A1 07 F9
 (099.956241)  can0  460   [4]  18 00 D1 53
 (099.956451)  can0  462   [4]  37 00 D1 53
 (099.956649)  can0  464   [8]  98 1A 6C 02 45 A1 07 F9
 (100.976369)  can0  460   [4]  13 00 D1 53
 (100.976590)  can0  462   [4]  37 00 D1 53
 (100.976783)  can0  464   [8]  9A 1A 6C 02 45 A1 07 F9
 (102.000220)  can0  460   [4]  08 00 D1 53
 (102.000435)  can0  462   [4]  37 00 D1 53
 (102.000627)  can0  464   [8]  9B 1A 6C 02 45 A1 07 F9
 (103.020327)  can0  460   [4]  04 00 D1 53
 (103.020538)  can0  462   [4]  4A 00 D1 53
 (103.020729)  can0  464   [8]  9E 1A 6C 02 45 A1 07 F9
 (103.938536)  can0  460   [4]  00 00 D1 53
 (103.938751)  can0  462   [4]  4A 00 D1 53
 (103.938944)  can0  464   [8]  A0 1A 6C 02 45 A1 07 F9
 (104.956369)  can0  460   [4]  00 00 D2 53
 (104.956578)  can0  462   [4]  4A 00 D2 53
 (104.956768)  can0  464   [8]  A2 1A 6C 02 44 A1 07 F9
 (105.976653)  can0  460   [4]  00 00 D2 53
 (105.976866)  can0  462   [4]  4A 00 D2 53
 (105.977056)  can0  464   [8]  A4 1A 6C 02 44 A1 07 F9
 (106.992421)  can0  460   [4]  00 00 D2 53
 (106.992633)  can0  462   [4]  5C 00 D2 53
 (106.992824)  can0  464   [8]  A6 1A 6C 02 44 A1 07 F9
 (108.008707)  can0  460   [4]  00 00 D2 53
 (108.008918)  can0  462   [4]  5C 00 D2 53
 (108.009114)  can0  464   [8]  A9 1A 6C 02 44 A1 07 F9
 (109.024829)  can0  460   [4]  00 00 D3 53
 (109.025049)  can0  462   [4]  5C 00 D3 53
 (109.025243)  can0  464   [8]  AC 1A 6C 02 44 A1 07 F9
 (109.939983)  can0  460   [4]  00 00 D3 53
 (109.940198)  can0  462   [4]  4A 00 D3 53
 (109.940393)  can0  464   [8]  AE 1A 6C 02 44 A1 07 F9
 (110.958518)  can0  460   [4]  00 00 D3 53
 (110.958731)  can0  462   [4]  4A 00 D3 53
 (110.958921)  can0  464   [8]  B0 1A 6C 02 43 A1 07 F9
 (111.976815)  can0  460   [4]  00 00 D3 53
 (111.977041)  can0  462   [4]  4A 00 D3 53
 (111.977233)  can0  464   [8]  B2 1A 6C 02 43 A1 07 F9
 (112.992657)  can0  460   [4]  00 00 D3 53
 (112.992869)  can0  462   [4]  4A 00 D3 53
 (112.993062)  can0  464   [8]  B4 1A 6C 02 43 A1 07 F9
 (114.008876)  can0  460   [4]  00 00 D4 53
 (114.009086)  can0  462   [4]  4A 00 D4 53
 (114.009274)  can0  464   [8]  B6 1A 6C 02 43 A1 07 F9
 (114.932187)  can0  460   [4]  00 00 D4 53
 (114.932400)  can0  462   [4]  5C 00 D4 53
 (114.932591)  can0  464   [8]  B9 1A 6C 02 43 A1 07 F9
 (115.949000)  can0  460   [4]  00 00 D4 53
 (115.949214)  can0  462   [4]  5C 00 D4 53
 (115.949406)  can0  464   [8]  BC 1A 6C 02 43 A1 07 F9
 (116.966676)  can0  460   [4]  00 00 D4 53
 (116.966885)  can0  462   [4]  5C 00 D4 53
 (116.967072)  can0  464   [8]  BE 1A 6C 02 43 A1 07 F9
 (117.983043)  can0  460   [4]  00 00 D5 53
 (117.983284)  can0  462   [4]  5C 00 D5 53
 (117.983474)  can0  464   [8]  C1 1A 6C 02 43 A1 07 F9
 (119.001177)  can0  460   [4]  00 00 D5 53
 (119.001392)  can0  464   [8]  C4 1A 6C 02 42 A1 07 F9
 (119.002155)  can0  462   [4]  81 00 D5 53
 (119.002345)  can0  468   [2]  81 00
 (120.016669)  can0  460   [4]  5C 00 D5 53
 (120.016890)  can0  462   [4]  5C 00 D5 53
 (120.017082)  can0  464   [8]  C5 1A 6C 02 42 A1 07 F9
 (121.031051)  can0  460   [4]  00 00 D5 53
 (121.031274)  can0  462   [4]  12 00 D5 53
 (121.031467)  can0  464   [8]  C6 1A 6C 02 42 A1 07 F9
 (121.949072)  can0  460   [4]  00 00 D5 53
 (121.949284)  can0  462   [4]  12 00 D5 53
 (121.949494)  can0  464   [8]  C7 1A 6C 02 42 A1 07 F9
 (122.964805)  can0  460   [4]  00 00 D5 53
 (122.965015)  can0  462   [4]  12 00 D5 53
 (122.965205)  can0  464   [8]  C7 1A 6C 02 42 A1 07 F9
 (123.983121)  can0  460   [4]  00 00 D5 53
 (123.983339)  can0  462   [4]  12 00 D5 53
 (123.983532)  can0  464   [8]  C8 1A 6C 02 42 A1 07 F9
 (124.998786)  can0  460   [4]  00 00 D5 53
 (124.998998)  can0  462   [4]  12 00 D5 53
 (124.999189)  can0  464   [8]  C9 1A 6C 02 42 A1 07 F9
 (126.016659)  can0  460   [4]  00 00 D5 53
 (126.016888)  can0  462   [4]  12 00 D5 53
 (126.017092)  can0  464   [8]  C9 1A 6C 02 42 A1 07 F9
 (126.932416)  can0  460   [4]  01 00 D5 53
 (126.932659)  can0  462   [4]  12 00 D5 53
 (126.932854)  can0  464   [8]  CA 1A 6C 02 42 A1 07 F9
 (127.947117)  can0  460   [4]  03 00 D5 53
 (127.947333)  can0  462   [4]  12 00 D5 53
 (127.947537)  can0  464   [8]  CA 1A 6C 02 42 A1 07 F9
 (128.964894)  can0  460   [4]  05 00 D6 53
 (128.965119)  can0  462   [4]  12 00 D6 53
 (128.965317)  can0  464   [8]  CB 1A 6C 02 42 A1 07 F9
 (129.981169)  can0  460   [4]  06 00 D6 53
 (129.981392)  can0  462   [4]  12 00 D6 53
 (129.981583)  can0  464   [8]  CB 1A 6C 02 41 A1 07 F9
 (130.998756)  can0  460   [4]  08 00 D6 53
 (130.998961)  can0  462   [4]  12 00 D6 53
 (130.999145)  can0  464   [8]  CC 1A 6C 02 41 A1 07 F9
 (132.015320)  can0  460   [4]  0A 00 D6 53
 (132.015527)  can0  462   [4]  12 00 D6 53
 (132.015715)  can0  464   [8]  CD 1A 6C 02 41 A1 07 F9
 (132.932541)  can0  460   [4]  0B 00 D6 53
 (132.932747)  can0  462   [4]  12 00 D6 53
 (132.932937)  can0  464   [8]  CD 1A 6C 02 41 A1 07 F9
 (133.949263)  can0  460   [4]  0B 00 D6 53
 (133.949473)  can0  462   [4]  12 00 D6 53
 (133.949662)  can0  464   [8]  CE 1A 6C 02 41 A1 07 F9
 (134.967024)  can0  460   [4]  0D 00 D6 53
 (134.967225)  can0  462   [4]  12 00 D6 53
 (134.967410)  can0  464   [8]  CF 1A 6C 02 41 A1 07 F9
 (135.983319)  can0  460   [4]  1C 00 D6 53
 (135.983527)  can0  462   [4]  25 00 D6 53
 (135.983717)  can0  464   [8]  D0 1A 6C 02 41 A1 07 F9
 (137.001359)  can0  460   [4]  1E 00 D6 53
 (137.001571)  can0  462   [4]  25 00 D6 53
 (137.001753)  can0  464   [8]  D1 1A 6C 02 41 A1 07 F9
 (138.019191)  can0  460   [4]  20 00 D6 53
 (138.019407)  can0  462   [4]  25 00 D6 53
 (138.019601)  can0  464   [8]  D2 1A 6C 02 41 A1 07 F9
 (138.939399)  can0  460   [4]  33 00 D6 53
 (138.939609)  can0  462   [4]  37 00 D6 53
 (138.939802)  can0  464   [8]  D4 1A 6C 02 40 A1 07 F9
 (139.959162)  can0  460   [4]  44 00 D7 53
 (139.959387)  can0  462   [4]  4A 00 D7 53
 (139.959571)  can0  464   [8]  D6 1A 6C 02 40 A1 07 F9
 (140.975529)  can0  460   [4]  5B 00 D7 53
 (140.975734)  can0  462   [4]  5C 00 D7 53
 (140.975920)  can0  464   [8]  D9 1A 6C 02 40 A1 07 F9
 (141.991206)  can0  460   [4]  6E 00 D7 53
 (141.991412)  can0  462   [4]  6F 00 D7 53
 (141.991597)  can0  464   [8]  DC 1A 6C 02 3F A1 07 F9
 (143.011494)  can0  460   [4]  7F 00 D7 53
 (143.011701)  can0  462   [4]  81 00 D7 53
 (143.011890)  can0  464   [8]  DF 1A 6C 02 3F A1 07 F9
 (144.029510)  can0  460   [4]  A6 00 D8 53
 (144.029716)  can0  462   [4]  A6 00 D8 53
 (144.029907)  can0  464   [8]  E4 1A 6C 02 3E A1 07 F9
 (144.946872)  can0  460   [4]  93 00 D8 53
 (144.947075)  can0  462   [4]  94 00 D8 53
 (144.947262)  can0  464   [8]  E8 1A 6C 02 3E A1 07 F9
 (145.963574)  can0  460   [4]  B7 00 D9 53
 (145.963778)  can0  462   [4]  B9 00 D9 53
 (145.963964)  can0  464   [8]  EC 1A 6C 02 3D A1 07 F9
 (146.979423)  can0  460   [4]  AF 00 D9 53
 (146.979634)  can0  462   [4]  B9 00 D9 53
 (146.979828)  can0  464   [8]  F1 1A 6C 02 3D A1 07 F9
 (147.999619)  can0  460   [4]  AF 00 DA 53
 (147.999825)  can0  462   [4]  B9 00 DA 53
 (148.000013)  can0  464   [8]  F6 1A 6C 02 3C A1 07 F9
 (149.021381)  can0  460   [4]  C1 00 DA 53
 (149.021586)  can0  462   [4]  CB 00 DA 53
 (149.021772)  can0  464   [8]  FC 1A 6C 02 3C A1 07 F9
 (149.939578)  can0  460   [4]  C1 00 DB 53
 (149.939785)  can0  462   [4]  DE 00 DB 53
 (149.939970)  can0  464   [8]  01 1B 6C 02 3B A1 07 F9
 (150.961436)  can0  460   [4]  C4 00 DB 53
 (150.961637)  can0  462   [4]  F0 00 DB 53
 (150.961822)  can0  464   [8]  08 1B 6C 02 3B A1 07 F9
 (151.975643)  can0  460   [4]  0E 00 DC 53
 (151.975853)  can0  462   [4]  03 01 DC 53
 (151.976044)  can0  464   [8]  0E 1B 6C 02 3A A1 07 F9
 (152.991665)  can0  460   [4]  00 00 DC 53
 (152.991871)  can0  462   [4]  DE 00 DC 53
 (152.992061)  can0  464   [8]  14 1B 6C 02 3A A1 07 F9
 (154.009968)  can0  460   [4]  00 00 DD 53
 (154.010183)  can0  462   [4]  94 00 DD 53
 (154.010374)  can0  464   [8]  19 1B 6C 02 39 A1 07 F9
 (155.027812)  can0  460   [4]  00 00 DD 53
 (155.028021)  can0  462   [4]  25 00 DD 53
 (155.028206)  can0  464   [8]  1B 1B 6C 02 39 A1 07 F9
 (155.941660)  can0  460   [4]  00 00 DD 53
 (155.941884)  can0  462   [4]  37 00 DD 53
 (155.942072)  can0  464   [8]  1D 1B 6C 02 39 A1 07 F9
 (156.953756)  can0  460   [4]  02 00 DD 53
 (156.953961)  can0  462   [4]  12 00 DD 53
 (156.954149)  can0  464   [8]  1E 1B 6C 02 39 A1 07 F9
 (157.969692)  can0  460   [4]  21 00 DD 53
 (157.969895)  can0  462   [4]  25 00 DD 53
 (157.970084)  can0  464   [8]  1F 1B 6C 02 39 A1 07 F9
 (158.981633)  can0  460   [4]  0F 00 DD 53
 (158.981841)  can0  462   [4]  12 00 DD 53
 (158.982026)  can0  464   [8]  1F 1B 6C 02 39 A1 07 F9
 (159.993830)  can0  460   [4]  00 00 DD 53
 (159.994035)  can0  462   [4]  12 00 DD 53
 (159.994218)  can0  464   [8]  20 1B 6C 02 39 A1 07 F9
 (161.011777)  can0  460   [4]  00 00 DD 53
 (161.011983)  can0  462   [4]  12 00 DD 53
 (161.012174)  can0  464   [8]  20 1B 6C 02 39 A1 07 F9
 (162.027799)  can0  460   [4]  00 00 DE 53
 (162.028009)  can0  462   [4]  25 00 DE 53
 (162.028197)  can0  464   [8]  20 1B 6C 02 3A A1 07 F9
 (162.942089)  can0  460   [4]  00 00 DE 53
 (162.942300)  can0  462   [4]  00 00 DE 53
 (162.942488)  can0  464   [8]  21 1B 6C 02 3A A1 07 F9
 (163.952021)  can0  460   [4]  12 00 DE 53
 (163.952227)  can0  462   [4]  12 00 DE 53
 (163.952413)  can0  464   [8]  21 1B 6C 02 3A A1 07 F9
 (164.971602)  can0  460   [4]  00 00 DE 53
 (164.971805)  can0  462   [4]  00 00 DE 53
 (164.971989)  can0  464   [8]  21 1B 6C 02 3A A1 07 F9
 (165.987984)  can0  460   [4]  00 00 DE 53
 (165.988189)  can0  462   [4]  00 00 DE 53
 (165.988376)  can0  464   [8]  21 1B 6C 02 3A A1 07 F9
 (167.005656)  can0  460   [4]  00 00 DE 53
 (167.005862)  can0  462   [4]  00 00 DE 53
 (167.006048)  can0  464   [8]  22 1B 6C 02 3A A1 07 F9
 (168.019864)  can0  460   [4]  00 00 DE 53
 (168.020073)  can0  462   [4]  00 00 DE 53
 (168.020258)  can0  464   [8]  22 1B 6C 02 3A A1 07 F9
 (168.934334)  can0  460   [4]  0E 00 DE 53
 (168.934544)  can0  462   [4]  12 00 DE 53
 (168.934769)  can0  464   [8]  22 1B 6C 02 3A A1 07 F9
 (169.954259)  can0  460   [4]  10 00 DE 53
 (169.954475)  can0  462   [4]  12 00 DE 53
 (169.954662)  can0  464   [8]  22 1B 6C 02 3A A1 07 F9
 (170.971763)  can0  460   [4]  00 00 DE 53
 (170.971992)  can0  462   [4]  00 00 DE 53
 (170.972202)  can0  464   [8]  23 1B 6C 02 3A A1 07 F9
 (171.986229)  can0  460   [4]  00 00 DE 53
 (171.986447)  can0  462   [4]  12 00 DE 53
 (171.986641)  can0  464   [8]  23 1B 6C 02 3A A1 07 F9
 (173.006072)  can0  460   [4]  00 00 DE 53
 (173.006290)  can0  462   [4]  12 00 DE 53
 (173.006484)  can0  464   [8]  24 1B 6C 02 3B A1 07 F9
 (174.030114)  can0  460   [4]  07 00 DE 53
 (174.030347)  can0  462   [4]  12 00 DE 53
 (174.030545)  can0  464   [8]  24 1B 6C 02 3B A1 07 F9
 (174.948402)  can0  460   [4]  12 00 DE 53
 (174.948632)  can0  462   [4]  12 00 DE 53
 (174.948829)  can0  464   [8]  24 1B 6C 02 3B A1 07 F9
 (175.964065)  can0  460   [4]  09 00 DE 53
 (175.964291)  can0  462   [4]  12 00 DE 53
 (175.964485)  can0  464   [8]  24 1B 6C 02 3B A1 07 F9
 (176.982178)  can0  460   [4]  00 00 DE 53
 (176.982398)  can0  462   [4]  00 00 DE 53
 (176.982596)  can0  464   [8]  24 1B 6C 02 3B A1 07 F9
 (178.000210)  can0  460   [4]  00 00 DE 53
 (178.000420)  can0  462   [4]  12 00 DE 53
 (178.000604)  can0  464   [8]  25 1B 6C 02 3C A1 07 F9
 (179.018490)  can0  460   [4]  00 00 DE 53
 (179.018698)  can0  462   [4]  12 00 DE 53
 (179.018882)  can0  464   [8]  26 1B 6C 02 3C A1 07 F9
 (179.935726)  can0  460   [4]  0C 00 DE 53
 (179.935944)  can0  462   [4]  12 00 DE 53
 (179.936136)  can0  464   [8]  26 1B 6C 02 3C A1 07 F9
 (180.956211)  can0  460   [4]  11 00 DE 53
 (180.956448)  can0  462   [4]  12 00 DE 53
 (180.956642)  can0  464   [8]  26 1B 6C 02 3C A1 07 F9
 (181.972318)  can0  460   [4]  00 00 DE 53
 (181.972545)  can0  462   [4]  00 00 DE 53
 (181.972741)  can0  464   [8]  27 1B 6C 02 3C A1 07 F9
 (182.990424)  can0  460   [4]  00 00 DE 53
 (182.990635)  can0  462   [4]  00 00 DE 53
 (182.990830)  can0  464   [8]  27 1B 6C 02 3D A1 07 F9
 (184.006360)  can0  460   [4]  00 00 DE 53
 (184.006591)  can0  462   [4]  25 00 DE 53
 (184.006791)  can0  464   [8]  27 1B 6C 02 3D A1 07 F9
 (185.020289)  can0  460   [4]  00 00 DE 53
 (185.020512)  can0  462   [4]  00 00 DE 53
 (185.020701)  can0  464   [8]  28 1B 6C 02 3D A1 07 F9
 (185.937918)  can0  460   [4]  11 00 DE 53
 (185.938159)  can0  462   [4]  12 00 DE 53
 (185.938354)  can0  464   [8]  28 1B 6C 02 3E A1 07 F9
 (186.950521)  can0  460   [4]  07 00 DE 53
 (186.950748)  can0  462   [4]  12 00 DE 53
 (186.950939)  can0  464   [8]  28 1B 6C 02 3E A1 07 F9
 (187.966539)  can0  460   [4]  00 00 DF 53
 (187.966754)  can0  462   [4]  25 00 DF 53
 (187.966955)  can0  464   [8]  29 1B 6C 02 3F A1 07 F9
 (188.982740)  can0  460   [4]  00 00 DF 53
 (188.982957)  can0  462   [4]  25 00 DF 53
 (188.983148)  can0  464   [8]  2A 1B 6C 02 40 A1 07 F9
 (190.002434)  can0  460   [4]  00 00 DF 53
 (190.002655)  can0  462   [4]  25 00 DF 53
 (190.002846)  can0  464   [8]  2B 1B 6C 02 40 A1 07 F9
 (191.020799)  can0  460   [4]  00 00 DF 53
 (191.021004)  can0  462   [4]  12 00 DF 53
 (191.021187)  can0  464   [8]  2B 1B 6C 02 41 A1 07 F9
 (191.936034)  can0  460   [4]  08 00 DF 53
 (191.936240)  can0  462   [4]  37 00 DF 53
 (191.936427)  can0  464   [8]  2C 1B 6C 02 42 A1 07 F9
 (192.950753)  can0  460   [4]  11 00 DF 53
 (192.950963)  can0  462   [4]  12 00 DF 53
 (192.951147)  can0  464   [8]  2D 1B 6C 02 43 A1 07 F9
 (193.966606)  can0  460   [4]  1A 00 DF 53
 (193.966812)  can0  462   [4]  25 00 DF 53
 (193.967001)  can0  464   [8]  2D 1B 6C 02 43 A1 07 F9
 (194.980807)  can0  460   [4]  00 00 DF 53
 (194.981013)  can0  462   [4]  12 00 DF 53
 (194.981201)  can0  464   [8]  2E 1B 6C 02 44 A1 07 F9
 (195.996571)  can0  460   [4]  00 00 DF 53
 (195.996777)  can0  462   [4]  12 00 DF 53
 (195.996961)  can0  464   [8]  2E 1B 6C 02 44 A1 07 F9
 (197.012428)  can0  460   [4]  00 00 DF 53
 (197.012639)  can0  462   [4]  00 00 DF 53
 (197.012822)  can0  464   [8]  2E 1B 6C 02 44 A1 07 F9
 (198.026618)  can0  460   [4]  00 00 DF 53
 (198.026822)  can0  462   [4]  00 00 DF 53
 (198.027009)  can0  464   [8]  2E 1B 6C 02 45 A1 07 F9
 (198.940637)  can0  460   [4]  00 00 DF 53
 (198.940840)  can0  462   [4]  00 00 DF 53
 (198.941027)  can0  464   [8]  2F 1B 6C 02 45 A1 07 F9
 (199.960672)  can0  460   [4]  0A 00 DF 53
 (199.960875)  can0  462   [4]  12 00 DF 53
 (199.961059)  can0  464   [8]  2F 1B 6C 02 45 A1 07 F9
 (200.972693)  can0  460   [4]  00 00 DF 53
 (200.972900)  can0  462   [4]  00 00 DF 53
 (200.973087)  can0  464   [8]  2F 1B 6C 02 46 A1 07 F9
 (201.990547)  can0  460   [4]  00 00 DF 53
 (201.990751)  can0  462   [4]  00 00 DF 53
 (201.990935)  can0  464   [8]  2F 1B 6C 02 46 A1 07 F9
 (203.007019)  can0  460   [4]  00 00 E0 53
 (203.007223)  can0  462   [4]  12 00 E0 53
 (203.007410)  can0  464   [8]  30 1B 6C 02 46 A1 07 F9
 (204.021030)  can0  460   [4]  00 00 E0 53
 (204.021235)  can0  462   [4]  00 00 E0 53
 (204.021423)  can0  464   [8]  30 1B 6C 02 47 A1 07 F9
 (204.942348)  can0  460   [4]  12 00 E0 53
 (204.942551)  can0  462   [4]  12 00 E0 53
 (204.942737)  can0  464   [8]  30 1B 6C 02 47 A1 07 F9
 (205.956827)  can0  460   [4]  08 00 E0 53
 (205.957034)  can0  462   [4]  12 00 E0 53
 (205.957225)  can0  464   [8]  30 1B 6C 02 48 A1 07 F9
 (206.973035)  can0  460   [4]  00 00 E0 53
 (206.973249)  can0  462   [4]  12 00 E0 53
 (206.973438)  can0  464   [8]  31 1B 6C 02 48 A1 07 F9
 (207.988965)  can0  460   [4]  00 00 E0 53
 (207.989169)  can0  462   [4]  12 00 E0 53
 (207.989354)  can0  464   [8]  31 1B 6C 02 49 A1 07 F9
 (209.004995)  can0  460   [4]  00 00 E0 53
 (209.005205)  can0  462   [4]  25 00 E0 53
 (209.005395)  can0  464   [8]  31 1B 6C 02 49 A1 07 F9
 (210.019182)  can0  460   [4]  0B 00 E0 53
 (210.019390)  can0  462   [4]  12 00 E0 53
 (210.019576)  can0  464   [8]  32 1B 6C 02 4A A1 07 F9
 (210.936512)  can0  460   [4]  12 00 E0 53
 (210.936725)  can0  462   [4]  12 00 E0 53
 (210.936921)  can0  464   [8]  32 1B 6C 02 4B A1 07 F9
 (211.954971)  can0  460   [4]  0C 00 E0 53
 (211.955177)  can0  462   [4]  25 00 E0 53
 (211.955364)  can0  464   [8]  32 1B 6C 02 4B A1 07 F9
 (212.971285)  can0  460   [4]  00 00 E0 53
 (212.971494)  can0  462   [4]  12 00 E0 53
 (212.971680)  can0  464   [8]  32 1B 6C 02 4C A1 07 F9
 (213.985019)  can0  460   [4]  00 00 E0 53
 (213.985221)  can0  462   [4]  00 00 E0 53
 (213.985407)  can0  464   [8]  32 1B 6C 02 4C A1 07 F9
 (214.999413)  can0  460   [4]  00 00 E0 53
 (214.999627)  can0  462   [4]  12 00 E0 53
 (214.999817)  can0  464   [8]  33 1B 6C 02 4D A1 07 F9
 (216.015425)  can0  460   [4]  0C 00 E0 53
 (216.015629)  can0  462   [4]  12 00 E0 53
 (216.015820)  can0  464   [8]  33 1B 6C 02 4D A1 07 F9
 (217.031467)  can0  460   [4]  23 00 E0 53
 (217.031692)  can0  462   [4]  25 00 E0 53
 (217.031891)  can0  464   [8]  33 1B 6C 02 4E A1 07 F9
 (217.945578)  can0  460   [4]  04 00 E0 53
 (217.945801)  can0  462   [4]  12 00 E0 53
 (217.946000)  can0  464   [8]  33 1B 6C 02 4F A1 07 F9
 (218.965245)  can0  460   [4]  00 00 E0 53
 (218.965462)  can0  462   [4]  25 00 E0 53
 (218.965656)  can0  464   [8]  34 1B 6C 02 4F A1 07 F9
 (219.981566)  can0  460   [4]  0F 00 E0 53
 (219.981800)  can0  462   [4]  12 00 E0 53
 (219.982002)  can0  464   [8]  34 1B 6C 02 50 A1 07 F9
 (220.995207)  can0  460   [4]  00 00 C3 53
 (220.995430)  can0  462   [4]  25 00 C3 53
 (220.995627)  can0  464   [8]  DD 19 6C 02 B2 A1 07 F9
 (222.011324)  can0  460   [4]  00 00 C3 53
 (222.011548)  can0  462   [4]  25 00 C3 53
 (222.011755)  can0  464   [8]  DA 19 6C 02 B4 A1 07 F9
 (223.027529)  can0  460   [4]  00 00 C3 53
 (223.027760)  can0  462   [4]  12 00 C3 53
 (223.027954)  can0  464   [8]  D9 19 6C 02 B4 A1 07 F9
 (223.943818)  can0  460   [4]  00 00 C3 53
 (223.944042)  can0  464   [8]  D9 19 6C 02 B5 A1 07 F9
 (223.944805)  can0  462   [4]  37 00 C3 53
 (223.945001)  can0  468   [2]  8B 00
 (224.961499)  can0  460   [4]  00 00 C3 53
 (224.961706)  can0  462   [4]  37 00 C3 53
 (224.961893)  can0  464   [8]  D9 19 6C 02 B5 A1 07 F9
 (225.977337)  can0  460   [4]  21 00 C3 53
 (225.977572)  can0  462   [4]  25 00 C3 53
 (225.977765)  can0  464   [8]  D9 19 6C 02 B6 A1 07 F9
 (226.991628)  can0  460   [4]  00 00 C3 53
 (226.991851)  can0  462   [4]  25 00 C3 53
 (226.992037)  can0  464   [8]  D9 19 6C 02 B7 A1 07 F9
 (228.007370)  can0  460   [4]  00 00 C3 53
 (228.007574)  can0  462   [4]  00 00 C3 53
 (228.007761)  can0  464   [8]  D9 19 6C 02 B7 A1 07 F9
 (229.007756)  can0  460   [4]  22 00 C3 53
 (229.007962)  can0  462   [4]  25 00 C3 53
 (229.008151)  can0  464   [8]  D9 19 6C 02 B8 A1 07 F9
 (230.011534)  can0  460   [4]  00 00 C3 53
 (230.011747)  can0  462   [4]  12 00 C3 53
 (230.011935)  can0  464   [8]  DA 19 6C 02 B8 A1 07 F9
 (231.007897)  can0  460   [4]  00 00 C3 53
 (231.008102)  can0  462   [4]  12 00 C3 53
 (231.008286)  can0  464   [8]  DA 19 6C 02 B9 A1 07 F9
 (232.005826)  can0  460   [4]  00 00 C3 53
 (232.006033)  can0  462   [4]  12 00 C3 53
 (232.006219)  can0  464   [8]  DA 19 6C 02 B9 A1 07 F9
 (233.007532)  can0  460   [4]  00 00 C3 53
 (233.007746)  can0  462   [4]  25 00 C3 53
 (233.007936)  can0  464   [8]  DA 19 6C 02 BA A1 07 F9
 (234.009631)  can0  460   [4]  09 00 C3 53
 (234.009842)  can0  462   [4]  12 00 C3 53
 (234.010029)  can0  464   [8]  DA 19 6C 02 BA A1 07 F9
 (235.009908)  can0  460   [4]  00 00 C3 53
 (235.010114)  can0  462   [4]  12 00 C3 53
 (235.010300)  can0  464   [8]  DB 19 6C 02 BB A1 07 F9
 (236.007766)  can0  460   [4]  07 00 C3 53
 (236.007975)  can0  462   [4]  25 00 C3 53
 (236.008161)  can0  464   [8]  DB 19 6C 02 BB A1 07 F9
 (237.007888)  can0  460   [4]  12 00 C3 53
 (237.008102)  can0  462   [4]  12 00 C3 53
 (237.008293)  can0  464   [8]  DB 19 6C 02 BC A1 07 F9
 (238.009914)  can0  460   [4]  00 00 C6 53
 (238.010122)  can0  462   [4]  A7 06 C6 53
 (238.010313)  can0  464   [8]  E0 19 6C 02 FE A1 07 F9
 (239.009832)  can0  460   [4]  5B 03 C7 53
 (239.010047)  can0  462   [4]  8C 09 C7 53
 (239.010232)  can0  464   [8]  C6 19 6C 02 48 A2 07 F9
 (240.013249)  can0  460   [4]  00 00 C3 53
 (240.013458)  can0  462   [4]  11 0B C3 53
 (240.013649)  can0  464   [8]  8D 19 6C 02 6B A2 07 F9
 (241.016169)  can0  460   [4]  BE 09 BE 53
 (241.016372)  can0  462   [4]  C4 09 BE 53
 (241.016558)  can0  464   [8]  5E 19 6C 02 5A A2 07 F9
 (242.016180)  can0  460   [4]  00 00 B9 53
 (242.016389)  can0  462   [4]  42 09 B9 53
 (242.016576)  can0  464   [8]  3D 19 6C 02 2F A2 07 F9
 (243.014033)  can0  460   [4]  A6 04 B7 53
 (243.014238)  can0  462   [4]  B3 04 B7 53
 (243.014424)  can0  464   [8]  31 19 6C 02 20 A2 07 F9
 (244.015968)  can0  460   [4]  74 08 AE 53
 (244.016177)  can0  462   [4]  78 0E AE 53
 (244.016364)  can0  464   [8]  F1 18 6C 02 E1 A1 07 F9
 (245.018258)  can0  460   [4]  18 08 A2 53
 (245.018467)  can0  462   [4]  AD 13 A2 53
 (245.018657)  can0  464   [8]  99 18 6C 02 83 A1 07 F9
 (246.020028)  can0  460   [4]  DD 14 92 53
 (246.020244)  can0  462   [4]  86 18 92 53
 (246.020439)  can0  464   [8]  24 18 6C 02 13 A1 07 F9
 (247.024318)  can0  460   [4]  00 00 7E 53
 (247.024544)  can0  462   [4]  4C 1D 7E 53
 (247.024741)  can0  464   [8]  93 17 6C 02 91 A0 07 F9
 (248.026339)  can0  460   [4]  00 00 6A 53
 (248.026578)  can0  462   [4]  1B 1F 6A 53
 (248.026775)  can0  464   [8]  F9 16 6C 02 06 A0 07 F9
 (249.026102)  can0  460   [4]  6F 0F 59 53
 (249.026331)  can0  462   [4]  0B 1A 59 53
 (249.026533)  can0  464   [8]  82 16 6C 02 85 9F 07 F9
 (250.024374)  can0  460   [4]  F7 11 44 53
 (250.024592)  can0  462   [4]  BE 1E 44 53
 (250.024783)  can0  464   [8]  F4 15 6C 02 E8 9E 07 F9
 (251.024409)  can0  460   [4]  3D 15 37 53
 (251.024633)  can0  462   [4]  44 15 37 53
 (251.024826)  can0  464   [8]  92 15 6C 02 84 9E 07 F9
 (252.028007)  can0  460   [4]  02 00 30 53
 (252.028222)  can0  462   [4]  B4 0A 30 53
 (252.028412)  can0  464   [8]  62 15 6C 02 5B 9E 07 F9
 (253.027596)  can0  460   [4]  00 00 29 53
 (253.027811)  can0  462   [4]  E0 0C 29 53
 (253.028000)  can0  464   [8]  25 15 6C 02 29 9E 07 F9
 (254.028405)  can0  460   [4]  69 08 22 53
 (254.028614)  can0  462   [4]  A5 0B 22 53
 (254.028798)  can0  464   [8]  F6 14 6C 02 F2 9D 07 F9
 (255.030506)  can0  460   [4]  00 00 1D 53
 (255.030713)  can0  462   [4]  67 09 1D 53
 (255.030897)  can0  464   [8]  D6 14 6C 02 C1 9D 07 F9
 (256.032453)  can0  460   [4]  00 00 19 53
 (256.032665)  can0  462   [4]  BA 06 19 53
 (256.032853)  can0  464   [8]  C4 14 6C 02 9E 9D 07 F9
 (256.933689)  can0  460   [4]  00 00 18 53
 (256.933898)  can0  462   [4]  B0 03 18 53
 (256.934081)  can0  464   [8]  BF 14 6C 02 8D 9D 07 F9
 (257.935722)  can0  460   [4]  00 00 16 53
 (257.935931)  can0  462   [4]  13 06 16 53
 (257.936118)  can0  464   [8]  B9 14 6C 02 67 9D 07 F9
 (258.944181)  can0  460   [4]  00 00 15 53
 (258.944389)  can0  462   [4]  57 04 15 53
 (258.944578)  can0  464   [8]  BB 14 6C 02 4C 9D 07 F9
 (259.949874)  can0  460   [4]  00 00 15 53
 (259.950105)  can0  462   [4]  9A 02 15 53
 (259.950298)  can0  464   [8]  C1 14 6C 02 3B 9D 07 F9
 (260.954228)  can0  460   [4]  31 01 15 53
 (260.954445)  can0  462   [4]  C3 03 15 53
 (260.954639)  can0  464   [8]  C9 14 6C 02 23 9D 07 F9
 (261.956342)  can0  460   [4]  4B 02 14 53
 (261.956561)  can0  462   [4]  DC 05 14 53
 (261.956752)  can0  464   [8]  D3 14 6C 02 FC 9C 07 F9
 (262.959847)  can0  460   [4]  00 00 0F 53
 (262.960058)  can0  462   [4]  E5 13 0F 53
 (262.960248)  can0  464   [8]  DE 14 6C 02 5F 9C 07 F9
 (263.960400)  can0  460   [4]  37 02 07 53
 (263.960608)  can0  462   [4]  E8 14 07 53
 (263.960796)  can0  464   [8]  D3 14 6C 02 BB 9B 07 F9
 (264.960770)  can0  460   [4]  71 16 FD 52
 (264.960979)  can0  462   [4]  1A 19 FD 52
 (264.961168)  can0  464   [8]  BC 14 6C 02 F4 9A 07 F9
 (265.962723)  can0  460   [4]  00 00 F1 52
 (265.962939)  can0  462   [4]  36 1C F1 52
 (265.963129)  can0  464   [8]  A5 14 6C 02 13 9A 07 F9
 (266.960737)  can0  460   [4]  E0 15 E5 52
 (266.960952)  can0  462   [4]  4F 1E E5 52
 (266.961149)  can0  464   [8]  8B 14 6C 02 21 99 07 F9
 (267.960771)  can0  460   [4]  00 00 DA 52
 (267.960992)  can0  462   [4]  99 1E DA 52
 (267.961185)  can0  464   [8]  7F 14 6C 02 28 98 07 F9
 (268.966711)  can0  460   [4]  00 00 D7 52
 (268.966931)  can0  462   [4]  00 11 D7 52
 (268.967137)  can0  464   [8]  9A 14 6C 02 A9 97 07 F9
 (269.968923)  can0  460   [4]  90 08 D5 52
 (269.969134)  can0  462   [4]  D6 09 D5 52
 (269.969322)  can0  464   [8]  A6 14 6C 02 62 97 07 F9
 (270.972915)  can0  460   [4]  20 0F D2 52
 (270.973124)  can0  462   [4]  7B 0F D2 52
 (270.973317)  can0  464   [8]  B5 14 6C 02 EB 96 07 F9
 (271.980787)  can0  460   [4]  BA 0B CE 52
 (271.981009)  can0  462   [4]  85 12 CE 52
 (271.981203)  can0  464   [8]  C6 14 6C 02 5B 96 07 F9
 (272.982810)  can0  460   [4]  00 00 C9 52
 (272.983035)  can0  462   [4]  7C 15 C9 52
 (272.983226)  can0  464   [8]  DB 14 6C 02 B2 95 07 F9
 (273.982931)  can0  460   [4]  A1 15 C3 52
 (273.983149)  can0  462   [4]  73 18 C3 52
 (273.983340)  can0  464   [8]  F2 14 6C 02 EF 94 07 F9
 (274.984934)  can0  460   [4]  00 00 BD 52
 (274.985170)  can0  462   [4]  6B 1B BD 52
 (274.985373)  can0  464   [8]  0B 15 6C 02 14 94 07 F9
 (275.992983)  can0  460   [4]  00 00 B5 52
 (275.993213)  can0  462   [4]  3D 1E B5 52
 (275.993409)  can0  464   [8]  20 15 6C 02 21 93 07 F9
 (276.999018)  can0  460   [4]  00 00 AD 52
 (276.999254)  can0  462   [4]  3A 1D AD 52
 (276.999465)  can0  464   [8]  31 15 6C 02 35 92 07 F9
 (278.000920)  can0  460   [4]  22 19 A4 52
 (278.001146)  can0  462   [4]  EA 20 A4 52
 (278.001361)  can0  464   [8]  3F 15 6C 02 29 91 07 F9
 (279.005123)  can0  460   [4]  00 00 99 52
 (279.005338)  can0  462   [4]  AA 23 99 52
 (279.005543)  can0  464   [8]  46 15 6C 02 06 90 07 F9
 (280.007070)  can0  460   [4]  00 00 8C 52
 (280.007294)  can0  462   [4]  20 26 8C 52
 (280.007484)  can0  464   [8]  45 15 6C 02 CD 8E 07 F9
 (281.006837)  can0  460   [4]  72 1D 7F 52
 (281.007057)  can0  462   [4]  E8 25 7F 52
 (281.007252)  can0  464   [8]  40 15 6C 02 95 8D 07 F9
 (282.010327)  can0  460   [4]  16 26 71 52
 (282.010541)  can0  462   [4]  A4 27 71 52
 (282.010731)  can0  464   [8]  35 15 6C 02 4F 8C 07 F9
 (283.008353)  can0  460   [4]  A9 29 63 52
 (283.008584)  can0  462   [4]  F5 29 63 52
 (283.008777)  can0  464   [8]  29 15 6C 02 F5 8A 07 F9
 (284.010391)  can0  460   [4]  F9 29 53 52
 (284.010621)  can0  462   [4]  33 2C 53 52
 (284.010823)  can0  464   [8]  1B 15 6C 02 88 89 07 F9
 (285.011127)  can0  460   [4]  3E 13 42 52
 (285.011352)  can0  462   [4]  0E 2C 42 52
 (285.011546)  can0  464   [8]  09 15 6C 02 1D 88 07 F9
 (286.015213)  can0  460   [4]  3C 1F 32 52
 (286.015427)  can0  462   [4]  B8 2D 32 52
 (286.015622)  can0  464   [8]  F5 14 6C 02 A2 86 07 F9
 (287.019405)  can0  460   [4]  94 27 21 52
 (287.019688)  can0  464   [8]  E3 14 6C 02 2A 85 07 F9
 (287.020414)  can0  462   [4]  93 2D 21 52
 (287.020615)  can0  468   [2]  8B 00
 (288.023275)  can0  460   [4]  D7 1C 10 52
 (288.023501)  can0  462   [4]  87 2F 10 52
 (288.023693)  can0  464   [8]  D1 14 6C 02 A0 83 07 F9
 (289.028516)  can0  460   [4]  00 00 FE 51
 (289.028753)  can0  462   [4]  AC 2F FE 51
 (289.028965)  can0  464   [8]  B8 14 6C 02 15 82 07 F9
 (290.032806)  can0  460   [4]  00 00 EB 51
 (290.033026)  can0  462   [4]  50 2F EB 51
 (290.033223)  can0  464   [8]  98 14 6C 02 8D 80 07 F9
 (291.034554)  can0  460   [4]  00 00 D8 51
 (291.034770)  can0  462   [4]  D5 30 D8 51
 (291.034970)  can0  464   [8]  72 14 6C 02 FA 7E 07 F9
 (292.032602)  can0  460   [4]  8A 20 C3 51
 (292.032816)  can0  462   [4]  22 32 C3 51
 (292.033008)  can0  464   [8]  45 14 6C 02 5C 7D 07 F9
 (293.031390)  can0  460   [4]  0E 30 AE 51
 (293.031606)  can0  462   [4]  6F 33 AE 51
 (293.031795)  can0  464   [8]  14 14 6C 02 B3 7B 07 F9
 (294.033585)  can0  460   [4]  00 00 9A 51
 (294.033845)  can0  464   [8]  F4 13 6C 02 FF 79 07 F9
 (294.034593)  can0  462   [4]  4D 34 9A 51
 (294.034792)  can0  468   [2]  E5 00
 (295.031617)  can0  460   [4]  00 00 97 51
 (295.031874)  can0  464   [8]  0F 14 6C 02 62 79 07 F9
 (295.032606)  can0  462   [4]  0A 14 97 51
 (295.032794)  can0  468   [2]  E5 00
 (295.937213)  can0  460   [4]  00 00 96 51
 (295.937434)  can0  462   [4]  EC 0A 96 51
 (295.937628)  can0  464   [8]  28 14 6C 02 12 79 07 F9
 (297.035328)  can0  460   [4]  37 01 94 51
 (297.035550)  can0  462   [4]  3C 07 94 51
 (297.035746)  can0  464   [8]  2F 14 6C 02 DA 78 07 F9
 (297.936992)  can0  460   [4]  00 00 93 51
 (297.937220)  can0  462   [4]  A1 04 93 51
 (297.937415)  can0  464   [8]  2D 14 6C 02 B6 78 07 F9
 (298.936755)  can0  460   [4]  0D 07 90 51
 (298.936971)  can0  462   [4]  4E 07 90 51
 (298.937167)  can0  464   [8]  26 14 6C 02 7C 78 07 F9
 (300.039665)  can0  460   [4]  F7 06 8D 51
 (300.039897)  can0  462   [4]  3F 08 8D 51
 (300.040091)  can0  464   [8]  1E 14 6C 02 3B 78 07 F9
 (300.939676)  can0  460   [4]  10 06 89 51
 (300.939895)  can0  462   [4]  0A 09 89 51
 (300.940092)  can0  464   [8]  14 14 6C 02 F2 77 07 F9
 (301.943087)  can0  460   [4]  53 09 85 51
 (301.943300)  can0  462   [4]  FB 09 85 51
 (301.943499)  can0  464   [8]  0B 14 6C 02 A2 77 07 F9
 (302.949127)  can0  460   [4]  00 00 80 51
 (302.949361)  can0  462   [4]  DA 0A 80 51
 (302.949555)  can0  464   [8]  FE 13 6C 02 4B 77 07 F9
 (303.950979)  can0  460   [4]  00 00 7B 51
 (303.951206)  can0  462   [4]  11 0B 7B 51
 (303.951408)  can0  464   [8]  EE 13 6C 02 F1 76 07 F9
 (304.953767)  can0  460   [4]  EE 03 75 51
 (304.953978)  can0  462   [4]  CA 0B 75 51
 (304.954175)  can0  464   [8]  D7 13 6C 02 95 76 07 F9
 (305.953720)  can0  460   [4]  D7 03 6F 51
 (305.953940)  can0  462   [4]  FF 0A 6F 51
 (305.954139)  can0  464   [8]  B9 13 6C 02 43 76 07 F9
 (306.953652)  can0  460   [4]  00 00 6A 51
 (306.953866)  can0  462   [4]  9F 09 6A 51
 (306.954060)  can0  464   [8]  9F 13 6C 02 FB 75 07 F9
 (307.955851)  can0  460   [4]  E4 08 64 51
 (307.956068)  can0  462   [4]  0E 0A 64 51
 (307.956261)  can0  464   [8]  81 13 6C 02 B1 75 07 F9
 (308.955001)  can0  460   [4]  00 00 5E 51
 (308.955224)  can0  462   [4]  6A 0A 5E 51
 (308.955423)  can0  464   [8]  60 13 6C 02 66 75 07 F9
 (309.955018)  can0  460   [4]  00 00 58 51
 (309.955227)  can0  462   [4]  A2 0A 58 51
 (309.955418)  can0  464   [8]  3D 13 6C 02 1A 75 07 F9
 (310.952017)  can0  460   [4]  F5 03 51 51
 (310.952244)  can0  464   [8]  18 13 6C 02 CE 74 07 F9
 (310.953000)  can0  462   [4]  DA 0A 51 51
 (310.953191)  can0  468   [2]  E5 00
 (311.951066)  can0  460   [4]  A1 0A 4A 51
 (311.951280)  can0  462   [4]  DA 0A 4A 51
 (311.951471)  can0  464   [8]  F1 12 6C 02 83 74 07 F9
 (312.949096)  can0  460   [4]  E9 02 43 51
 (312.949320)  can0  462   [4]  FF 0A 43 51
 (312.949517)  can0  464   [8]  C9 12 6C 02 37 74 07 F9
 (313.951384)  can0  460   [4]  00 00 3C 51
 (313.951594)  can0  462   [4]  FF 0A 3C 51
 (313.951788)  can0  464   [8]  9F 12 6C 02 ED 73 07 F9
 (314.953403)  can0  460   [4]  00 00 35 51
 (314.953610)  can0  462   [4]  FF 0A 35 51
 (314.953806)  can0  464   [8]  74 12 6C 02 A3 73 07 F9
 (315.951264)  can0  460   [4]  00 00 2E 51
 (315.951478)  can0  462   [4]  EC 0A 2E 51
 (315.951668)  can0  464   [8]  49 12 6C 02 5A 73 07 F9
 (316.950155)  can0  460   [4]  D9 0A 27 51
 (316.950412)  can0  464   [8]  1C 12 6C 02 14 73 07 F9
 (316.951148)  can0  462   [4]  DA 0A 27 51
 (316.951336)  can0  468   [2]  E5 00
 (317.953498)  can0  460   [4]  9B 05 20 51
 (317.953716)  can0  462   [4]  B4 0A 20 51
 (317.953908)  can0  464   [8]  EF 11 6C 02 D0 72 07 F9
 (318.957974)  can0  460   [4]  00 00 19 51
 (318.958194)  can0  462   [4]  8F 0A 19 51
 (318.958390)  can0  464   [8]  C1 11 6C 02 8E 72 07 F9
 (319.956063)  can0  460   [4]  00 00 12 51
 (319.956273)  can0  462   [4]  58 0A 12 51
 (319.956460)  can0  464   [8]  93 11 6C 02 4E 72 07 F9
 (320.956077)  can0  460   [4]  00 00 0B 51
 (320.956294)  can0  462   [4]  20 0A 0B 51
 (320.956487)  can0  464   [8]  65 11 6C 02 11 72 07 F9
 (321.956117)  can0  460   [4]  00 00 05 51
 (321.956338)  can0  462   [4]  D6 09 05 51
 (321.956536)  can0  464   [8]  39 11 6C 02 D6 71 07 F9
 (322.952212)  can0  460   [4]  78 09 FE 50
 (322.952422)  can0  462   [4]  7A 09 FE 50
 (322.952613)  can0  464   [8]  0D 11 6C 02 9D 71 07 F9
 (323.950062)  can0  460   [4]  04 02 FA 50
 (323.950272)  can0  462   [4]  26 06 FA 50
 (323.950467)  can0  464   [8]  EF 10 6C 02 79 71 07 F9
 (324.953405)  can0  460   [4]  00 00 F6 50
 (324.953614)  can0  462   [4]  B7 05 F6 50
 (324.953803)  can0  464   [8]  D2 10 6C 02 58 71 07 F9
 (325.952381)  can0  460   [4]  00 00 F2 50
 (325.952654)  can0  464   [8]  B8 10 6C 02 3A 71 07 F9
 (325.953393)  can0  462   [4]  47 05 F2 50
 (325.953593)  can0  468   [2]  E5 00
 (326.949440)  can0  460   [4]  00 00 EE 50
 (326.949651)  can0  462   [4]  FD 04 EE 50
 (326.949842)  can0  464   [8]  9F 10 6C 02 1E 71 07 F9
 (327.947473)  can0  460   [4]  00 00 EB 50
 (327.947684)  can0  462   [4]  8E 04 EB 50
 (327.947878)  can0  464   [8]  88 10 6C 02 05 71 07 F9
 (328.944354)  can0  460   [4]  00 00 E8 50
 (328.944566)  can0  462   [4]  1F 04 E8 50
 (328.944757)  can0  464   [8]  72 10 6C 02 EE 70 07 F9
 (329.946470)  can0  460   [4]  00 00 E5 50
 (329.946730)  can0  464   [8]  5F 10 6C 02 D8 70 07 F9
 (329.947473)  can0  462   [4]  C3 03 E5 50
 (329.947668)  can0  468   [2]  78 05
 (330.944156)  can0  460   [4]  15 02 E3 50
 (330.944370)  can0  462   [4]  1C 03 E3 50
 (330.944565)  can0  464   [8]  4F 10 6C 02 C4 70 07 F9
 (331.945566)  can0  460   [4]  00 00 E1 50
 (331.945775)  can0  462   [4]  D2 02 E1 50
 (331.945967)  can0  464   [8]  40 10 6C 02 B4 70 07 F9
 (332.944192)  can0  460   [4]  CE 01 DF 50
 (332.944401)  can0  462   [4]  CF 01 DF 50
 (332.944589)  can0  464   [8]  35 10 6C 02 A9 70 07 F9
 (333.942213)  can0  460   [4]  FF 00 DD 50
 (333.942420)  can0  462   [4]  75 02 DD 50
 (333.942638)  can0  464   [8]  27 10 6C 02 9C 70 07 F9
 (334.944004)  can0  460   [4]  00 00 DC 50
 (334.944218)  can0  462   [4]  BC 01 DC 50
 (334.944409)  can0  464   [8]  1D 10 6C 02 92 70 07 F9
 (335.943750)  can0  460   [4]  00 00 DB 50
 (335.943963)  can0  462   [4]  F0 00 DB 50
 (335.944153)  can0  464   [8]  16 10 6C 02 8C 70 07 F9
 (336.943961)  can0  460   [4]  00 00 DB 50
 (336.944176)  can0  462   [4]  25 00 DB 50
 (336.944368)  can0  464   [8]  13 10 6C 02 8A 70 07 F9
 (337.941698)  can0  460   [4]  25 00 DA 50
 (337.941904)  can0  462   [4]  37 00 DA 50
 (337.942090)  can0  464   [8]  11 10 6C 02 88 70 07 F9
 (338.947739)  can0  460   [4]  24 00 DA 50
 (338.947953)  can0  462   [4]  25 00 DA 50
 (338.948146)  can0  464   [8]  10 10 6C 02 87 70 07 F9
 (339.946623)  can0  460   [4]  00 00 DA 50
 (339.946830)  can0  462   [4]  00 00 DA 50
 (339.947018)  can0  464   [8]  10 10 6C 02 87 70 07 F9
 (340.945780)  can0  460   [4]  02 00 DA 50
 (340.945994)  can0  462   [4]  12 00 DA 50
 (340.946186)  can0  464   [8]  0F 10 6C 02 87 70 07 F9
 (341.944670)  can0  460   [4]  00 00 DA 50
 (341.944886)  can0  462   [4]  00 00 DA 50
 (341.945078)  can0  464   [8]  0F 10 6C 02 87 70 07 F9
 (342.942702)  can0  460   [4]  00 00 DA 50
 (342.942919)  can0  462   [4]  00 00 DA 50
 (342.943111)  can0  464   [8]  0E 10 6C 02 86 70 07 F9
 (343.940551)  can0  460   [4]  00 00 DA 50
 (343.940780)  can0  462   [4]  00 00 DA 50
 (343.940975)  can0  464   [8]  0E 10 6C 02 86 70 07 F9
 (344.940739)  can0  460   [4]  00 00 DA 50
 (344.940949)  can0  462   [4]  00 00 DA 50
 (344.941139)  can0  464   [8]  0E 10 6C 02 86 70 07 F9
 (345.940778)  can0  460   [4]  00 00 DA 50
 (345.940998)  can0  462   [4]  12 00 DA 50
 (345.941190)  can0  464   [8]  0E 10 6C 02 86 70 07 F9
 (346.938793)  can0  460   [4]  00 00 DA 50
 (346.939003)  can0  462   [4]  00 00 DA 50
 (346.939193)  can0  464   [8]  0D 10 6C 02 86 70 07 F9
 (347.936563)  can0  460   [4]  11 00 DA 50
 (347.936775)  can0  462   [4]  12 00 DA 50
 (347.936966)  can0  464   [8]  0D 10 6C 02 86 70 07 F9
 (348.934584)  can0  460   [4]  00 00 DA 50
 (348.934811)  can0  462   [4]  00 00 DA 50
 (348.935003)  can0  464   [8]  0D 10 6C 02 85 70 07 F9
 (349.934779)  can0  460   [4]  00 00 DA 50
 (349.934989)  can0  462   [4]  25 00 DA 50
 (349.935180)  can0  464   [8]  0C 10 6C 02 85 70 07 F9
 (350.934992)  can0  460   [4]  00 00 DA 50
 (350.935248)  can0  464   [8]  0C 10 6C 02 85 70 07 F9
 (350.935978)  can0  462   [4]  25 00 DA 50
 (350.936167)  can0  468   [2]  64 05
 (351.935020)  can0  460   [4]  00 00 DA 50
 (351.935286)  can0  464   [8]  0B 10 6C 02 85 70 07 F9
 (351.936010)  can0  462   [4]  12 00 DA 50
 (351.936207)  can0  468   [2]  64 05
 (352.940157)  can0  460   [4]  00 00 DA 50
 (352.940368)  can0  462   [4]  12 00 DA 50
 (352.940560)  can0  464   [8]  0B 10 6C 02 85 70 07 F9
 (353.948198)  can0  460   [4]  11 00 DA 50
 (353.948429)  can0  462   [4]  12 00 DA 50
 (353.948622)  can0  464   [8]  0A 10 6C 02 85 70 07 F9
 (354.946119)  can0  460   [4]  00 00 DA 50
 (354.946337)  can0  462   [4]  00 00 DA 50
 (354.946526)  can0  464   [8]  0A 10 6C 02 85 70 07 F9
 (355.944145)  can0  460   [4]  0C 00 DA 50
 (355.944376)  can0  462   [4]  12 00 DA 50
 (355.944572)  can0  464   [8]  09 10 6C 02 84 70 07 F9
 (356.940964)  can0  460   [4]  00 00 D9 50
 (356.941197)  can0  462   [4]  25 00 D9 50
 (356.941391)  can0  464   [8]  09 10 6C 02 84 70 07 F9
 (357.938627)  can0  460   [4]  00 00 D9 50
 (357.938835)  can0  462   [4]  00 00 D9 50
 (357.939021)  can0  464   [8]  08 10 6C 02 84 70 07 F9
 (358.941171)  can0  460   [4]  00 00 D9 50
 (358.941390)  can0  462   [4]  00 00 D9 50
 (358.941582)  can0  464   [8]  08 10 6C 02 84 70 07 F9
 (359.944758)  can0  460   [4]  00 00 D9 50
 (359.944971)  can0  462   [4]  00 00 D9 50
 (359.945161)  can0  464   [8]  07 10 6C 02 84 70 07 F9
 (360.942981)  can0  460   [4]  12 00 D9 50
 (360.943217)  can0  462   [4]  12 00 D9 50
 (360.943405)  can0  464   [8]  07 10 6C 02 84 70 07 F9
 (361.944292)  can0  460   [4]  00 00 D9 50
 (361.944519)  can0  462   [4]  00 00 D9 50
 (361.944711)  can0  464   [8]  07 10 6C 02 84 70 07 F9
 (362.944326)  can0  460   [4]  00 00 D9 50
 (362.944545)  can0  462   [4]  12 00 D9 50
 (362.944750)  can0  464   [8]  06 10 6C 02 84 70 07 F9
 (363.940365)  can0  460   [4]  00 00 D9 50
 (363.940594)  can0  462   [4]  25 00 D9 50
 (363.940786)  can0  464   [8]  05 10 6C 02 84 70 07 F9
 (364.942376)  can0  460   [4]  00 00 D9 50
 (364.942593)  can0  462   [4]  25 00 D9 50
 (364.942788)  can0  464   [8]  04 10 6C 02 84 70 07 F9
 (365.937269)  can0  460   [4]  12 00 D9 50
 (365.937494)  can0  462   [4]  25 00 D9 50
 (365.937740)  can0  464   [8]  04 10 6C 02 84 70 07 F9
 (366.935195)  can0  460   [4]  00 00 D9 50
 (366.935407)  can0  462   [4]  37 00 D9 50
 (366.935600)  can0  464   [8]  03 10 6C 02 84 70 07 F9
 (368.031245)  can0  460   [4]  00 00 D9 50
 (368.031461)  can0  462   [4]  25 00 D9 50
 (368.031652)  can0  464   [8]  02 10 6C 02 84 70 07 F9
 (369.033173)  can0  460   [4]  00 00 D9 50
 (369.033405)  can0  462   [4]  00 00 D9 50
 (369.033598)  can0  464   [8]  02 10 6C 02 84 70 07 F9
 (369.935186)  can0  460   [4]  25 00 D9 50
 (369.935400)  can0  462   [4]  25 00 D9 50
 (369.935594)  can0  464   [8]  01 10 6C 02 84 70 07 F9
 (370.937372)  can0  460   [4]  00 00 D9 50
 (370.937584)  can0  462   [4]  00 00 D9 50
 (370.937775)  can0  464   [8]  01 10 6C 02 84 70 07 F9
 (371.939409)  can0  460   [4]  00 00 D9 50
 (371.939624)  can0  462   [4]  25 00 D9 50
 (371.939815)  can0  464   [8]  00 10 6C 02 84 70 07 F9
 (372.940664)  can0  460   [4]  00 00 D9 50
 (372.940879)  can0  462   [4]  25 00 D9 50
 (372.941074)  can0  464   [8]  FF 0F 6C 02 84 70 07 F9
 (373.943113)  can0  460   [4]  00 00 D8 50
 (373.943327)  can0  462   [4]  00 00 D8 50
 (373.943519)  can0  464   [8]  FF 0F 6C 02 84 70 07 F9
 (374.945129)  can0  460   [4]  00 00 D8 50
 (374.945350)  can0  462   [4]  00 00 D8 50
 (374.945542)  can0  464   [8]  FE 0F 6C 02 84 70 07 F9
 (375.950632)  can0  460   [4]  07 00 D8 50
 (375.950865)  can0  462   [4]  12 00 D8 50
 (375.951072)  can0  464   [8]  FE 0F 6C 02 84 70 07 F9
 (376.949082)  can0  460   [4]  00 00 D8 50
 (376.949292)  can0  462   [4]  00 00 D8 50
 (376.949490)  can0  464   [8]  FD 0F 6C 02 84 70 07 F9
 (377.948685)  can0  460   [4]  24 00 D8 50
 (377.948899)  can0  462   [4]  25 00 D8 50
 (377.949091)  can0  464   [8]  FC 0F 6C 02 84 70 07 F9
 (378.948703)  can0  460   [4]  1F 00 D8 50
 (378.948922)  can0  462   [4]  25 00 D8 50
 (378.949116)  can0  464   [8]  FC 0F 6C 02 84 70 07 F9
 (379.953001)  can0  460   [4]  00 00 D8 50
 (379.953232)  can0  462   [4]  25 00 D8 50
 (379.953425)  can0  464   [8]  FB 0F 6C 02 85 70 07 F9
 (380.955726)  can0  460   [4]  00 00 D8 50
 (380.955948)  can0  464   [8]  FA 0F 6C 02 85 70 07 F9
 (380.956734)  can0  462   [4]  37 00 D8 50
 (380.956945)  can0  468   [2]  50 05
 (381.959476)  can0  460   [4]  00 00 D8 50
 (381.959686)  can0  462   [4]  25 00 D8 50
 (381.959874)  can0  464   [8]  FA 0F 6C 02 85 70 07 F9
 (382.959248)  can0  460   [4]  0C 00 D8 50
 (382.959463)  can0  462   [4]  12 00 D8 50
 (382.959658)  can0  464   [8]  F9 0F 6C 02 85 70 07 F9
 (383.959086)  can0  460   [4]  00 00 D8 50
 (383.959297)  can0  462   [4]  00 00 D8 50
 (383.959497)  can0  464   [8]  F9 0F 6C 02 85 70 07 F9
 (384.959471)  can0  460   [4]  23 00 D8 50
 (384.959699)  can0  462   [4]  25 00 D8 50
 (384.959899)  can0  464   [8]  F8 0F 6C 02 86 70 07 F9
 (385.963313)  can0  460   [4]  06 00 D8 50
 (385.963525)  can0  462   [4]  12 00 D8 50
 (385.963717)  can0  464   [8]  F7 0F 6C 02 86 70 07 F9
 (386.963780)  can0  460   [4]  00 00 D8 50
 (386.963998)  can0  462   [4]  25 00 D8 50
 (386.964189)  can0  464   [8]  F6 0F 6C 02 86 70 07 F9
 (387.975629)  can0  460   [4]  00 00 D8 50
 (387.975841)  can0  462   [4]  37 00 D8 50
 (387.976039)  can0  464   [8]  F6 0F 6C 02 86 70 07 F9
 (388.981655)  can0  460   [4]  00 00 D8 50
 (388.981871)  can0  462   [4]  37 00 D8 50
 (388.982065)  can0  464   [8]  F5 0F 6C 02 87 70 07 F9
 (389.987601)  can0  460   [4]  06 00 D8 50
 (389.987826)  can0  462   [4]  25 00 D8 50
 (389.988015)  can0  464   [8]  F4 0F 6C 02 87 70 07 F9
 (390.991529)  can0  460   [4]  24 00 D7 50
 (390.991764)  can0  462   [4]  25 00 D7 50
 (390.991964)  can0  464   [8]  F3 0F 6C 02 87 70 07 F9
 (391.997725)  can0  460   [4]  22 00 D7 50
 (391.997948)  can0  462   [4]  37 00 D7 50
 (391.998154)  can0  464   [8]  F3 0F 6C 02 88 70 07 F9
 (393.007497)  can0  460   [4]  02 00 D7 50
 (393.007726)  can0  462   [4]  25 00 D7 50
 (393.007938)  can0  464   [8]  F2 0F 6C 02 88 70 07 F9
 (394.015609)  can0  460   [4]  00 00 D7 50
 (394.015837)  can0  462   [4]  25 00 D7 50
 (394.016031)  can0  464   [8]  F1 0F 6C 02 88 70 07 F9
 (395.019384)  can0  460   [4]  00 00 D7 50
 (395.019610)  can0  462   [4]  00 00 D7 50
 (395.019819)  can0  464   [8]  F0 0F 6C 02 89 70 07 F9
 (396.029582)  can0  460   [4]  1F 00 D7 50
 (396.029805)  can0  462   [4]  25 00 D7 50
 (396.030008)  can0  464   [8]  EF 0F 6C 02 89 70 07 F9
 (396.935238)  can0  460   [4]  00 00 D7 50
 (396.935456)  can0  462   [4]  25 00 D7 50
 (396.935650)  can0  464   [8]  EF 0F 6C 02 8A 70 07 F9
 (397.944138)  can0  460   [4]  00 00 D7 50
 (397.944409)  can0  464   [8]  EE 0F 6C 02 8A 70 07 F9
 (397.945129)  can0  462   [4]  25 00 D7 50
 (397.945319)  can0  468   [2]  96 00
 (398.957641)  can0  460   [4]  00 00 D7 50
 (398.957851)  can0  462   [4]  12 00 D7 50
 (398.958038)  can0  464   [8]  ED 0F 6C 02 8B 70 07 F9
 (399.961758)  can0  460   [4]  00 00 D7 50
 (399.961991)  can0  462   [4]  12 00 D7 50
 (399.962187)  can0  464   [8]  ED 0F 6C 02 8B 70 07 F9
 (400.967865)  can0  460   [4]  00 00 D7 50
 (400.968082)  can0  462   [4]  37 00 D7 50
 (400.968275)  can0  464   [8]  EC 0F 6C 02 8C 70 07 F9
 (401.973789)  can0  460   [4]  0F 00 D7 50
 (401.974009)  can0  462   [4]  12 00 D7 50
 (401.974203)  can0  464   [8]  EC 0F 6C 02 8C 70 07 F9
 (402.977826)  can0  460   [4]  00 00 D7 50
 (402.978047)  can0  462   [4]  12 00 D7 50
 (402.978242)  can0  464   [8]  EB 0F 6C 02 8D 70 07 F9
 (403.983837)  can0  460   [4]  00 00 D7 50
 (403.984043)  can0  462   [4]  12 00 D7 50
 (403.984232)  can0  464   [8]  EB 0F 6C 02 8D 70 07 F9
 (404.989775)  can0  460   [4]  02 00 D7 50
 (404.989994)  can0  462   [4]  12 00 D7 50
 (404.990188)  can0  464   [8]  EB 0F 6C 02 8D 70 07 F9
 (405.997629)  can0  460   [4]  00 00 D7 50
 (405.997841)  can0  462   [4]  00 00 D7 50
 (405.998031)  can0  464   [8]  EA 0F 6C 02 8D 70 07 F9
 (407.005656)  can0  460   [4]  00 00 D7 50
 (407.005870)  can0  462   [4]  00 00 D7 50
 (407.006068)  can0  464   [8]  EA 0F 6C 02 8E 70 07 F9
 (408.012126)  can0  460   [4]  00 00 D6 50
 (408.012351)  can0  462   [4]  12 00 D6 50
 (408.012542)  can0  464   [8]  E6 0F 6C 02 90 70 07 F9
 (409.018403)  can0  460   [4]  3E 04 D2 50
 (409.018657)  can0  464   [8]  BC 0F 6C 02 8E 70 07 F9
 (409.019395)  can0  462   [4]  38 06 D2 50
 (409.019583)  can0  468   [2]  AA 00
 (410.022427)  can0  460   [4]  00 00 CF 50
 (410.022678)  can0  464   [8]  A3 0F 6C 02 81 70 07 F9
 (410.023430)  can0  462   [4]  FA 03 CF 50
 (410.023629)  can0  468   [2]  D1 00
 (411.030275)  can0  460   [4]  01 05 CB 50
 (411.030503)  can0  462   [4]  DC 05 CB 50
 (411.030693)  can0  464   [8]  83 0F 6C 02 66 70 07 F9
 (412.035525)  can0  460   [4]  00 00 C4 50
 (412.035764)  can0  462   [4]  C4 09 C4 50
 (412.035976)  can0  464   [8]  53 0F 6C 02 30 70 07 F9
 (412.941561)  can0  460   [4]  00 00 BD 50
 (412.941787)  can0  462   [4]  FB 09 BD 50
 (412.941984)  can0  464   [8]  23 0F 6C 02 F9 6F 07 F9
 (413.945830)  can0  460   [4]  00 00 B6 50
 (413.946059)  can0  462   [4]  20 0A B6 50
 (413.946250)  can0  464   [8]  F2 0E 6C 02 C1 6F 07 F9
 (414.947852)  can0  460   [4]  00 00 AF 50
 (414.948073)  can0  462   [4]  33 0A AF 50
 (414.948265)  can0  464   [8]  C0 0E 6C 02 8B 6F 07 F9
 (415.946393)  can0  460   [4]  40 01 A8 50
 (415.946625)  can0  462   [4]  20 0A A8 50
 (415.946833)  can0  464   [8]  8D 0E 6C 02 55 6F 07 F9
 (416.947722)  can0  460   [4]  96 08 A1 50
 (416.947938)  can0  462   [4]  0E 0A A1 50
 (416.948137)  can0  464   [8]  5A 0E 6C 02 21 6F 07 F9
 (417.952549)  can0  460   [4]  DE 07 9A 50
 (417.952783)  can0  462   [4]  E9 09 9A 50
 (417.952974)  can0  464   [8]  27 0E 6C 02 EF 6E 07 F9
 (418.953950)  can0  460   [4]  00 00 93 50
 (418.954169)  can0  462   [4]  9F 09 93 50
 (418.954380)  can0  464   [8]  F3 0D 6C 02 C0 6E 07 F9
 (419.952413)  can0  460   [4]  7E 05 8D 50
 (419.952634)  can0  462   [4]  67 09 8D 50
 (419.952830)  can0  464   [8]  C2 0D 6C 02 91 6E 07 F9
 (420.956187)  can0  460   [4]  5F 02 89 50
 (420.956408)  can0  462   [4]  A4 05 89 50
 (420.956603)  can0  464   [8]  A7 0D 6C 02 72 6E 07 F9
 (421.960551)  can0  460   [4]  42 05 85 50
 (421.960773)  can0  462   [4]  6D 05 85 50
 (421.960965)  can0  464   [8]  8C 0D 6C 02 54 6E 07 F9
 (422.965783)  can0  460   [4]  00 00 80 50
 (422.965999)  can0  462   [4]  82 06 80 50
 (422.966191)  can0  464   [8]  69 0D 6C 02 35 6E 07 F9
 (423.964600)  can0  460   [4]  00 00 7C 50
 (423.964820)  can0  462   [4]  38 06 7C 50
 (423.965025)  can0  464   [8]  47 0D 6C 02 17 6E 07 F9
 (424.964611)  can0  460   [4]  FA 02 78 50
 (424.964837)  can0  462   [4]  C9 05 78 50
 (424.965043)  can0  464   [8]  27 0D 6C 02 FC 6D 07 F9
 (425.970555)  can0  460   [4]  81 04 74 50
 (425.970774)  can0  462   [4]  5A 05 74 50
 (425.970975)  can0  464   [8]  09 0D 6C 02 E4 6D 07 F9
 (426.968768)  can0  460   [4]  00 00 70 50
 (426.969000)  can0  462   [4]  D8 04 70 50
 (426.969193)  can0  464   [8]  ED 0C 6C 02 D0 6D 07 F9
 (427.970797)  can0  460   [4]  00 00 6D 50
 (427.971039)  can0  462   [4]  57 04 6D 50
 (427.971250)  can0  464   [8]  D3 0C 6C 02 BE 6D 07 F9
 (428.970897)  can0  460   [4]  00 00 6A 50
 (428.971122)  can0  464   [8]  BC 0C 6C 02 AF 6D 07 F9
 (428.971886)  can0  462   [4]  D5 03 6A 50
 (428.972100)  can0  468   [2]  A0 00
 (429.972568)  can0  460   [4]  00 00 68 50
 (429.972782)  can0  462   [4]  41 03 68 50
 (429.972976)  can0  464   [8]  A8 0C 6C 02 A2 6D 07 F9
 (430.976512)  can0  460   [4]  97 01 65 50
 (430.976731)  can0  462   [4]  9A 02 65 50
 (430.976929)  can0  464   [8]  97 0C 6C 02 97 6D 07 F9
 (431.976450)  can0  460   [4]  19 02 64 50
 (431.976662)  can0  462   [4]  19 02 64 50
 (431.976856)  can0  464   [8]  89 0C 6C 02 8F 6D 07 F9
 (432.978635)  can0  460   [4]  1D 00 63 50
 (432.978845)  can0  462   [4]  5F 01 63 50
 (432.979034)  can0  464   [8]  7F 0C 6C 02 89 6D 07 F9
 (433.982663)  can0  460   [4]  00 00 62 50
 (433.982872)  can0  462   [4]  A6 00 62 50
 (433.983063)  can0  464   [8]  7A 0C 6C 02 86 6D 07 F9
 (434.982596)  can0  460   [4]  00 00 62 50
 (434.982806)  can0  462   [4]  00 00 62 50
 (434.982994)  can0  464   [8]  78 0C 6C 02 85 6D 07 F9
 (435.986547)  can0  460   [4]  00 00 61 50
 (435.986762)  can0  462   [4]  94 00 61 50
 (435.986961)  can0  464   [8]  72 0C 6C 02 82 6D 07 F9
 (436.986759)  can0  460   [4]  00 00 61 50
 (436.986982)  can0  462   [4]  B9 00 61 50
 (436.987176)  can0  464   [8]  6F 0C 6C 02 81 6D 07 F9
 (437.988676)  can0  460   [4]  00 00 60 50
 (437.988901)  can0  462   [4]  00 00 60 50
 (437.989089)  can0  464   [8]  6D 0C 6C 02 80 6D 07 F9
 (438.992969)  can0  460   [4]  00 00 60 50
 (438.993196)  can0  462   [4]  4A 00 60 50
 (438.993388)  can0  464   [8]  69 0C 6C 02 7E 6D 07 F9
 (439.994632)  can0  460   [4]  47 00 60 50
 (439.994846)  can0  462   [4]  4A 00 60 50
 (439.995042)  can0  464   [8]  67 0C 6C 02 7E 6D 07 F9
 (440.996920)  can0  460   [4]  13 00 60 50
 (440.997138)  can0  462   [4]  81 00 60 50
 (440.997335)  can0  464   [8]  65 0C 6C 02 7D 6D 07 F9
 (441.998956)  can0  460   [4]  00 00 5F 50
 (441.999185)  can0  462   [4]  25 00 5F 50
 (441.999383)  can0  464   [8]  64 0C 6C 02 7D 6D 07 F9
 (443.000881)  can0  460   [4]  00 00 5F 50
 (443.001101)  can0  462   [4]  00 00 5F 50
 (443.001307)  can0  464   [8]  63 0C 6C 02 7D 6D 07 F9
 (444.000911)  can0  460   [4]  00 00 5F 50
 (444.001139)  can0  462   [4]  37 00 5F 50
 (444.001331)  can0  464   [8]  62 0C 6C 02 7D 6D 07 F9
 (445.002770)  can0  460   [4]  1F 00 5F 50
 (445.002996)  can0  462   [4]  25 00 5F 50
 (445.003186)  can0  464   [8]  61 0C 6C 02 7D 6D 07 F9
 (446.006786)  can0  460   [4]  0A 00 5F 50
 (446.007002)  can0  462   [4]  12 00 5F 50
 (446.007215)  can0  464   [8]  60 0C 6C 02 7C 6D 07 F9
 (447.012803)  can0  460   [4]  02 00 5F 50
 (447.013013)  can0  462   [4]  12 00 5F 50
 (447.013204)  can0  464   [8]  60 0C 6C 02 7C 6D 07 F9
 (448.013089)  can0  460   [4]  00 00 5F 50
 (448.013321)  can0  462   [4]  12 00 5F 50
 (448.013524)  can0  464   [8]  5F 0C 6C 02 7C 6D 07 F9
 (449.016949)  can0  460   [4]  00 00 5F 50
 (449.017175)  can0  462   [4]  12 00 5F 50
 (449.017374)  can0  464   [8]  5E 0C 6C 02 7C 6D 07 F9
 (450.021219)  can0  460   [4]  00 00 5F 50
 (450.021458)  can0  462   [4]  12 00 5F 50
 (450.021651)  can0  464   [8]  5E 0C 6C 02 7C 6D 07 F9
 (451.025161)  can0  460   [4]  20 00 5F 50
 (451.025375)  can0  462   [4]  37 00 5F 50
 (451.025567)  can0  464   [8]  5C 0C 6C 02 7C 6D 07 F9
 (452.030926)  can0  460   [4]  2F 00 5F 50
 (452.031138)  can0  462   [4]  37 00 5F 50
 (452.031335)  can0  464   [8]  5C 0C 6C 02 7C 6D 07 F9
 (453.028948)  can0  460   [4]  00 00 5E 50
 (453.029170)  can0  462   [4]  00 00 5E 50
 (453.029366)  can0  464   [8]  5B 0C 6C 02 7C 6D 07 F9
 (454.028972)  can0  460   [4]  00 00 5E 50
 (454.029188)  can0  462   [4]  12 00 5E 50
 (454.029384)  can0  464   [8]  5B 0C 6C 02 7C 6D 07 F9
 (455.029165)  can0  460   [4]  00 00 5E 50
 (455.029377)  can0  462   [4]  00 00 5E 50
 (455.029568)  can0  464   [8]  5B 0C 6C 02 7C 6D 07 F9
 (456.029032)  can0  460   [4]  0D 00 5E 50
 (456.029256)  can0  462   [4]  12 00 5E 50
 (456.029448)  can0  464   [8]  5A 0C 6C 02 7C 6D 07 F9
 (457.029360)  can0  460   [4]  10 00 5E 50
 (457.029597)  can0  462   [4]  12 00 5E 50
 (457.029792)  can0  464   [8]  5A 0C 6C 02 7C 6D 07 F9
 (458.031073)  can0  460   [4]  05 00 5E 50
 (458.031304)  can0  462   [4]  12 00 5E 50
 (458.031506)  can0  464   [8]  5A 0C 6C 02 7C 6D 07 F9
 (458.933442)  can0  460   [4]  00 00 5E 50
 (458.933663)  can0  462   [4]  12 00 5E 50
 (458.933859)  can0  464   [8]  59 0C 6C 02 7D 6D 07 F9
 (459.936824)  can0  460   [4]  00 00 5E 50
 (459.937054)  can0  462   [4]  25 00 5E 50
 (459.937250)  can0  464   [8]  59 0C 6C 02 7D 6D 07 F9
 (460.938705)  can0  460   [4]  00 00 5E 50
 (460.938933)  can0  462   [4]  12 00 5E 50
 (460.939124)  can0  464   [8]  58 0C 6C 02 7D 6D 07 F9
 (461.938736)  can0  460   [4]  10 00 5E 50
 (461.938956)  can0  462   [4]  12 00 5E 50
 (461.939149)  can0  464   [8]  58 0C 6C 02 7D 6D 07 F9
 (462.941568)  can0  460   [4]  12 00 5E 50
 (462.941789)  can0  462   [4]  12 00 5E 50
 (462.941984)  can0  464   [8]  57 0C 6C 02 7D 6D 07 F9
 (463.944773)  can0  460   [4]  06 00 5E 50
 (463.944987)  can0  462   [4]  25 00 5E 50
 (463.945183)  can0  464   [8]  56 0C 6C 02 7E 6D 07 F9
 (464.946793)  can0  460   [4]  00 00 5E 50
 (464.947009)  can0  462   [4]  37 00 5E 50
 (464.947206)  can0  464   [8]  55 0C 6C 02 7E 6D 07 F9
 (465.950817)  can0  460   [4]  00 00 5E 50
 (465.951036)  can0  462   [4]  12 00 5E 50
 (465.951241)  can0  464   [8]  54 0C 6C 02 7E 6D 07 F9
 (466.951639)  can0  460   [4]  00 00 5E 50
 (466.951878)  can0  462   [4]  00 00 5E 50
 (466.952095)  can0  464   [8]  54 0C 6C 02 7E 6D 07 F9
 (467.955589)  can0  460   [4]  0A 00 5E 50
 (467.955816)  can0  462   [4]  12 00 5E 50
 (467.956009)  can0  464   [8]  54 0C 6C 02 7E 6D 07 F9
 (468.953693)  can0  460   [4]  12 00 5E 50
 (468.953910)  can0  462   [4]  12 00 5E 50
 (468.954101)  can0  464   [8]  53 0C 6C 02 7F 6D 07 F9
 (469.957205)  can0  460   [4]  00 00 5E 50
 (469.957426)  can0  462   [4]  00 00 5E 50
 (469.957618)  can0  464   [8]  53 0C 6C 02 7F 6D 07 F9
 (470.955212)  can0  460   [4]  00 00 5E 50
 (470.955439)  can0  462   [4]  00 00 5E 50
 (470.955630)  can0  464   [8]  53 0C 6C 02 7F 6D 07 F9
 (471.952960)  can0  460   [4]  00 00 5E 50
 (471.953182)  can0  462   [4]  00 00 5E 50
 (471.953421)  can0  464   [8]  52 0C 6C 02 7F 6D 07 F9
 (472.953006)  can0  460   [4]  00 00 5E 50
 (472.953225)  can0  462   [4]  12 00 5E 50
 (472.953417)  can0  464   [8]  52 0C 6C 02 7F 6D 07 F9
 (473.953030)  can0  460   [4]  14 00 5E 50
 (473.953246)  can0  462   [4]  25 00 5E 50
 (473.953439)  can0  464   [8]  51 0C 6C 02 80 6D 07 F9
 (474.953741)  can0  460   [4]  2D 00 5E 50
 (474.953958)  can0  462   [4]  37 00 5E 50
 (474.954153)  can0  464   [8]  50 0C 6C 02 81 6D 07 F9
 (475.951069)  can0  460   [4]  00 00 5E 50
 (475.951288)  can0  462   [4]  00 00 5E 50
 (475.951476)  can0  464   [8]  50 0C 6C 02 81 6D 07 F9
 (476.953614)  can0  460   [4]  00 00 5D 50
 (476.953833)  can0  462   [4]  00 00 5D 50
 (476.954033)  can0  464   [8]  4F 0C 6C 02 81 6D 07 F9
 (477.953639)  can0  460   [4]  00 00 5D 50
 (477.953878)  can0  462   [4]  25 00 5D 50
 (477.954079)  can0  464   [8]  4E 0C 6C 02 82 6D 07 F9
 (478.953421)  can0  460   [4]  00 00 5D 50
 (478.953653)  can0  462   [4]  12 00 5D 50
 (478.953863)  can0  464   [8]  4D 0C 6C 02 82 6D 07 F9
 (479.953180)  can0  460   [4]  0E 00 5D 50
 (479.953398)  can0  462   [4]  25 00 5D 50
 (479.953592)  can0  464   [8]  4C 0C 6C 02 83 6D 07 F9
 (480.950157)  can0  460   [4]  24 00 5D 50
 (480.950387)  can0  464   [8]  4C 0C 6C 02 84 6D 07 F9
 (480.951160)  can0  462   [4]  25 00 5D 50
 (480.951384)  can0  468   [2]  AA 00
 (481.949213)  can0  460   [4]  07 00 5D 50
 (481.949440)  can0  462   [4]  37 00 5D 50
 (481.949748)  can0  464   [8]  4B 0C 6C 02 84 6D 07 F9
 (482.950109)  can0  460   [4]  00 00 5D 50
 (482.950329)  can0  462   [4]  25 00 5D 50
 (482.950521)  can0  464   [8]  4B 0C 6C 02 85 6D 07 F9
 (483.951351)  can0  460   [4]  00 00 5D 50
 (483.951594)  can0  462   [4]  12 00 5D 50
 (483.951799)  can0  464   [8]  4A 0C 6C 02 85 6D 07 F9
 (484.949372)  can0  460   [4]  00 00 5D 50
 (484.949594)  can0  462   [4]  25 00 5D 50
 (484.949799)  can0  464   [8]  49 0C 6C 02 86 6D 07 F9
 (485.948016)  can0  460   [4]  21 00 5D 50
 (485.948247)  can0  462   [4]  25 00 5D 50
 (485.948439)  can0  464   [8]  49 0C 6C 02 87 6D 07 F9
 (486.948068)  can0  460   [4]  11 00 5D 50
 (486.948287)  can0  462   [4]  12 00 5D 50
 (486.948497)  can0  464   [8]  48 0C 6C 02 87 6D 07 F9
 (487.947958)  can0  460   [4]  07 00 5D 50
 (487.948183)  can0  462   [4]  12 00 5D 50
 (487.948388)  can0  464   [8]  48 0C 6C 02 87 6D 07 F9
 (488.947374)  can0  460   [4]  00 00 5D 50
 (488.947604)  can0  462   [4]  00 00 5D 50
 (488.947805)  can0  464   [8]  48 0C 6C 02 88 6D 07 F9
 (489.950191)  can0  460   [4]  00 00 5D 50
 (489.950416)  can0  462   [4]  25 00 5D 50
 (489.950610)  can0  464   [8]  47 0C 6C 02 89 6D 07 F9
 (490.955846)  can0  460   [4]  00 00 5D 50
 (490.956063)  can0  462   [4]  00 00 5D 50
 (490.956273)  can0  464   [8]  46 0C 6C 02 89 6D 07 F9
 (491.956230)  can0  460   [4]  0B 00 5D 50
 (491.956453)  can0  462   [4]  12 00 5D 50
 (491.956660)  can0  464   [8]  46 0C 6C 02 8A 6D 07 F9
 (492.955734)  can0  460   [4]  00 00 5D 50
 (492.955957)  can0  462   [4]  00 00 5D 50
 (492.956150)  can0  464   [8]  46 0C 6C 02 8A 6D 07 F9
 (493.955930)  can0  460   [4]  0B 00 5D 50
 (493.956146)  can0  462   [4]  12 00 5D 50
 (493.956345)  can0  464   [8]  45 0C 6C 02 8A 6D 07 F9
 (494.957956)  can0  460   [4]  00 00 5D 50
 (494.958168)  can0  462   [4]  12 00 5D 50
 (494.958364)  can0  464   [8]  45 0C 6C 02 8B 6D 07 F9
 (495.958072)  can0  460   [4]  00 00 5D 50
 (495.958295)  can0  462   [4]  12 00 5D 50
 (495.958499)  can0  464   [8]  45 0C 6C 02 8B 6D 07 F9
 (496.958102)  can0  460   [4]  00 00 5D 50
 (496.958328)  can0  462   [4]  12 00 5D 50
 (496.958522)  can0  464   [8]  44 0C 6C 02 8C 6D 07 F9
 (497.958037)  can0  460   [4]  00 00 5D 50
 (497.958257)  can0  462   [4]  00 00 5D 50
 (497.958449)  can0  464   [8]  44 0C 6C 02 8D 6D 07 F9
 (498.958065)  can0  460   [4]  12 00 5D 50
 (498.958276)  can0  462   [4]  12 00 5D 50
 (498.958471)  can0  464   [8]  44 0C 6C 02 8D 6D 07 F9
 (499.956340)  can0  460   [4]  0A 00 5D 50
 (499.956551)  can0  462   [4]  12 00 5D 50
 (499.956743)  can0  464   [8]  43 0C 6C 02 8D 6D 07 F9
 (500.960204)  can0  460   [4]  00 00 5D 50
 (500.960423)  can0  462   [4]  12 00 5D 50
 (500.960617)  can0  464   [8]  43 0C 6C 02 8E 6D 07 F9
 (501.958317)  can0  460   [4]  00 00 5D 50
 (501.958537)  can0  462   [4]  25 00 5D 50
 (501.958727)  can0  464   [8]  42 0C 6C 02 8F 6D 07 F9
 (502.960511)  can0  460   [4]  44 00 5D 50
 (502.960727)  can0  462   [4]  4A 00 5D 50
 (502.960923)  can0  464   [8]  42 0C 6C 02 90 6D 07 F9
 (503.960257)  can0  460   [4]  00 00 5D 50
 (503.960475)  can0  462   [4]  00 00 5D 50
 (503.960687)  can0  464   [8]  42 0C 6C 02 91 6D 07 F9
 (504.960034)  can0  460   [4]  00 00 5D 50
 (504.960258)  can0  462   [4]  00 00 5D 50
 (504.960454)  can0  464   [8]  41 0C 6C 02 92 6D 07 F9
 (505.960240)  can0  460   [4]  00 00 5D 50
 (505.960468)  can0  462   [4]  00 00 5D 50
 (505.960663)  can0  464   [8]  41 0C 6C 02 93 6D 07 F9
 (506.966243)  can0  460   [4]  09 00 5D 50
 (506.966459)  can0  462   [4]  12 00 5D 50
 (506.966649)  can0  464   [8]  40 0C 6C 02 94 6D 07 F9
 (507.968438)  can0  460   [4]  00 00 5D 50
 (507.968660)  can0  462   [4]  25 00 5D 50
 (507.968851)  can0  464   [8]  40 0C 6C 02 94 6D 07 F9
 (508.972650)  can0  460   [4]  00 00 5D 50
 (508.972883)  can0  462   [4]  12 00 5D 50
 (508.973075)  can0  464   [8]  40 0C 6C 02 95 6D 07 F9
 (509.972323)  can0  460   [4]  00 00 5D 50
 (509.972557)  can0  462   [4]  00 00 5D 50
 (509.972755)  can0  464   [8]  3F 0C 6C 02 96 6D 07 F9
 (510.970344)  can0  460   [4]  11 00 5D 50
 (510.970554)  can0  462   [4]  12 00 5D 50
 (510.970745)  can0  464   [8]  3F 0C 6C 02 96 6D 07 F9
 (511.970381)  can0  460   [4]  19 00 5D 50
 (511.970604)  can0  462   [4]  25 00 5D 50
 (511.970795)  can0  464   [8]  3F 0C 6C 02 97 6D 07 F9
 (512.970208)  can0  460   [4]  00 00 5D 50
 (512.970424)  can0  462   [4]  00 00 5D 50
 (512.970617)  can0  464   [8]  3F 0C 6C 02 98 6D 07 F9
 (513.972512)  can0  460   [4]  00 00 5D 50
 (513.972730)  can0  462   [4]  12 00 5D 50
 (513.972934)  can0  464   [8]  3E 0C 6C 02 98 6D 07 F9
 (514.974249)  can0  460   [4]  00 00 5D 50
 (514.974462)  can0  462   [4]  00 00 5D 50
 (514.974656)  can0  464   [8]  3E 0C 6C 02 99 6D 07 F9
 (515.974818)  can0  460   [4]  10 00 5D 50
 (515.975033)  can0  462   [4]  12 00 5D 50
 (515.975227)  can0  464   [8]  3E 0C 6C 02 99 6D 07 F9
 (516.974494)  can0  460   [4]  12 00 5D 50
 (516.974710)  can0  462   [4]  12 00 5D 50
 (516.974905)  can0  464   [8]  3E 0C 6C 02 9A 6D 07 F9
 (517.972525)  can0  460   [4]  29 00 5D 50
 (517.972745)  can0  462   [4]  37 00 5D 50
 (517.972940)  can0  464   [8]  3E 0C 6C 02 9B 6D 07 F9
 (518.972901)  can0  460   [4]  00 00 5D 50
 (518.973121)  can0  462   [4]  37 00 5D 50
 (518.973319)  can0  464   [8]  3E 0C 6C 02 9C 6D 07 F9
 (519.974640)  can0  460   [4]  00 00 5D 50
 (519.974855)  can0  462   [4]  25 00 5D 50
 (519.975047)  can0  464   [8]  3D 0C 6C 02 9D 6D 07 F9
 (520.974672)  can0  460   [4]  00 00 5D 50
 (520.974901)  can0  462   [4]  12 00 5D 50
 (520.975100)  can0  464   [8]  3D 0C 6C 02 9D 6D 07 F9
 (521.976427)  can0  460   [4]  00 00 5D 50
 (521.976644)  can0  462   [4]  00 00 5D 50
 (521.976842)  can0  464   [8]  3D 0C 6C 02 9E 6D 07 F9
 (522.978983)  can0  460   [4]  15 00 5D 50
 (522.979203)  can0  462   [4]  25 00 5D 50
 (522.979395)  can0  464   [8]  3D 0C 6C 02 9F 6D 07 F9
 (523.980652)  can0  460   [4]  00 00 5D 50
 (523.980863)  can0  462   [4]  00 00 5D 50
 (523.981060)  can0  464   [8]  3D 0C 6C 02 A0 6D 07 F9
 (524.982774)  can0  460   [4]  0C 00 5D 50
 (524.982988)  can0  462   [4]  12 00 5D 50
 (524.983181)  can0  464   [8]  3D 0C 6C 02 A1 6D 07 F9
 (525.982885)  can0  460   [4]  00 00 5D 50
 (525.983095)  can0  462   [4]  12 00 5D 50
 (525.983284)  can0  464   [8]  3C 0C 6C 02 A2 6D 07 F9
 (526.980719)  can0  460   [4]  00 00 5D 50
 (526.980927)  can0  462   [4]  12 00 5D 50
 (526.981118)  can0  464   [8]  3C 0C 6C 02 A3 6D 07 F9
 (527.978830)  can0  460   [4]  0F 00 5D 50
 (527.979053)  can0  462   [4]  12 00 5D 50
 (527.979250)  can0  464   [8]  3C 0C 6C 02 A4 6D 07 F9
 (528.978780)  can0  460   [4]  0C 00 5D 50
 (528.978989)  can0  462   [4]  12 00 5D 50
 (528.979177)  can0  464   [8]  3C 0C 6C 02 A5 6D 07 F9
 (529.978970)  can0  460   [4]  00 00 5D 50
 (529.979188)  can0  462   [4]  37 00 5D 50
 (529.979384)  can0  464   [8]  3C 0C 6C 02 A6 6D 07 F9
 (530.976912)  can0  460   [4]  00 00 5D 50
 (530.977132)  can0  462   [4]  25 00 5D 50
 (530.977335)  can0  464   [8]  3C 0C 6C 02 A7 6D 07 F9
 (531.976926)  can0  460   [4]  00 00 5D 50
 (531.977142)  can0  462   [4]  12 00 5D 50
 (531.977337)  can0  464   [8]  3C 0C 6C 02 A8 6D 07 F9
 (532.976955)  can0  460   [4]  00 00 5D 50
 (532.977172)  can0  462   [4]  25 00 5D 50
 (532.977370)  can0  464   [8]  3C 0C 6C 02 A8 6D 07 F9
 (533.979075)  can0  460   [4]  00 00 5D 50
 (533.979308)  can0  462   [4]  12 00 5D 50
 (533.979518)  can0  464   [8]  3C 0C 6C 02 A9 6D 07 F9
 (534.981176)  can0  460   [4]  12 00 5D 50
 (534.981407)  can0  462   [4]  12 00 5D 50
 (534.981605)  can0  464   [8]  3C 0C 6C 02 AA 6D 07 F9
 (535.981032)  can0  460   [4]  03 00 5D 50
 (535.981261)  can0  462   [4]  12 00 5D 50
 (535.981464)  can0  464   [8]  3C 0C 6C 02 AA 6D 07 F9
 (536.979051)  can0  460   [4]  00 00 5D 50
 (536.979272)  can0  462   [4]  00 00 5D 50
 (536.979466)  can0  464   [8]  3C 0C 6C 02 AB 6D 07 F9
 (537.979265)  can0  460   [4]  00 00 5D 50
 (537.979496)  can0  462   [4]  12 00 5D 50
 (537.979692)  can0  464   [8]  3C 0C 6C 02 AC 6D 07 F9
 (538.979023)  can0  460   [4]  00 00 5D 50
 (538.979249)  can0  462   [4]  12 00 5D 50
 (538.979446)  can0  464   [8]  3C 0C 6C 02 AD 6D 07 F9
 (539.981297)  can0  460   [4]  00 00 5D 50
 (539.981509)  can0  462   [4]  25 00 5D 50
 (539.981707)  can0  464   [8]  3C 0C 6C 02 AE 6D 07 F9
 (540.977504)  can0  460   [4]  00 00 5D 50
 (540.977732)  can0  462   [4]  37 00 5D 50
 (540.977928)  can0  464   [8]  3C 0C 6C 02 AF 6D 07 F9
 (541.977253)  can0  460   [4]  26 00 5D 50
 (541.977465)  can0  462   [4]  37 00 5D 50
 (541.977658)  can0  464   [8]  3C 0C 6C 02 B0 6D 07 F9
 (542.977475)  can0  460   [4]  25 00 5D 50
 (542.977696)  can0  462   [4]  25 00 5D 50
 (542.977889)  can0  464   [8]  3C 0C 6C 02 B1 6D 07 F9
 (543.977301)  can0  460   [4]  00 00 5D 50
 (543.977511)  can0  462   [4]  25 00 5D 50
 (543.977703)  can0  464   [8]  3C 0C 6C 02 B3 6D 07 F9
 (544.977247)  can0  460   [4]  00 00 5E 50
 (544.977462)  can0  462   [4]  25 00 5E 50
 (544.977662)  can0  464   [8]  3C 0C 6C 02 B4 6D 07 F9
 (545.973173)  can0  460   [4]  1F 00 5E 50
 (545.973384)  can0  462   [4]  37 00 5E 50
 (545.973577)  can0  464   [8]  3C 0C 6C 02 B5 6D 07 F9
 (546.977584)  can0  460   [4]  11 00 5E 50
 (546.977807)  can0  462   [4]  12 00 5E 50
 (546.977999)  can0  464   [8]  3C 0C 6C 02 B6 6D 07 F9
 (547.977412)  can0  460   [4]  37 00 5E 50
 (547.977637)  can0  462   [4]  37 00 5E 50
 (547.977833)  can0  464   [8]  3D 0C 6C 02 B7 6D 07 F9
 (548.977529)  can0  460   [4]  08 00 5E 50
 (548.977751)  can0  462   [4]  37 00 5E 50
 (548.977941)  can0  464   [8]  3D 0C 6C 02 B9 6D 07 F9
 (549.977283)  can0  460   [4]  00 00 5E 50
 (549.977503)  can0  462   [4]  25 00 5E 50
 (549.977703)  can0  464   [8]  3D 0C 6C 02 BA 6D 07 F9
 (550.975304)  can0  460   [4]  4A 00 5E 50
 (550.975516)  can0  462   [4]  4A 00 5E 50
 (550.975704)  can0  464   [8]  3D 0C 6C 02 BB 6D 07 F9
 (551.973417)  can0  460   [4]  1F 00 5E 50
 (551.973634)  can0  462   [4]  37 00 5E 50
 (551.973822)  can0  464   [8]  3E 0C 6C 02 BD 6D 07 F9
 (552.973355)  can0  460   [4]  02 00 5E 50
 (552.973572)  can0  462   [4]  4A 00 5E 50
 (552.973767)  can0  464   [8]  3E 0C 6C 02 BE 6D 07 F9
 (553.977369)  can0  460   [4]  21 00 5E 50
 (553.977583)  can0  462   [4]  25 00 5E 50
 (553.977777)  can0  464   [8]  3E 0C 6C 02 BF 6D 07 F9
 (554.975572)  can0  460   [4]  00 00 5E 50
 (554.975794)  can0  462   [4]  00 00 5E 50
 (554.975988)  can0  464   [8]  3E 0C 6C 02 C0 6D 07 F9
 (555.979693)  can0  460   [4]  00 00 5F 50
 (555.979904)  can0  462   [4]  15 01 5F 50
 (555.980091)  can0  464   [8]  41 0C 6C 02 CF 6D 07 F9
 (556.975820)  can0  460   [4]  49 00 5F 50
 (556.976038)  can0  462   [4]  4A 00 5F 50
 (556.976225)  can0  464   [8]  42 0C 6C 02 D4 6D 07 F9
 (557.977568)  can0  460   [4]  00 00 60 50
 (557.977785)  can0  462   [4]  5C 00 60 50
 (557.977977)  can0  464   [8]  43 0C 6C 02 D9 6D 07 F9
 (558.975493)  can0  460   [4]  95 00 60 50
 (558.975717)  can0  462   [4]  A6 00 60 50
 (558.975908)  can0  464   [8]  45 0C 6C 02 DD 6D 07 F9
 (559.973693)  can0  460   [4]  00 00 60 50
 (559.973905)  can0  462   [4]  81 00 60 50
 (559.974100)  can0  464   [8]  46 0C 6C 02 DF 6D 07 F9
 (560.969560)  can0  460   [4]  79 00 60 50
 (560.969777)  can0  462   [4]  A6 00 60 50
 (560.969973)  can0  464   [8]  46 0C 6C 02 E2 6D 07 F9
 (561.969580)  can0  460   [4]  10 00 60 50
 (561.969809)  can0  462   [4]  12 00 60 50
 (561.970004)  can0  464   [8]  47 0C 6C 02 E3 6D 07 F9
 (562.967680)  can0  460   [4]  0D 00 61 50
 (562.967904)  can0  462   [4]  5C 00 61 50
 (562.968104)  can0  464   [8]  48 0C 6C 02 E5 6D 07 F9
 (563.963608)  can0  460   [4]  27 00 61 50
 (563.963819)  can0  462   [4]  5C 00 61 50
 (563.964023)  can0  464   [8]  49 0C 6C 02 E7 6D 07 F9
 (564.959905)  can0  460   [4]  00 00 61 50
 (564.960114)  can0  462   [4]  12 00 61 50
 (564.960304)  can0  464   [8]  49 0C 6C 02 E8 6D 07 F9
 (565.961837)  can0  460   [4]  00 00 62 50
 (565.962052)  can0  462   [4]  4D 01 62 50
 (565.962242)  can0  464   [8]  50 0C 6C 02 FA 6D 07 F9
 (566.959863)  can0  460   [4]  00 00 47 53
 (566.960082)  can0  462   [4]  72 01 47 53
 (566.960276)  can0  464   [8]  2D 16 6C 02 97 9E 07 F9
 (567.963804)  can0  460   [4]  00 00 4B 53
 (567.964023)  can0  462   [4]  37 00 4B 53
 (567.964214)  can0  464   [8]  3C 16 6C 02 D4 9E 07 F9
 (568.950016)  can0  460   [4]  02 00 4D 53
 (568.950242)  can0  462   [4]  25 00 4D 53
 (568.950433)  can0  464   [8]  45 16 6C 02 F1 9E 07 F9
 (569.950027)  can0  460   [4]  9D 00 4E 53
 (569.950251)  can0  462   [4]  28 01 4E 53
 (569.950443)  can0  464   [8]  4B 16 6C 02 02 9F 07 F9
 (570.952249)  can0  460   [4]  00 00 4F 53
 (570.952474)  can0  462   [4]  A6 00 4F 53
 (570.952673)  can0  464   [8]  4E 16 6C 02 0C 9F 07 F9
 (571.950092)  can0  460   [4]  5A 00 4F 53
 (571.950326)  can0  462   [4]  5C 00 4F 53
 (571.950521)  can0  464   [8]  50 16 6C 02 12 9F 07 F9
 (572.948104)  can0  460   [4]  90 00 4F 53
 (572.948326)  can0  462   [4]  94 00 4F 53
 (572.948520)  can0  464   [8]  52 16 6C 02 15 9F 07 F9
 (573.950118)  can0  460   [4]  62 00 50 53
 (573.950347)  can0  462   [4]  6F 00 50 53
 (573.950540)  can0  464   [8]  53 16 6C 02 17 9F 07 F9
 (574.948150)  can0  460   [4]  32 00 50 53
 (574.948365)  can0  462   [4]  37 00 50 53
 (574.948561)  can0  464   [8]  54 16 6C 02 19 9F 07 F9
 (575.951477)  can0  460   [4]  49 00 50 53
 (575.951700)  can0  462   [4]  4A 00 50 53
 (575.951896)  can0  464   [8]  55 16 6C 02 1B 9F 07 F9
 (576.951508)  can0  460   [4]  00 00 50 53
 (576.951731)  can0  462   [4]  12 00 50 53
 (576.951918)  can0  464   [8]  56 16 6C 02 1D 9F 07 F9
 (577.950387)  can0  460   [4]  00 00 50 53
 (577.950601)  can0  462   [4]  00 00 50 53
 (577.950795)  can0  464   [8]  57 16 6C 02 1E 9F 07 F9
 (578.953543)  can0  460   [4]  12 00 50 53
 (578.953753)  can0  462   [4]  12 00 50 53
 (578.953944)  can0  464   [8]  58 16 6C 02 20 9F 07 F9
 (579.956088)  can0  460   [4]  00 00 51 53
 (579.956297)  can0  462   [4]  5C 00 51 53
 (579.956491)  can0  464   [8]  5C 16 6C 02 27 9F 07 F9
 (580.956119)  can0  460   [4]  00 00 52 53
 (580.956340)  can0  462   [4]  5C 00 52 53
 (580.956533)  can0  464   [8]  5E 16 6C 02 2C 9F 07 F9
 (581.956050)  can0  460   [4]  00 00 52 53
 (581.956260)  can0  462   [4]  DE 00 52 53
 (581.956451)  can0  464   [8]  62 16 6C 02 31 9F 07 F9
 (582.951648)  can0  460   [4]  47 00 52 53
 (582.951876)  can0  462   [4]  6F 00 52 53
 (582.952073)  can0  464   [8]  64 16 6C 02 34 9F 07 F9
 (583.951661)  can0  460   [4]  00 00 53 53
 (583.951877)  can0  462   [4]  03 01 53 53
 (583.952068)  can0  464   [8]  69 16 6C 02 39 9F 07 F9
 (584.951689)  can0  460   [4]  55 00 54 53
 (584.951921)  can0  462   [4]  94 00 54 53
 (584.952113)  can0  464   [8]  6C 16 6C 02 3C 9F 07 F9
 (585.950332)  can0  460   [4]  5E 00 54 53
 (585.950545)  can0  462   [4]  6F 00 54 53
 (585.950735)  can0  464   [8]  6F 16 6C 02 3E 9F 07 F9
 (586.950350)  can0  460   [4]  04 00 54 53
 (586.950559)  can0  462   [4]  25 00 54 53
 (586.950747)  can0  464   [8]  70 16 6C 02 40 9F 07 F9
 (587.950634)  can0  460   [4]  1D 00 55 53
 (587.950846)  can0  462   [4]  81 00 55 53
 (587.951038)  can0  464   [8]  75 16 6C 02 43 9F 07 F9
 (588.953866)  can0  460   [4]  00 00 55 53
 (588.954079)  can0  462   [4]  6F 00 55 53
 (588.954270)  can0  464   [8]  77 16 6C 02 45 9F 07 F9
 (589.954506)  can0  460   [4]  04 00 55 53
 (589.954715)  can0  462   [4]  12 00 55 53
 (589.954905)  can0  464   [8]  77 16 6C 02 45 9F 07 F9
 (590.956540)  can0  460   [4]  00 00 55 53
 (590.956755)  can0  462   [4]  4A 00 55 53
 (590.956946)  can0  464   [8]  7B 16 6C 02 49 9F 07 F9
 (591.956743)  can0  460   [4]  00 00 56 53
 (591.956981)  can0  462   [4]  81 00 56 53
 (591.957176)  can0  464   [8]  80 16 6C 02 4C 9F 07 F9
 (592.956420)  can0  460   [4]  08 00 56 53
 (592.956649)  can0  462   [4]  37 00 56 53
 (592.956841)  can0  464   [8]  82 16 6C 02 4D 9F 07 F9
 (593.954340)  can0  460   [4]  00 00 57 53
 (593.954551)  can0  462   [4]  25 00 57 53
 (593.954740)  can0  464   [8]  87 16 6C 02 4E 9F 07 F9
 (594.948534)  can0  460   [4]  79 00 58 53
 (594.948748)  can0  462   [4]  3A 01 58 53
 (594.948945)  can0  464   [8]  8D 16 6C 02 4F 9F 07 F9
 (595.942504)  can0  460   [4]  00 00 58 53
 (595.942731)  can0  462   [4]  37 00 58 53
 (595.942932)  can0  464   [8]  91 16 6C 02 4F 9F 07 F9
 (596.944968)  can0  460   [4]  00 00 58 53
 (596.945183)  can0  464   [8]  97 16 6C 02 4F 9F 07 F9
 (596.945957)  can0  462   [4]  28 01 58 53
 (596.946155)  can0  468   [2]  BD 00
 (597.948008)  can0  460   [4]  00 00 59 53
 (597.948219)  can0  462   [4]  A6 00 59 53
 (597.948412)  can0  464   [8]  9A 16 6C 02 4F 9F 07 F9
 (598.948039)  can0  460   [4]  00 00 59 53
 (598.948247)  can0  462   [4]  5C 00 59 53
 (598.948437)  can0  464   [8]  9F 16 6C 02 4F 9F 07 F9
 (599.944941)  can0  460   [4]  00 00 5A 53
 (599.945155)  can0  462   [4]  5C 00 5A 53
 (599.945354)  can0  464   [8]  A4 16 6C 02 50 9F 07 F9
 (600.942874)  can0  460   [4]  67 00 5B 53
 (600.943093)  can0  462   [4]  F0 00 5B 53
 (600.943286)  can0  464   [8]  AD 16 6C 02 54 9F 07 F9
 (601.942386)  can0  460   [4]  00 00 5E 53
 (601.942609)  can0  462   [4]  50 02 5E 53
 (601.942799)  can0  464   [8]  C3 16 6C 02 67 9F 07 F9
 (602.944215)  can0  460   [4]  00 00 5F 53
 (602.944427)  can0  462   [4]  50 02 5F 53
 (602.944618)  can0  464   [8]  C8 16 6C 02 7C 9F 07 F9
 (603.944147)  can0  460   [4]  02 04 61 53
 (603.944361)  can0  462   [4]  A1 04 61 53
 (603.944554)  can0  464   [8]  CB 16 6C 02 A3 9F 07 F9
 (604.943141)  can0  460   [4]  5D 0B 65 53
 (604.943403)  can0  464   [8]  CD 16 6C 02 0B A0 07 F9
 (604.944151)  can0  462   [4]  EF 0B 65 53
 (604.944358)  can0  468   [2]  A5 04
 (605.946454)  can0  460   [4]  6A 02 6D 53
 (605.946669)  can0  462   [4]  AB 18 6D 53
 (605.946860)  can0  464   [8]  C1 16 6C 02 D9 A0 07 F9
 (606.944316)  can0  460   [4]  46 1D 75 53
 (606.944547)  can0  462   [4]  37 22 75 53
 (606.944742)  can0  464   [8]  9E 16 6C 02 F4 A1 07 F9
 (607.941207)  can0  460   [4]  65 0B 77 53
 (607.941557)  can0  464   [8]  51 16 6C 02 E4 A2 07 F9
 (607.942203)  can0  462   [4]  E7 1F 77 53
 (607.942393)  can0  468   [2]  BD 00
 (608.946540)  can0  460   [4]  00 00 73 53
 (608.946755)  can0  462   [4]  86 18 73 53
 (608.946946)  can0  464   [8]  ED 15 6C 02 6B A3 07 F9
 (609.948567)  can0  460   [4]  00 00 6D 53
 (609.948779)  can0  462   [4]  F7 13 6D 53
 (609.948975)  can0  464   [8]  8A 15 6C 02 AF A3 07 F9
 (610.950580)  can0  460   [4]  00 00 65 53
 (610.950786)  can0  462   [4]  81 11 65 53
 (610.950976)  can0  464   [8]  30 15 6C 02 D8 A3 07 F9
 (611.950446)  can0  460   [4]  03 0F 5B 53
 (611.950666)  can0  462   [4]  04 18 5B 53
 (611.950860)  can0  464   [8]  AB 14 6C 02 0D A4 07 F9
 (612.952671)  can0  460   [4]  00 00 4D 53
 (612.952889)  can0  462   [4]  18 1E 4D 53
 (612.953081)  can0  464   [8]  03 14 6C 02 54 A4 07 F9
 (613.952400)  can0  460   [4]  D6 1B 3C 53
 (613.952626)  can0  462   [4]  06 24 3C 53
 (613.952825)  can0  464   [8]  32 13 6C 02 9C A4 07 F9
 (614.954711)  can0  460   [4]  00 00 27 53
 (614.954929)  can0  462   [4]  3F 2A 27 53
 (614.955123)  can0  464   [8]  3A 12 6C 02 E3 A4 07 F9
 (615.952928)  can0  460   [4]  00 00 11 53
 (615.953151)  can0  462   [4]  A2 2C 11 53
 (615.953358)  can0  464   [8]  33 11 6C 02 32 A5 07 F9
 (616.950743)  can0  460   [4]  0A 1D 04 53
 (616.950971)  can0  462   [4]  A9 1D 04 53
 (616.951165)  can0  464   [8]  8C 10 6C 02 78 A5 07 F9
 (617.952760)  can0  460   [4]  16 23 F4 52
 (617.952984)  can0  462   [4]  16 23 F4 52
 (617.953181)  can0  464   [8]  C4 0F 6C 02 D3 A5 07 F9
 (618.950787)  can0  460   [4]  00 00 E2 52
 (618.951001)  can0  462   [4]  57 26 E2 52
 (618.951192)  can0  464   [8]  E5 0E 6C 02 2A A6 07 F9
 (619.950828)  can0  460   [4]  00 00 D0 52
 (619.951059)  can0  462   [4]  DC 27 D0 52
 (619.951257)  can0  464   [8]  FC 0D 6C 02 84 A6 07 F9
 (620.950847)  can0  460   [4]  2D 10 BC 52
 (620.951097)  can0  462   [4]  21 2C BC 52
 (620.951296)  can0  464   [8]  FD 0C 6C 02 FB A6 07 F9
 (621.954868)  can0  460   [4]  3C 28 A6 52
 (621.955088)  can0  462   [4]  E7 30 A6 52
 (621.955282)  can0  464   [8]  E2 0B 6C 02 80 A7 07 F9
 (622.952964)  can0  460   [4]  3A 0F 9E 52
 (622.953182)  can0  462   [4]  5A 16 9E 52
 (622.953387)  can0  464   [8]  6B 0B 6C 02 C5 A7 07 F9
 (623.951533)  can0  460   [4]  5B 0C 99 52
 (623.951756)  can0  462   [4]  40 0E 99 52
 (623.951948)  can0  464   [8]  24 0B 6C 02 F3 A7 07 F9
 (624.952945)  can0  460   [4]  00 00 92 52
 (624.953173)  can0  462   [4]  97 12 92 52
 (624.953371)  can0  464   [8]  C3 0A 6C 02 2E A8 07 F9
 (625.950972)  can0  460   [4]  00 00 89 52
 (625.951196)  can0  462   [4]  B7 16 89 52
 (625.951387)  can0  464   [8]  47 0A 6C 02 74 A8 07 F9
 (626.951172)  can0  460   [4]  00 00 7F 52
 (626.951398)  can0  462   [4]  0E 1B 7F 52
 (626.951593)  can0  464   [8]  B8 09 6C 02 D7 A8 07 F9
 (627.951074)  can0  460   [4]  00 00 75 52
 (627.951296)  can0  462   [4]  02 1D 75 52
 (627.951488)  can0  464   [8]  1F 09 6C 02 49 A9 07 F9
 (628.951028)  can0  460   [4]  51 12 6E 52
 (628.951244)  can0  462   [4]  38 17 6E 52
 (628.951436)  can0  464   [8]  A9 08 6C 02 A7 A9 07 F9
 (629.953065)  can0  460   [4]  00 00 65 52
 (629.953291)  can0  462   [4]  FB 1A 65 52
 (629.953498)  can0  464   [8]  1C 08 6C 02 12 AA 07 F9
 (630.953095)  can0  460   [4]  00 00 60 52
 (630.953313)  can0  462   [4]  1E 0F 60 52
 (630.953506)  can0  464   [8]  CE 07 6C 02 42 AA 07 F9
 (631.955112)  can0  460   [4]  10 12 58 52
 (631.955330)  can0  462   [4]  E1 12 58 52
 (631.955527)  can0  464   [8]  67 07 6C 02 78 AA 07 F9
 (632.955132)  can0  460   [4]  00 00 4F 52
 (632.955350)  can0  462   [4]  7F 16 4F 52
 (632.955550)  can0  464   [8]  E9 06 6C 02 B9 AA 07 F9
 (633.957505)  can0  460   [4]  21 19 46 52
 (633.957733)  can0  462   [4]  77 19 46 52
 (633.957933)  can0  464   [8]  62 06 6C 02 1C AB 07 F9
 (634.957610)  can0  460   [4]  A6 0B 43 52
 (634.957827)  can0  462   [4]  CA 0B 43 52
 (634.958023)  can0  464   [8]  2D 06 6C 02 51 AB 07 F9
 (635.953801)  can0  460   [4]  92 04 42 52
 (635.954017)  can0  462   [4]  10 05 42 52
 (635.954213)  can0  464   [8]  1A 06 6C 02 65 AB 07 F9
 (636.953058)  can0  460   [4]  57 07 40 52
 (636.953270)  can0  462   [4]  2C 08 40 52
 (636.953461)  can0  464   [8]  F6 05 6C 02 8A AB 07 F9
 (637.953438)  can0  460   [4]  00 00 3E 52
 (637.953648)  can0  462   [4]  36 0B 3E 52
 (637.953837)  can0  464   [8]  C5 05 6C 02 C2 AB 07 F9
 (638.953287)  can0  460   [4]  00 00 3B 52
 (638.953497)  can0  462   [4]  52 0E 3B 52
 (638.953686)  can0  464   [8]  88 05 6C 02 0D AC 07 F9
 (639.951306)  can0  460   [4]  90 10 37 52
 (639.951517)  can0  462   [4]  12 11 37 52
 (639.951710)  can0  464   [8]  39 05 6C 02 63 AC 07 F9
 (640.951152)  can0  460   [4]  41 04 CA 53
 (640.951364)  can0  462   [4]  5D 06 CA 53
 (640.951557)  can0  464   [8]  30 19 6C 02 F2 A3 07 F9
 (641.955544)  can0  460   [4]  4E 02 D9 53
 (641.955770)  can0  462   [4]  7F 05 D9 53
 (641.955969)  can0  464   [8]  ED 19 6C 02 9A A3 07 F9
 (642.955394)  can0  460   [4]  00 00 D6 53
 (642.955614)  can0  462   [4]  4E 07 D6 53
 (642.955806)  can0  464   [8]  C8 19 6C 02 B6 A3 07 F9
 (643.953415)  can0  460   [4]  00 00 D3 53
 (643.953637)  can0  462   [4]  A7 06 D3 53
 (643.953834)  can0  464   [8]  A6 19 6C 02 C5 A3 07 F9
 (644.954049)  can0  460   [4]  5F 08 D0 53
 (644.954264)  can0  462   [4]  C0 08 D0 53
 (644.954461)  can0  464   [8]  77 19 6C 02 DB A3 07 F9
 (645.959635)  can0  460   [4]  36 08 CB 53
 (645.959863)  can0  462   [4]  C7 0A CB 53
 (645.960054)  can0  464   [8]  3B 19 6C 02 F8 A3 07 F9
 (646.964089)  can0  460   [4]  D8 00 C6 53
 (646.964302)  can0  462   [4]  CE 0C C6 53
 (646.964500)  can0  464   [8]  F4 18 6C 02 1C A4 07 F9
 (647.965859)  can0  460   [4]  00 00 BF 53
 (647.966084)  can0  462   [4]  78 0E BF 53
 (647.966283)  can0  464   [8]  A1 18 6C 02 44 A4 07 F9
 (648.970062)  can0  460   [4]  00 00 BA 53
 (648.970287)  can0  462   [4]  A5 0B BA 53
 (648.970478)  can0  464   [8]  5E 18 6C 02 60 A4 07 F9
 (649.969728)  can0  460   [4]  B0 03 B5 53
 (649.969937)  can0  462   [4]  CE 0C B5 53
 (649.970124)  can0  464   [8]  15 18 6C 02 86 A4 07 F9
 (650.968182)  can0  460   [4]  6D 06 AF 53
 (650.968405)  can0  462   [4]  99 0D AF 53
 (650.968600)  can0  464   [8]  C6 17 6C 02 B4 A4 07 F9
 (651.970048)  can0  460   [4]  00 00 A9 53
 (651.970265)  can0  462   [4]  8A 0E A9 53
 (651.970463)  can0  464   [8]  77 17 6C 02 EE A4 07 F9
 (652.969802)  can0  460   [4]  1E 02 C9 53
 (652.970012)  can0  462   [4]  41 03 C9 53
 (652.970201)  can0  464   [8]  69 19 6C 02 58 A3 07 F9
 (653.967839)  can0  460   [4]  1D 00 CC 53
 (653.968051)  can0  462   [4]  AD 02 CC 53
 (653.968252)  can0  464   [8]  97 19 6C 02 36 A3 07 F9
 (654.969941)  can0  460   [4]  62 00 CD 53
 (654.970150)  can0  462   [4]  F4 01 CD 53
 (654.970338)  can0  464   [8]  A5 19 6C 02 32 A3 07 F9
 (655.978056)  can0  460   [4]  00 00 CE 53
 (655.978269)  can0  462   [4]  2B 02 CE 53
 (655.978466)  can0  464   [8]  A7 19 6C 02 36 A3 07 F9
 (656.980252)  can0  460   [4]  00 00 CE 53
 (656.980473)  can0  462   [4]  3E 02 CE 53
 (656.980665)  can0  464   [8]  A8 19 6C 02 2F A3 07 F9
 (657.980028)  can0  460   [4]  00 00 CD 53
 (657.980237)  can0  462   [4]  75 02 CD 53
 (657.980430)  can0  464   [8]  A4 19 6C 02 30 A3 07 F9
 (658.984310)  can0  460   [4]  8A 01 CD 53
 (658.984528)  can0  462   [4]  E1 01 CD 53
 (658.984723)  can0  464   [8]  9E 19 6C 02 30 A3 07 F9
 (659.984414)  can0  460   [4]  00 00 CB 53
 (659.984621)  can0  462   [4]  E1 01 CB 53
 (659.984809)  can0  464   [8]  96 19 6C 02 25 A3 07 F9
 (660.986191)  can0  460   [4]  00 00 CA 53
 (660.986415)  can0  462   [4]  19 02 CA 53
 (660.986612)  can0  464   [8]  8C 19 6C 02 23 A3 07 F9
 (661.988386)  can0  460   [4]  09 01 CA 53
 (661.988618)  can0  462   [4]  2B 02 CA 53
 (661.988831)  can0  464   [8]  83 19 6C 02 29 A3 07 F9
 (662.988307)  can0  460   [4]  2D 00 C9 53
 (662.988533)  can0  462   [4]  CF 01 C9 53
 (662.988727)  can0  464   [8]  7D 19 6C 02 32 A3 07 F9
 (663.986438)  can0  460   [4]  00 00 C9 53
 (663.986664)  can0  462   [4]  A9 01 C9 53
 (663.986854)  can0  464   [8]  77 19 6C 02 39 A3 07 F9
 (664.983940)  can0  460   [4]  A7 00 C9 53
 (664.984161)  can0  462   [4]  F4 01 C9 53
 (664.984356)  can0  464   [8]  6F 19 6C 02 42 A3 07 F9
 (665.982384)  can0  460   [4]  00 00 C9 53
 (665.982598)  can0  462   [4]  A9 01 C9 53
 (665.982790)  can0  464   [8]  68 19 6C 02 4C A3 07 F9
 (666.984411)  can0  460   [4]  DA 00 C8 53
 (666.984640)  can0  462   [4]  3A 01 C8 53
 (666.984835)  can0  464   [8]  64 19 6C 02 55 A3 07 F9
 (667.984460)  can0  460   [4]  87 00 C9 53
 (667.984694)  can0  462   [4]  03 01 C9 53
 (667.984884)  can0  464   [8]  61 19 6C 02 5E A3 07 F9
 (668.982209)  can0  460   [4]  5F 00 C8 53
 (668.982439)  can0  462   [4]  72 01 C8 53
 (668.982639)  can0  464   [8]  5C 19 6C 02 68 A3 07 F9
 (669.980405)  can0  460   [4]  00 00 C8 53
 (669.980624)  can0  462   [4]  03 01 C8 53
 (669.980826)  can0  464   [8]  57 19 6C 02 6F A3 07 F9
 (670.986606)  can0  460   [4]  00 00 C8 53
 (670.986831)  can0  462   [4]  5C 00 C8 53
 (670.987026)  can0  464   [8]  55 19 6C 02 72 A3 07 F9
 (671.988278)  can0  460   [4]  E2 00 C8 53
 (671.988497)  can0  462   [4]  03 01 C8 53
 (671.988694)  can0  464   [8]  54 19 6C 02 73 A3 07 F9
 (672.990648)  can0  460   [4]  00 00 C9 53
 (672.990863)  can0  462   [4]  15 01 C9 53
 (672.991058)  can0  464   [8]  5A 19 6C 02 6F A3 07 F9
 (673.994500)  can0  460   [4]  5D 00 C9 53
 (673.994718)  can0  462   [4]  CB 00 C9 53
 (673.994912)  can0  464   [8]  58 19 6C 02 73 A3 07 F9
 (674.998518)  can0  460   [4]  00 00 C9 53
 (674.998731)  can0  462   [4]  4A 00 C9 53
 (674.998925)  can0  464   [8]  56 19 6C 02 77 A3 07 F9
 (676.000632)  can0  460   [4]  00 00 C9 53
 (676.000847)  can0  462   [4]  12 00 C9 53
 (676.001041)  can0  464   [8]  55 19 6C 02 78 A3 07 F9
 (677.004742)  can0  460   [4]  0A 00 C8 53
 (677.004956)  can0  462   [4]  12 00 C8 53
 (677.005149)  can0  464   [8]  54 19 6C 02 7A A3 07 F9
 (678.012507)  can0  460   [4]  12 00 C8 53
 (678.012722)  can0  462   [4]  12 00 C8 53
 (678.012915)  can0  464   [8]  54 19 6C 02 7B A3 07 F9
 (679.020617)  can0  460   [4]  20 00 C8 53
 (679.020831)  can0  462   [4]  4A 00 C8 53
 (679.021026)  can0  464   [8]  53 19 6C 02 7D A3 07 F9
 (680.028737)  can0  460   [4]  00 00 C8 53
 (680.028961)  can0  462   [4]  37 00 C8 53
 (680.029167)  can0  464   [8]  52 19 6C 02 7D A3 07 F9
 (680.942155)  can0  460   [4]  00 00 C8 53
 (680.942369)  can0  462   [4]  12 00 C8 53
 (680.942562)  can0  464   [8]  52 19 6C 02 7E A3 07 F9
 (681.952184)  can0  460   [4]  00 00 C8 53
 (681.952407)  can0  462   [4]  12 00 C8 53
 (681.952609)  can0  464   [8]  52 19 6C 02 7E A3 07 F9
 (682.962111)  can0  460   [4]  00 00 C8 53
 (682.962317)  can0  462   [4]  00 00 C8 53
 (682.962507)  can0  464   [8]  51 19 6C 02 7F A3 07 F9
 (683.976395)  can0  460   [4]  00 00 C8 53
 (683.976606)  can0  462   [4]  00 00 C8 53
 (683.976795)  can0  464   [8]  51 19 6C 02 7F A3 07 F9
 (684.988590)  can0  460   [4]  00 00 C8 53
 (684.988804)  can0  462   [4]  00 00 C8 53
 (684.988995)  can0  464   [8]  51 19 6C 02 80 A3 07 F9
 (686.000881)  can0  460   [4]  00 00 C8 53
 (686.001098)  can0  462   [4]  12 00 C8 53
 (686.001291)  can0  464   [8]  50 19 6C 02 80 A3 07 F9
 (687.012818)  can0  460   [4]  00 00 C8 53
 (687.013040)  can0  462   [4]  00 00 C8 53
 (687.013238)  can0  464   [8]  50 19 6C 02 81 A3 07 F9
