 (000.000000)  can0  460   [4]  00 00 BB 11
 (000.000215)  can0  462   [4]  00 00 BB 11
 (000.000406)  can0  464   [8]  11 EB 68 02 F4 EA 05 F9
 (001.067912)  can0  460   [4]  00 00 BB 11
 (001.068120)  can0  462   [4]  00 00 BB 11
 (001.068311)  can0  464   [8]  11 EB 68 02 F4 EA 05 F9
 (002.039922)  can0  460   [4]  00 00 BB 11
 (002.040129)  can0  462   [4]  00 00 BB 11
 (002.040319)  can0  464   [8]  11 EB 68 02 F4 EA 05 F9
 (003.008204)  can0  460   [4]  00 00 BB 11
 (003.008416)  can0  462   [4]  00 00 BB 11
 (003.008610)  can0  464   [8]  11 EB 68 02 F4 EA 05 F9
 (004.078223)  can0  460   [4]  00 00 BB 11
 (004.078436)  can0  462   [4]  00 00 BB 11
 (004.078624)  can0  464   [8]  11 EB 68 02 F4 EA 05 F9
 (005.044411)  can0  460   [4]  00 00 BB 11
 (005.044622)  can0  462   [4]  12 00 BB 11
 (005.044810)  can0  464   [8]  11 EB 68 02 F4 EA 05 F9
 (006.012273)  can0  460   [4]  00 00 C0 11
 (006.012482)  can0  462   [4]  00 00 C0 11
 (006.012670)  can0  464   [8]  D7 EA 68 02 D0 EA 05 F9
 (007.084429)  can0  460   [4]  00 00 C1 11
 (007.084636)  can0  462   [4]  00 00 C1 11
 (007.084823)  can0  464   [8]  D5 EA 68 02 CF EA 05 F9
 (008.056266)  can0  460   [4]  00 00 C1 11
 (008.056472)  can0  462   [4]  00 00 C1 11
 (008.056662)  can0  464   [8]  D5 EA 68 02 CE EA 05 F9
 (009.030001)  can0  460   [4]  00 00 C1 11
 (009.030205)  can0  462   [4]  00 00 C1 11
 (009.030394)  can0  464   [8]  D4 EA 68 02 CE EA 05 F9
 (010.006465)  can0  460   [4]  00 00 C1 11
 (010.006674)  can0  462   [4]  00 00 C1 11
 (010.006863)  can0  464   [8]  D4 EA 68 02 CE EA 05 F9
 (011.088297)  can0  460   [4]  00 00 C1 11
 (011.088508)  can0  462   [4]  00 00 C1 11
 (011.088705)  can0  464   [8]  D4 EA 68 02 CE EA 05 F9
 (012.064309)  can0  460   [4]  00 00 C1 11
 (012.064515)  can0  462   [4]  00 00 C1 11
 (012.064701)  can0  464   [8]  D4 EA 68 02 CE EA 05 F9
 (013.046320)  can0  460   [4]  00 00 C1 11
 (013.046521)  can0  462   [4]  00 00 C1 11
 (013.046706)  can0  464   [8]  D4 EA 68 02 CE EA 05 F9
 (014.028504)  can0  460   [4]  00 00 C1 11
 (014.028717)  can0  462   [4]  00 00 C1 11
 (014.028915)  can0  464   [8]  D4 EA 68 02 CE EA 05 F9
 (015.008517)  can0  460   [4]  00 00 C1 11
 (015.008726)  can0  462   [4]  00 00 C1 11
 (015.008918)  can0  464   [8]  D4 EA 68 02 CE EA 05 F9
 (016.088390)  can0  460   [4]  00 00 C1 11
 (016.088609)  can0  462   [4]  00 00 C1 11
 (016.088801)  can0  464   [8]  D4 EA 68 02 CE EA 05 F9
 (017.066202)  can0  460   [4]  00 00 C1 11
 (017.066420)  can0  462   [4]  00 00 C1 11
 (017.066608)  can0  464   [8]  D4 EA 68 02 CE EA 05 F9
 (018.046213)  can0  460   [4]  00 00 C1 11
 (018.046424)  can0  462   [4]  00 00 C1 11
 (018.046613)  can0  464   [8]  D4 EA 68 02 CE EA 05 F9
 (019.024385)  can0  460   [4]  00 00 C1 11
 (019.024595)  can0  462   [4]  00 00 C1 11
 (019.024785)  can0  464   [8]  D5 EA 68 02 CD EA 05 F9
 (020.004673)  can0  460   [4]  00 00 C1 11
 (020.004878)  can0  462   [4]  00 00 C1 11
 (020.005067)  can0  464   [8]  D5 EA 68 02 CD EA 05 F9
 (021.086596)  can0  460   [4]  00 00 C1 11
 (021.086817)  can0  462   [4]  00 00 C1 11
 (021.087008)  can0  464   [8]  D5 EA 68 02 CC EA 05 F9
 (022.066278)  can0  460   [4]  00 00 C1 11
 (022.066500)  can0  462   [4]  00 00 C1 11
 (022.066688)  can0  464   [8]  D6 EA 68 02 CC EA 05 F9
 (023.048281)  can0  460   [4]  00 00 C1 11
 (023.048499)  can0  462   [4]  00 00 C1 11
 (023.048687)  can0  464   [8]  D6 EA 68 02 CD EA 05 F9
 (024.030284)  can0  460   [4]  00 00 C1 11
 (024.030502)  can0  462   [4]  00 00 C1 11
 (024.030693)  can0  464   [8]  D6 EA 68 02 CE EA 05 F9
 (025.008459)  can0  460   [4]  00 00 C1 11
 (025.008667)  can0  462   [4]  00 00 C1 11
 (025.008859)  can0  464   [8]  D6 EA 68 02 CF EA 05 F9
 (025.990293)  can0  460   [4]  00 00 C1 11
 (025.990503)  can0  462   [4]  00 00 C1 11
 (025.990692)  can0  464   [8]  D6 EA 68 02 CF EA 05 F9
 (027.076485)  can0  460   [4]  00 00 C1 11
 (027.076694)  can0  462   [4]  00 00 C1 11
 (027.076883)  can0  464   [8]  D6 EA 68 02 D0 EA 05 F9
 (028.058493)  can0  460   [4]  00 00 C1 11
 (028.058697)  can0  462   [4]  00 00 C1 11
 (028.058887)  can0  464   [8]  D7 EA 68 02 D2 EA 05 F9
 (029.040324)  can0  460   [4]  00 00 C0 11
 (029.040532)  can0  462   [4]  00 00 C0 11
 (029.040722)  can0  464   [8]  D7 EA 68 02 D3 EA 05 F9
 (030.028345)  can0  460   [4]  00 00 C0 11
 (030.028558)  can0  462   [4]  00 00 C0 11
 (030.028750)  can0  464   [8]  D8 EA 68 02 D4 EA 05 F9
 (031.012518)  can0  460   [4]  00 00 C0 11
 (031.012741)  can0  462   [4]  00 00 C0 11
 (031.012943)  can0  464   [8]  D8 EA 68 02 D5 EA 05 F9
 (032.000364)  can0  460   [4]  00 00 C0 11
 (032.000580)  can0  462   [4]  00 00 C0 11
 (032.000773)  can0  464   [8]  D9 EA 68 02 D5 EA 05 F9
 (033.082557)  can0  460   [4]  00 00 C0 11
 (033.082770)  can0  462   [4]  00 00 C0 11
 (033.082961)  can0  464   [8]  DA EA 68 02 D5 EA 05 F9
 (034.066380)  can0  460   [4]  00 00 C0 11
 (034.066586)  can0  462   [4]  00 00 C0 11
 (034.066773)  can0  464   [8]  DB EA 68 02 D6 EA 05 F9
 (035.054734)  can0  460   [4]  00 00 C0 11
 (035.054943)  can0  462   [4]  00 00 C0 11
 (035.055130)  can0  464   [8]  DC EA 68 02 D6 EA 05 F9
 (036.038403)  can0  460   [4]  00 00 C0 11
 (036.038610)  can0  462   [4]  00 00 C0 11
 (036.038802)  can0  464   [8]  DC EA 68 02 D6 EA 05 F9
 (037.024618)  can0  460   [4]  00 00 C0 11
 (037.024839)  can0  462   [4]  00 00 C0 11
 (037.025029)  can0  464   [8]  DD EA 68 02 D7 EA 05 F9
 (038.008787)  can0  460   [4]  00 00 C0 11
 (038.008999)  can0  462   [4]  12 00 C0 11
 (038.009192)  can0  464   [8]  DE EA 68 02 D7 EA 05 F9
 (038.994790)  can0  460   [4]  00 00 C0 11
 (038.995004)  can0  462   [4]  12 00 C0 11
 (038.995197)  can0  464   [8]  DF EA 68 02 D8 EA 05 F9
 (040.082802)  can0  460   [4]  00 00 C0 11
 (040.083027)  can0  462   [4]  00 00 C0 11
 (040.083216)  can0  464   [8]  DF EA 68 02 D9 EA 05 F9
 (041.072462)  can0  460   [4]  00 00 C0 11
 (041.072674)  can0  462   [4]  00 00 C0 11
 (041.072862)  can0  464   [8]  DF EA 68 02 DA EA 05 F9
 (042.062660)  can0  460   [4]  00 00 C0 11
 (042.062874)  can0  462   [4]  00 00 C0 11
 (042.063061)  can0  464   [8]  DF EA 68 02 DB EA 05 F9
 (043.054652)  can0  460   [4]  00 00 C0 11
 (043.054864)  can0  462   [4]  00 00 C0 11
 (043.055053)  can0  464   [8]  DF EA 68 02 DC EA 05 F9
 (044.046859)  can0  460   [4]  00 00 C0 11
 (044.047078)  can0  462   [4]  00 00 C0 11
 (044.047266)  can0  464   [8]  DF EA 68 02 DE EA 05 F9
 (045.038414)  can0  460   [4]  00 00 C0 11
 (045.038618)  can0  462   [4]  00 00 C0 11
 (045.038807)  can0  464   [8]  E0 EA 68 02 DF EA 05 F9
 (046.030536)  can0  460   [4]  00 00 C0 11
 (046.030750)  can0  462   [4]  00 00 C0 11
 (046.030943)  can0  464   [8]  E0 EA 68 02 E0 EA 05 F9
 (047.024713)  can0  460   [4]  00 00 C0 11
 (047.024924)  can0  462   [4]  00 00 C0 11
 (047.025115)  can0  464   [8]  E1 EA 68 02 E0 EA 05 F9
 (048.018720)  can0  460   [4]  00 00 C0 11
 (048.018928)  can0  462   [4]  00 00 C0 11
 (048.019122)  can0  464   [8]  E1 EA 68 02 E0 EA 05 F9
 (049.010734)  can0  460   [4]  00 00 C0 11
 (049.010942)  can0  462   [4]  00 00 C0 11
 (049.011131)  can0  464   [8]  E2 EA 68 02 E0 EA 05 F9
 (050.006580)  can0  460   [4]  00 00 BF 11
 (050.006793)  can0  462   [4]  00 00 BF 11
 (050.006993)  can0  464   [8]  E3 EA 68 02 E0 EA 05 F9
 (051.007021)  can0  460   [4]  00 00 BF 11
 (051.007256)  can0  462   [4]  00 00 BF 11
 (051.007443)  can0  464   [8]  E4 EA 68 02 E1 EA 05 F9
 (052.006500)  can0  460   [4]  00 00 BF 11
 (052.006714)  can0  462   [4]  00 00 BF 11
 (052.006908)  can0  464   [8]  E4 EA 68 02 E1 EA 05 F9
 (053.006946)  can0  460   [4]  00 00 BF 11
 (053.007159)  can0  462   [4]  00 00 BF 11
 (053.007346)  can0  464   [8]  E4 EA 68 02 E1 EA 05 F9
 (054.006797)  can0  460   [4]  00 00 BF 11
 (054.007018)  can0  462   [4]  00 00 BF 11
 (054.007207)  can0  464   [8]  E5 EA 68 02 E2 EA 05 F9
 (055.008796)  can0  460   [4]  00 00 BF 11
 (055.009002)  can0  462   [4]  00 00 BF 11
 (055.009188)  can0  464   [8]  E6 EA 68 02 E2 EA 05 F9
 (056.008991)  can0  460   [4]  00 00 BF 11
 (056.009202)  can0  462   [4]  00 00 BF 11
 (056.009392)  can0  464   [8]  E6 EA 68 02 E2 EA 05 F9
 (057.017010)  can0  460   [4]  00 00 BF 11
 (057.017229)  can0  462   [4]  00 00 BF 11
 (057.017423)  can0  464   [8]  E7 EA 68 02 E2 EA 05 F9
 (058.020828)  can0  460   [4]  00 00 BF 11
 (058.021045)  can0  462   [4]  00 00 BF 11
 (058.021234)  can0  464   [8]  E7 EA 68 02 E2 EA 05 F9
 (059.028866)  can0  460   [4]  00 00 BF 11
 (059.029073)  can0  462   [4]  00 00 BF 11
 (059.029261)  can0  464   [8]  E7 EA 68 02 E2 EA 05 F9
 (060.034847)  can0  460   [4]  00 00 BF 11
 (060.035062)  can0  462   [4]  00 00 BF 11
 (060.035253)  can0  464   [8]  E7 EA 68 02 E3 EA 05 F9
 (061.038701)  can0  460   [4]  00 00 BF 11
 (061.038920)  can0  462   [4]  00 00 BF 11
 (061.039112)  can0  464   [8]  E7 EA 68 02 E4 EA 05 F9
 (062.045055)  can0  460   [4]  00 00 BF 11
 (062.045264)  can0  462   [4]  00 00 BF 11
 (062.045461)  can0  464   [8]  E7 EA 68 02 E5 EA 05 F9
 (063.054729)  can0  460   [4]  00 00 BF 11
 (063.054947)  can0  462   [4]  00 00 BF 11
 (063.055139)  can0  464   [8]  E8 EA 68 02 E6 EA 05 F9
 (064.058905)  can0  460   [4]  00 00 BF 11
 (064.059111)  can0  462   [4]  00 00 BF 11
 (064.059298)  can0  464   [8]  E8 EA 68 02 E6 EA 05 F9
 (065.066743)  can0  460   [4]  00 00 BF 11
 (065.066950)  can0  462   [4]  00 00 BF 11
 (065.067134)  can0  464   [8]  E8 EA 68 02 E7 EA 05 F9
 (066.072783)  can0  460   [4]  00 00 BF 11
 (066.073002)  can0  462   [4]  00 00 BF 11
 (066.073190)  can0  464   [8]  E8 EA 68 02 E7 EA 05 F9
 (067.080754)  can0  460   [4]  00 00 BF 11
 (067.080963)  can0  462   [4]  00 00 BF 11
 (067.081158)  can0  464   [8]  E8 EA 68 02 E9 EA 05 F9
 (068.087132)  can0  460   [4]  00 00 BF 11
 (068.087396)  can0  462   [4]  00 00 BF 11
 (068.087609)  can0  464   [8]  E8 EA 68 02 EA EA 05 F9
 (068.990696)  can0  460   [4]  00 00 BF 11
 (068.990916)  can0  462   [4]  00 00 BF 11
 (068.991117)  can0  464   [8]  E9 EA 68 02 EB EA 05 F9
 (069.996714)  can0  460   [4]  00 00 BF 11
 (069.996947)  can0  462   [4]  00 00 BF 11
 (069.997142)  can0  464   [8]  E9 EA 68 02 EC EA 05 F9
 (071.008997)  can0  460   [4]  00 00 BF 11
 (071.009216)  can0  462   [4]  00 00 BF 11
 (071.009409)  can0  464   [8]  EA EA 68 02 EE EA 05 F9
 (072.021158)  can0  460   [4]  00 00 BF 11
 (072.021373)  can0  462   [4]  00 00 BF 11
 (072.021566)  can0  464   [8]  EA EA 68 02 EF EA 05 F9
 (073.036821)  can0  460   [4]  00 00 BF 11
 (073.037051)  can0  462   [4]  00 00 BF 11
 (073.037262)  can0  464   [8]  EA EA 68 02 F0 EA 05 F9
 (074.047026)  can0  460   [4]  00 00 BF 11
 (074.047255)  can0  462   [4]  00 00 BF 11
 (074.047464)  can0  464   [8]  EA EA 68 02 EF EA 05 F9
 (075.057025)  can0  460   [4]  00 00 BF 11
 (075.057247)  can0  462   [4]  00 00 BF 11
 (075.057446)  can0  464   [8]  EB EA 68 02 F0 EA 05 F9
 (076.070872)  can0  460   [4]  00 00 BF 11
 (076.071093)  can0  462   [4]  00 00 BF 11
 (076.071297)  can0  464   [8]  EC EA 68 02 F1 EA 05 F9
 (077.081071)  can0  460   [4]  00 00 BF 11
 (077.081308)  can0  462   [4]  00 00 BF 11
 (077.081507)  can0  464   [8]  EC EA 68 02 F2 EA 05 F9
 (077.989060)  can0  460   [4]  00 00 BF 11
 (077.989287)  can0  462   [4]  00 00 BF 11
 (077.989488)  can0  464   [8]  EC EA 68 02 F2 EA 05 F9
 (079.000894)  can0  460   [4]  00 00 BF 11
 (079.001122)  can0  462   [4]  00 00 BF 11
 (079.001321)  can0  464   [8]  ED EA 68 02 F2 EA 05 F9
 (080.015256)  can0  460   [4]  00 00 BF 11
 (080.015472)  can0  462   [4]  00 00 BF 11
 (080.015671)  can0  464   [8]  ED EA 68 02 F3 EA 05 F9
 (081.025273)  can0  460   [4]  00 00 BF 11
 (081.025511)  can0  462   [4]  00 00 BF 11
 (081.025714)  can0  464   [8]  EE EA 68 02 F4 EA 05 F9
 (082.040930)  can0  460   [4]  00 00 BF 11
 (082.041147)  can0  462   [4]  00 00 BF 11
 (082.041346)  can0  464   [8]  EE EA 68 02 F6 EA 05 F9
 (083.052953)  can0  460   [4]  00 00 BF 11
 (083.053167)  can0  462   [4]  00 00 BF 11
 (083.053361)  can0  464   [8]  EF EA 68 02 F8 EA 05 F9
 (084.061136)  can0  460   [4]  00 00 BF 11
 (084.061364)  can0  462   [4]  00 00 BF 11
 (084.061558)  can0  464   [8]  EF EA 68 02 F9 EA 05 F9
 (085.075158)  can0  460   [4]  00 00 BE 11
 (085.075388)  can0  462   [4]  00 00 BE 11
 (085.075576)  can0  464   [8]  F0 EA 68 02 FA EA 05 F9
 (086.083175)  can0  460   [4]  00 00 BE 11
 (086.083391)  can0  462   [4]  00 00 BE 11
 (086.083588)  can0  464   [8]  F1 EA 68 02 F9 EA 05 F9
 (086.992997)  can0  460   [4]  00 00 BE 11
 (086.993242)  can0  462   [4]  00 00 BE 11
 (086.993440)  can0  464   [8]  F2 EA 68 02 F9 EA 05 F9
 (088.001437)  can0  460   [4]  00 00 BE 11
 (088.001651)  can0  462   [4]  00 00 BE 11
 (088.001840)  can0  464   [8]  F2 EA 68 02 F9 EA 05 F9
 (089.009372)  can0  460   [4]  00 00 BE 11
 (089.009610)  can0  462   [4]  00 00 BE 11
 (089.009808)  can0  464   [8]  F1 EA 68 02 F9 EA 05 F9
 (090.021232)  can0  460   [4]  00 00 BE 11
 (090.021455)  can0  462   [4]  00 00 BE 11
 (090.021643)  can0  464   [8]  F1 EA 68 02 FA EA 05 F9
 (091.032946)  can0  460   [4]  00 00 BE 11
 (091.033176)  can0  462   [4]  00 00 BE 11
 (091.033369)  can0  464   [8]  F2 EA 68 02 FB EA 05 F9
 (092.043070)  can0  460   [4]  00 00 BE 11
 (092.043304)  can0  462   [4]  00 00 BE 11
 (092.043498)  can0  464   [8]  F2 EA 68 02 FC EA 05 F9
 (093.054984)  can0  460   [4]  00 00 BE 11
 (093.055222)  can0  462   [4]  00 00 BE 11
 (093.055416)  can0  464   [8]  F3 EA 68 02 FD EA 05 F9
 (094.067071)  can0  460   [4]  00 00 BE 11
 (094.067285)  can0  462   [4]  00 00 BE 11
 (094.067486)  can0  464   [8]  F3 EA 68 02 FD EA 05 F9
 (095.075107)  can0  460   [4]  00 00 BE 11
 (095.075344)  can0  462   [4]  00 00 BE 11
 (095.075534)  can0  464   [8]  F5 EA 68 02 FC EA 05 F9
 (096.085437)  can0  460   [4]  00 00 BE 11
 (096.085668)  can0  462   [4]  00 00 BE 11
 (096.085862)  can0  464   [8]  F6 EA 68 02 FC EA 05 F9
 (096.997116)  can0  460   [4]  00 00 BE 11
 (096.997334)  can0  462   [4]  00 00 BE 11
 (096.997529)  can0  464   [8]  F7 EA 68 02 FC EA 05 F9
 (098.009298)  can0  460   [4]  00 00 BE 11
 (098.009519)  can0  462   [4]  00 00 BE 11
 (098.009713)  can0  464   [8]  F7 EA 68 02 FD EA 05 F9
 (099.021488)  can0  460   [4]  00 00 BE 11
 (099.021727)  can0  462   [4]  00 00 BE 11
 (099.021917)  can0  464   [8]  F7 EA 68 02 FB EA 05 F9
 (100.035502)  can0  460   [4]  00 00 BE 11
 (100.035737)  can0  462   [4]  00 00 BE 11
 (100.035939)  can0  464   [8]  F6 EA 68 02 FA EA 05 F9
 (101.051526)  can0  460   [4]  00 00 BE 11
 (101.051758)  can0  462   [4]  00 00 BE 11
 (101.051953)  can0  464   [8]  F5 EA 68 02 F9 EA 05 F9
 (102.065166)  can0  460   [4]  00 00 BE 11
 (102.065392)  can0  462   [4]  00 00 BE 11
 (102.065600)  can0  464   [8]  F5 EA 68 02 F8 EA 05 F9
 (103.075227)  can0  460   [4]  00 00 BE 11
 (103.075455)  can0  462   [4]  00 00 BE 11
 (103.075649)  can0  464   [8]  F5 EA 68 02 F8 EA 05 F9
 (104.085365)  can0  460   [4]  00 00 BE 11
 (104.085591)  can0  462   [4]  00 00 BE 11
 (104.085790)  can0  464   [8]  F5 EA 68 02 F8 EA 05 F9
 (104.995202)  can0  460   [4]  00 00 BE 11
 (104.995424)  can0  462   [4]  00 00 BE 11
 (104.995644)  can0  464   [8]  F5 EA 68 02 F8 EA 05 F9
 (106.011555)  can0  460   [4]  00 00 BE 11
 (106.011784)  can0  462   [4]  00 00 BE 11
 (106.011979)  can0  464   [8]  F5 EA 68 02 F8 EA 05 F9
 (107.025396)  can0  460   [4]  00 00 BE 11
 (107.025612)  can0  462   [4]  00 00 BE 11
 (107.025812)  can0  464   [8]  F5 EA 68 02 F8 EA 05 F9
 (108.039406)  can0  460   [4]  00 00 BE 11
 (108.039653)  can0  462   [4]  00 00 BE 11
 (108.039851)  can0  464   [8]  F5 EA 68 02 F8 EA 05 F9
 (109.055614)  can0  460   [4]  00 00 BE 11
 (109.055849)  can0  462   [4]  00 00 BE 11
 (109.056049)  can0  464   [8]  F5 EA 68 02 F8 EA 05 F9
 (110.067608)  can0  460   [4]  00 00 BE 11
 (110.067827)  can0  462   [4]  00 00 BE 11
 (110.068030)  can0  464   [8]  F5 EA 68 02 F8 EA 05 F9
 (111.079437)  can0  460   [4]  00 00 BE 11
 (111.079660)  can0  462   [4]  00 00 BE 11
 (111.079858)  can0  464   [8]  F5 EA 68 02 F8 EA 05 F9
 (112.089652)  can0  460   [4]  00 00 BE 11
 (112.089885)  can0  462   [4]  00 00 BE 11
 (112.090099)  can0  464   [8]  F5 EA 68 02 F8 EA 05 F9
 (112.997465)  can0  460   [4]  00 00 BE 11
 (112.997714)  can0  462   [4]  00 00 BE 11
 (112.997916)  can0  464   [8]  F5 EA 68 02 F8 EA 05 F9
 (114.011653)  can0  460   [4]  00 00 BE 11
 (114.011870)  can0  462   [4]  00 00 BE 11
 (114.012066)  can0  464   [8]  F5 EA 68 02 F8 EA 05 F9
 (115.029220)  can0  460   [4]  00 00 BE 11
 (115.029453)  can0  462   [4]  00 00 BE 11
 (115.029649)  can0  464   [8]  F5 EA 68 02 F8 EA 05 F9
 (116.039333)  can0  460   [4]  00 00 BE 11
 (116.039550)  can0  462   [4]  00 00 BE 11
 (116.039744)  can0  464   [8]  F5 EA 68 02 F8 EA 05 F9
 (117.049708)  can0  460   [4]  00 00 BE 11
 (117.049966)  can0  462   [4]  00 00 BE 11
 (117.050159)  can0  464   [8]  F5 EA 68 02 F8 EA 05 F9
 (118.057699)  can0  460   [4]  00 00 BE 11
 (118.057918)  can0  462   [4]  00 00 BE 11
 (118.058116)  can0  464   [8]  F5 EA 68 02 F8 EA 05 F9
 (119.069372)  can0  460   [4]  00 00 BE 11
 (119.069604)  can0  462   [4]  00 00 BE 11
 (119.069814)  can0  464   [8]  F5 EA 68 02 F8 EA 05 F9
 (120.081549)  can0  460   [4]  00 00 BE 11
 (120.081773)  can0  462   [4]  00 00 BE 11
 (120.081987)  can0  464   [8]  F5 EA 68 02 F8 EA 05 F9
 (121.091563)  can0  460   [4]  00 00 BE 11
 (121.091767)  can0  462   [4]  00 00 BE 11
 (121.091958)  can0  464   [8]  F5 EA 68 02 F8 EA 05 F9
 (121.997401)  can0  460   [4]  00 00 BE 11
 (121.997624)  can0  462   [4]  00 00 BE 11
 (121.997812)  can0  464   [8]  F5 EA 68 02 F8 EA 05 F9
 (123.005839)  can0  460   [4]  00 00 BE 11
 (123.006049)  can0  462   [4]  00 00 BE 11
 (123.006233)  can0  464   [8]  F5 EA 68 02 F8 EA 05 F9
 (124.013781)  can0  460   [4]  00 00 BE 11
 (124.014022)  can0  462   [4]  00 00 BE 11
 (124.014222)  can0  464   [8]  F5 EA 68 02 F8 EA 05 F9
 (125.025783)  can0  460   [4]  00 00 BE 11
 (125.026022)  can0  462   [4]  00 00 BE 11
 (125.026240)  can0  464   [8]  F5 EA 68 02 F8 EA 05 F9
 (126.035621)  can0  460   [4]  00 00 BE 11
 (126.035836)  can0  462   [4]  00 00 BE 11
 (126.036027)  can0  464   [8]  F5 EA 68 02 F8 EA 05 F9
 (127.043458)  can0  460   [4]  00 00 BE 11
 (127.043679)  can0  462   [4]  00 00 BE 11
 (127.043877)  can0  464   [8]  F5 EA 68 02 F8 EA 05 F9
 (128.055619)  can0  460   [4]  00 00 BE 11
 (128.055998)  can0  462   [4]  00 00 BE 11
 (128.056202)  can0  464   [8]  F5 EA 68 02 F8 EA 05 F9
 (129.069824)  can0  460   [4]  00 00 BE 11
 (129.070035)  can0  462   [4]  00 00 BE 11
 (129.070226)  can0  464   [8]  F5 EA 68 02 F8 EA 05 F9
 (130.079669)  can0  460   [4]  00 00 BE 11
 (130.079923)  can0  462   [4]  00 00 BE 11
 (130.080126)  can0  464   [8]  F5 EA 68 02 F8 EA 05 F9
 (131.089676)  can0  460   [4]  00 00 BE 11
 (131.089896)  can0  462   [4]  00 00 BE 11
 (131.090094)  can0  464   [8]  F5 EA 68 02 F8 EA 05 F9
 (131.999512)  can0  460   [4]  00 00 BE 11
 (131.999731)  can0  462   [4]  00 00 BE 11
 (131.999930)  can0  464   [8]  F5 EA 68 02 F8 EA 05 F9
 (133.007703)  can0  460   [4]  00 00 BE 11
 (133.007919)  can0  462   [4]  00 00 BE 11
 (133.008107)  can0  464   [8]  F5 EA 68 02 F8 EA 05 F9
 (134.015717)  can0  460   [4]  00 00 BE 11
 (134.015940)  can0  462   [4]  00 00 BE 11
 (134.016136)  can0  464   [8]  F5 EA 68 02 F8 EA 05 F9
 (135.023911)  can0  460   [4]  00 00 BE 11
 (135.024139)  can0  462   [4]  00 00 BE 11
 (135.024336)  can0  464   [8]  F5 EA 68 02 F8 EA 05 F9
 (136.033556)  can0  460   [4]  00 00 BE 11
 (136.033791)  can0  462   [4]  00 00 BE 11
 (136.033991)  can0  464   [8]  F5 EA 68 02 F8 EA 05 F9
 (137.043578)  can0  460   [4]  00 00 BE 11
 (137.043805)  can0  462   [4]  00 00 BE 11
 (137.044007)  can0  464   [8]  F5 EA 68 02 F8 EA 05 F9
 (138.053761)  can0  460   [4]  00 00 BE 11
 (138.053994)  can0  462   [4]  00 00 BE 11
 (138.054202)  can0  464   [8]  F5 EA 68 02 F8 EA 05 F9
 (139.065791)  can0  460   [4]  00 00 BE 11
 (139.066026)  can0  462   [4]  00 00 BE 11
 (139.066220)  can0  464   [8]  F5 EA 68 02 F8 EA 05 F9
 (140.073612)  can0  460   [4]  00 00 BE 11
 (140.073834)  can0  462   [4]  00 00 BE 11
 (140.074047)  can0  464   [8]  F5 EA 68 02 F8 EA 05 F9
 (141.081971)  can0  460   [4]  00 00 BE 11
 (141.082186)  can0  462   [4]  00 00 BE 11
 (141.082380)  can0  464   [8]  F5 EA 68 02 F8 EA 05 F9
 (142.089809)  can0  460   [4]  00 00 BE 11
 (142.090042)  can0  462   [4]  00 00 BE 11
 (142.090235)  can0  464   [8]  F5 EA 68 02 F8 EA 05 F9
 (142.997645)  can0  460   [4]  00 00 BE 11
 (142.997868)  can0  462   [4]  00 00 BE 11
 (142.998077)  can0  464   [8]  F5 EA 68 02 F8 EA 05 F9
 (144.010004)  can0  460   [4]  00 00 BE 11
 (144.010233)  can0  462   [4]  00 00 BE 11
 (144.010434)  can0  464   [8]  F5 EA 68 02 F8 EA 05 F9
 (145.019858)  can0  460   [4]  00 00 BE 11
 (145.020087)  can0  462   [4]  00 00 BE 11
 (145.020293)  can0  464   [8]  F5 EA 68 02 F8 EA 05 F9
 (146.025863)  can0  460   [4]  00 00 BE 11
 (146.026106)  can0  462   [4]  00 00 BE 11
 (146.026307)  can0  464   [8]  F5 EA 68 02 F8 EA 05 F9
 (147.035601)  can0  460   [4]  00 00 BE 11
 (147.035837)  can0  462   [4]  00 00 BE 11
 (147.036040)  can0  464   [8]  F5 EA 68 02 F8 EA 05 F9
 (148.045874)  can0  460   [4]  00 00 BE 11
 (148.046095)  can0  462   [4]  00 00 BE 11
 (148.046293)  can0  464   [8]  F5 EA 68 02 F8 EA 05 F9
 (149.053900)  can0  460   [4]  00 00 BE 11
 (149.054139)  can0  462   [4]  00 00 BE 11
 (149.054339)  can0  464   [8]  F5 EA 68 02 F8 EA 05 F9
 (150.059912)  can0  460   [4]  00 00 BE 11
 (150.060148)  can0  462   [4]  00 00 BE 11
 (150.060354)  can0  464   [8]  F5 EA 68 02 F8 EA 05 F9
 (151.072093)  can0  460   [4]  00 00 BE 11
 (151.072323)  can0  462   [4]  00 00 BE 11
 (151.072532)  can0  464   [8]  F5 EA 68 02 F8 EA 05 F9
 (152.079926)  can0  460   [4]  00 00 BE 11
 (152.080153)  can0  462   [4]  00 00 BE 11
 (152.080365)  can0  464   [8]  F5 EA 68 02 F8 EA 05 F9
 (153.090111)  can0  460   [4]  00 00 BE 11
 (153.090339)  can0  462   [4]  00 00 BE 11
 (153.090544)  can0  464   [8]  F5 EA 68 02 F8 EA 05 F9
 (153.997968)  can0  460   [4]  00 00 BE 11
 (153.998207)  can0  462   [4]  00 00 BE 11
 (153.998407)  can0  464   [8]  F5 EA 68 02 F8 EA 05 F9
 (155.010123)  can0  460   [4]  00 00 BE 11
 (155.010336)  can0  462   [4]  00 00 BE 11
 (155.010532)  can0  464   [8]  F5 EA 68 02 F8 EA 05 F9
 (156.017971)  can0  460   [4]  00 00 BE 11
 (156.018191)  can0  462   [4]  00 00 BE 11
 (156.018389)  can0  464   [8]  F5 EA 68 02 F8 EA 05 F9
 (157.027984)  can0  460   [4]  00 00 BE 11
 (157.028205)  can0  462   [4]  00 00 BE 11
 (157.028411)  can0  464   [8]  F5 EA 68 02 F8 EA 05 F9
 (158.035731)  can0  460   [4]  00 00 BE 11
 (158.035956)  can0  462   [4]  00 00 BE 11
 (158.036156)  can0  464   [8]  F5 EA 68 02 F8 EA 05 F9
 (159.048012)  can0  460   [4]  00 00 BE 11
 (159.048251)  can0  462   [4]  00 00 BE 11
 (159.048445)  can0  464   [8]  F5 EA 68 02 F8 EA 05 F9
 (160.060192)  can0  460   [4]  00 00 BE 11
 (160.060415)  can0  462   [4]  00 00 BE 11
 (160.060619)  can0  464   [8]  F5 EA 68 02 F8 EA 05 F9
 (161.070216)  can0  460   [4]  00 00 BE 11
 (161.070449)  can0  462   [4]  00 00 BE 11
 (161.070658)  can0  464   [8]  F5 EA 68 02 F8 EA 05 F9
 (162.081872)  can0  460   [4]  00 00 BE 11
 (162.082108)  can0  462   [4]  00 00 BE 11
 (162.082322)  can0  464   [8]  F5 EA 68 02 F8 EA 05 F9
 (162.990225)  can0  460   [4]  00 00 BE 11
 (162.990454)  can0  462   [4]  00 00 BE 11
 (162.990660)  can0  464   [8]  F5 EA 68 02 F8 EA 05 F9
 (164.001890)  can0  460   [4]  00 00 BE 11
 (164.002107)  can0  462   [4]  00 00 BE 11
 (164.002304)  can0  464   [8]  F5 EA 68 02 F8 EA 05 F9
 (165.010082)  can0  460   [4]  00 00 BE 11
 (165.010320)  can0  462   [4]  00 00 BE 11
 (165.010518)  can0  464   [8]  F5 EA 68 02 F8 EA 05 F9
 (166.020257)  can0  460   [4]  00 00 BE 11
 (166.020474)  can0  462   [4]  00 00 BE 11
 (166.020673)  can0  464   [8]  F5 EA 68 02 F8 EA 05 F9
 (167.029944)  can0  460   [4]  00 00 BE 11
 (167.030191)  can0  462   [4]  00 00 BE 11
 (167.030390)  can0  464   [8]  F5 EA 68 02 F8 EA 05 F9
 (168.042122)  can0  460   [4]  00 00 BE 11
 (168.042354)  can0  462   [4]  00 00 BE 11
 (168.042564)  can0  464   [8]  F5 EA 68 02 F8 EA 05 F9
 (169.048145)  can0  460   [4]  00 00 BE 11
 (169.048376)  can0  462   [4]  00 00 BE 11
 (169.048579)  can0  464   [8]  F5 EA 68 02 F8 EA 05 F9
 (170.056138)  can0  460   [4]  00 00 BE 11
 (170.056357)  can0  462   [4]  00 00 BE 11
 (170.056562)  can0  464   [8]  F5 EA 68 02 F8 EA 05 F9
 (171.066153)  can0  460   [4]  00 00 BE 11
 (171.066386)  can0  462   [4]  00 00 BE 11
 (171.066593)  can0  464   [8]  F5 EA 68 02 F8 EA 05 F9
 (172.075991)  can0  460   [4]  00 00 BE 11
 (172.076215)  can0  462   [4]  00 00 BE 11
 (172.076420)  can0  464   [8]  F5 EA 68 02 F8 EA 05 F9
 (173.084015)  can0  460   [4]  00 00 BE 11
 (173.084250)  can0  462   [4]  00 00 BE 11
