 (000.000000)  can0  460   [4]  00 00 AF 0D
 (000.000275)  can0  462   [4]  00 00 AF 0D
 (000.000473)  can0  464   [8]  28 68 AF 02 8B 02 75 00
 (000.440603)  can0  422   [1]  00
 (001.001949)  can0  460   [4]  00 00 AF 0D
 (001.002182)  can0  462   [4]  00 00 AF 0D
 (001.002382)  can0  464   [8]  28 68 AF 02 8B 02 75 00
 (001.440541)  can0  422   [1]  00
 (002.001965)  can0  460   [4]  00 00 AF 0D
 (002.002191)  can0  462   [4]  00 00 AF 0D
 (002.002393)  can0  464   [8]  28 68 AF 02 8B 02 75 00
 (002.440499)  can0  422   [1]  00
 (003.003881)  can0  460   [4]  00 00 AF 0D
 (003.004104)  can0  462   [4]  00 00 AF 0D
 (003.004304)  can0  464   [8]  28 68 AF 02 8B 02 75 00
 (003.440341)  can0  422   [1]  00
 (004.003877)  can0  460   [4]  00 00 AF 0D
 (004.004153)  can0  462   [4]  00 00 AF 0D
 (004.004385)  can0  464   [8]  28 68 AF 02 8B 02 75 00
 (004.440253)  can0  422   [1]  00
 (005.005802)  can0  460   [4]  00 00 AF 0D
 (005.006024)  can0  462   [4]  00 00 AF 0D
 (005.006225)  can0  464   [8]  27 68 AF 02 8D 02 75 00
 (005.440172)  can0  422   [1]  00
 (006.005768)  can0  460   [4]  00 00 AF 0D
 (006.005986)  can0  462   [4]  00 00 AF 0D
 (006.006185)  can0  464   [8]  27 68 AF 02 8D 02 75 00
 (006.440086)  can0  422   [1]  00
 (007.007730)  can0  460   [4]  00 00 AF 0D
 (007.007950)  can0  462   [4]  00 00 AF 0D
 (007.008145)  can0  464   [8]  27 68 AF 02 8D 02 75 00
 (007.439996)  can0  422   [1]  00
 (008.007696)  can0  460   [4]  00 00 AF 0D
 (008.007919)  can0  462   [4]  00 00 AF 0D
 (008.008122)  can0  464   [8]  27 68 AF 02 8D 02 75 00
 (008.439915)  can0  422   [1]  00
 (009.011646)  can0  460   [4]  00 00 AF 0D
 (009.011864)  can0  462   [4]  00 00 AF 0D
 (009.012058)  can0  464   [8]  26 68 AF 02 8D 02 75 00
 (009.439829)  can0  422   [1]  00
 (010.015702)  can0  460   [4]  00 00 AF 0D
 (010.015920)  can0  462   [4]  00 00 AF 0D
 (010.016117)  can0  464   [8]  26 68 AF 02 8D 02 75 00
 (010.439745)  can0  422   [1]  00
 (011.023579)  can0  460   [4]  00 00 AF 0D
 (011.023798)  can0  462   [4]  00 00 AF 0D
 (011.023992)  can0  464   [8]  26 68 AF 02 8D 02 75 00
 (011.439662)  can0  422   [1]  00
 (012.025544)  can0  460   [4]  00 00 AF 0D
 (012.025762)  can0  462   [4]  00 00 AF 0D
 (012.025957)  can0  464   [8]  26 68 AF 02 8D 02 75 00
 (012.439574)  can0  422   [1]  00
 (013.027516)  can0  460   [4]  00 00 AF 0D
 (013.027751)  can0  462   [4]  00 00 AF 0D
 (013.027951)  can0  464   [8]  26 68 AF 02 8D 02 75 00
 (013.439489)  can0  422   [1]  00
 (013.929470)  can0  460   [4]  00 00 AF 0D
 (013.929681)  can0  462   [4]  00 00 AF 0D
 (013.929872)  can0  464   [8]  26 68 AF 02 8D 02 75 00
 (014.439407)  can0  422   [1]  00
 (014.931506)  can0  460   [4]  00 00 AF 0D
 (014.931780)  can0  462   [4]  00 00 AF 0D
 (014.932030)  can0  464   [8]  26 68 AF 02 8D 02 75 00
 (015.439322)  can0  422   [1]  00
 (015.933662)  can0  460   [4]  00 00 AF 0D
 (015.933881)  can0  462   [4]  00 00 AF 0D
 (015.934080)  can0  464   [8]  26 68 AF 02 8D 02 75 00
 (016.439238)  can0  422   [1]  00
 (016.933363)  can0  460   [4]  00 00 AF 0D
 (016.933579)  can0  462   [4]  00 00 AF 0D
 (016.933773)  can0  464   [8]  26 68 AF 02 8D 02 75 00
 (017.439165)  can0  422   [1]  00
 (017.933768)  can0  460   [4]  00 00 AF 0D
 (017.933984)  can0  462   [4]  00 00 AF 0D
 (017.934179)  can0  464   [8]  26 68 AF 02 8D 02 75 00
 (018.439061)  can0  422   [1]  00
 (018.936244)  can0  460   [4]  00 00 AF 0D
 (018.936464)  can0  462   [4]  00 00 AF 0D
 (018.936658)  can0  464   [8]  26 68 AF 02 8D 02 75 00
 (019.438982)  can0  422   [1]  00
 (019.937515)  can0  460   [4]  00 00 AF 0D
 (019.937734)  can0  462   [4]  00 00 AF 0D
 (019.937931)  can0  464   [8]  26 68 AF 02 8D 02 75 00
 (020.438897)  can0  422   [1]  00
 (020.938182)  can0  460   [4]  00 00 AF 0D
 (020.938402)  can0  462   [4]  00 00 AF 0D
 (020.938597)  can0  464   [8]  26 68 AF 02 8D 02 75 00
 (020.939145)  can0  468   [2]  64 00
 (021.438811)  can0  422   [1]  00
 (021.939184)  can0  460   [4]  00 00 AF 0D
 (021.939401)  can0  462   [4]  00 00 AF 0D
 (021.939596)  can0  464   [8]  26 68 AF 02 8D 02 75 00
 (022.438729)  can0  422   [1]  00
 (022.941590)  can0  460   [4]  00 00 AF 0D
 (022.941812)  can0  462   [4]  00 00 AF 0D
 (022.942012)  can0  464   [8]  26 68 AF 02 8D 02 75 00
 (023.438651)  can0  422   [1]  00
 (023.940070)  can0  460   [4]  00 00 AF 0D
 (023.940289)  can0  462   [4]  00 00 AF 0D
 (023.940482)  can0  464   [8]  26 68 AF 02 8D 02 75 00
 (024.438561)  can0  422   [1]  00
 (024.941524)  can0  460   [4]  00 00 AF 0D
 (024.941743)  can0  462   [4]  12 00 AF 0D
 (024.941937)  can0  464   [8]  26 68 AF 02 8E 02 75 00
 (025.438523)  can0  422   [1]  00
 (025.939993)  can0  460   [4]  00 00 AF 0D
 (025.940209)  can0  462   [4]  00 00 AF 0D
 (025.940402)  can0  464   [8]  26 68 AF 02 8E 02 75 00
 (026.438391)  can0  422   [1]  00
 (026.939966)  can0  460   [4]  00 00 AF 0D
 (026.940194)  can0  462   [4]  00 00 AF 0D
 (026.940409)  can0  464   [8]  26 68 AF 02 8E 02 75 00
 (026.940929)  can0  468   [2]  64 00
 (027.438304)  can0  422   [1]  00
 (027.941240)  can0  460   [4]  00 00 AF 0D
 (027.941459)  can0  462   [4]  00 00 AF 0D
 (027.941651)  can0  464   [8]  26 68 AF 02 8D 02 75 00
 (028.438217)  can0  422   [1]  00
 (028.942938)  can0  460   [4]  00 00 AF 0D
 (028.943158)  can0  462   [4]  00 00 AF 0D
 (028.943353)  can0  464   [8]  26 68 AF 02 8D 02 75 00
 (029.438140)  can0  422   [1]  00
 (029.946895)  can0  460   [4]  00 00 AF 0D
 (029.947108)  can0  462   [4]  00 00 AF 0D
 (029.947305)  can0  464   [8]  26 68 AF 02 8D 02 75 00
 (030.438115)  can0  422   [1]  00
 (030.948945)  can0  460   [4]  00 00 AF 0D
 (030.949185)  can0  462   [4]  00 00 AF 0D
 (030.949403)  can0  464   [8]  26 68 AF 02 8D 02 75 00
 (031.437971)  can0  422   [1]  00
 (031.950830)  can0  460   [4]  00 00 AF 0D
 (031.951066)  can0  462   [4]  00 00 AF 0D
 (031.951270)  can0  464   [8]  26 68 AF 02 8D 02 75 00
 (032.437888)  can0  422   [1]  00
 (032.956803)  can0  460   [4]  00 00 AF 0D
 (032.957037)  can0  462   [4]  00 00 AF 0D
 (032.957246)  can0  464   [8]  26 68 AF 02 8D 02 75 00
 (033.437812)  can0  422   [1]  00
 (033.958816)  can0  460   [4]  00 00 AF 0D
 (033.959083)  can0  462   [4]  00 00 AF 0D
 (033.959321)  can0  464   [8]  26 68 AF 02 8D 02 75 00
 (034.437716)  can0  422   [1]  00
 (034.960733)  can0  460   [4]  00 00 AF 0D
 (034.960965)  can0  462   [4]  00 00 AF 0D
 (034.961167)  can0  464   [8]  26 68 AF 02 8D 02 75 00
 (035.437697)  can0  422   [1]  00
 (035.962691)  can0  460   [4]  00 00 AF 0D
 (035.962914)  can0  462   [4]  00 00 AF 0D
 (035.963114)  can0  464   [8]  26 68 AF 02 8D 02 75 00
 (036.437616)  can0  422   [1]  00
 (036.966736)  can0  460   [4]  00 00 B0 0D
 (036.967025)  can0  462   [4]  25 00 B0 0D
 (036.967268)  can0  464   [8]  22 68 AF 02 93 02 75 00
 (037.437519)  can0  422   [1]  00
 (037.970719)  can0  460   [4]  00 00 B0 0D
 (037.970944)  can0  462   [4]  12 00 B0 0D
 (037.971142)  can0  464   [8]  20 68 AF 02 96 02 75 00
 (038.437458)  can0  422   [1]  00
 (038.980593)  can0  460   [4]  00 00 B0 0D
 (038.980828)  can0  462   [4]  00 00 B0 0D
 (038.981027)  can0  464   [8]  1F 68 AF 02 97 02 75 00
 (039.437306)  can0  422   [1]  00
 (039.984558)  can0  460   [4]  00 00 B0 0D
 (039.984779)  can0  462   [4]  00 00 B0 0D
 (039.984981)  can0  464   [8]  1F 68 AF 02 97 02 75 00
 (040.437217)  can0  422   [1]  00
 (040.986529)  can0  460   [4]  00 00 B0 0D
 (040.986757)  can0  462   [4]  00 00 B0 0D
 (040.986962)  can0  464   [8]  1F 68 AF 02 97 02 75 00
 (041.437126)  can0  422   [1]  00
 (041.992542)  can0  460   [4]  00 00 B0 0D
 (041.992813)  can0  462   [4]  00 00 B0 0D
 (041.993048)  can0  464   [8]  1E 68 AF 02 97 02 75 00
 (042.437111)  can0  422   [1]  00
 (042.992455)  can0  460   [4]  00 00 B0 0D
 (042.992673)  can0  462   [4]  00 00 B0 0D
 (042.992867)  can0  464   [8]  1E 68 AF 02 98 02 75 00
 (043.436959)  can0  422   [1]  00
 (043.994413)  can0  460   [4]  00 00 B0 0D
 (043.994628)  can0  462   [4]  00 00 B0 0D
 (043.994824)  can0  464   [8]  1E 68 AF 02 98 02 75 00
 (044.436875)  can0  422   [1]  00
 (044.994375)  can0  460   [4]  00 00 B0 0D
 (044.994593)  can0  462   [4]  00 00 B0 0D
 (044.994789)  can0  464   [8]  1E 68 AF 02 98 02 75 00
 (045.436788)  can0  422   [1]  00
 (046.000331)  can0  460   [4]  00 00 B0 0D
 (046.000544)  can0  462   [4]  00 00 B0 0D
 (046.000742)  can0  464   [8]  1E 68 AF 02 98 02 75 00
 (046.436696)  can0  422   [1]  00
 (047.004298)  can0  460   [4]  00 00 B0 0D
 (047.004518)  can0  462   [4]  00 00 B0 0D
 (047.004719)  can0  464   [8]  1E 68 AF 02 98 02 75 00
 (047.436618)  can0  422   [1]  00
 (048.008260)  can0  460   [4]  00 00 B0 0D
 (048.008476)  can0  462   [4]  00 00 B0 0D
 (048.008676)  can0  464   [8]  1E 68 AF 02 98 02 75 00
 (048.436530)  can0  422   [1]  00
 (049.012224)  can0  460   [4]  00 00 B0 0D
 (049.012440)  can0  462   [4]  00 00 B0 0D
 (049.012641)  can0  464   [8]  1E 68 AF 02 98 02 75 00
 (049.436448)  can0  422   [1]  00
 (050.014184)  can0  460   [4]  00 00 B0 0D
 (050.014400)  can0  462   [4]  00 00 B0 0D
 (050.014599)  can0  464   [8]  1E 68 AF 02 98 02 75 00
 (050.436373)  can0  422   [1]  00
 (051.018159)  can0  460   [4]  00 00 B0 0D
 (051.018379)  can0  462   [4]  00 00 B0 0D
 (051.018579)  can0  464   [8]  1E 68 AF 02 98 02 75 00
 (051.436277)  can0  422   [1]  00
 (052.022197)  can0  460   [4]  00 00 B0 0D
 (052.022466)  can0  462   [4]  00 00 B0 0D
 (052.022706)  can0  464   [8]  1E 68 AF 02 98 02 75 00
 (052.436198)  can0  422   [1]  00
 (053.024084)  can0  460   [4]  00 00 B0 0D
 (053.024307)  can0  462   [4]  00 00 B0 0D
 (053.024518)  can0  464   [8]  1E 68 AF 02 98 02 75 00
 (053.436111)  can0  422   [1]  00
 (053.928497)  can0  460   [4]  00 00 B0 0D
 (053.928715)  can0  462   [4]  00 00 B0 0D
 (053.928920)  can0  464   [8]  1E 68 AF 02 98 02 75 00
 (054.436027)  can0  422   [1]  00
 (054.934022)  can0  460   [4]  00 00 B0 0D
 (054.934244)  can0  462   [4]  00 00 B0 0D
 (054.934449)  can0  464   [8]  1E 68 AF 02 98 02 75 00
 (055.435947)  can0  422   [1]  00
 (055.938050)  can0  460   [4]  00 00 B0 0D
 (055.938337)  can0  462   [4]  00 00 B0 0D
 (055.938593)  can0  464   [8]  1E 68 AF 02 98 02 75 00
 (056.435857)  can0  422   [1]  00
 (056.939943)  can0  460   [4]  00 00 B0 0D
 (056.940158)  can0  462   [4]  00 00 B0 0D
 (056.940356)  can0  464   [8]  1E 68 AF 02 98 02 75 00
 (057.435772)  can0  422   [1]  00
 (057.940349)  can0  460   [4]  00 00 B0 0D
 (057.940565)  can0  462   [4]  00 00 B0 0D
 (057.940765)  can0  464   [8]  1E 68 AF 02 98 02 75 00
 (058.435690)  can0  422   [1]  00
 (058.945875)  can0  460   [4]  00 00 B0 0D
 (058.946093)  can0  462   [4]  00 00 B0 0D
 (058.946295)  can0  464   [8]  1E 68 AF 02 98 02 75 00
 (059.435607)  can0  422   [1]  00
 (059.947844)  can0  460   [4]  00 00 B0 0D
 (059.948066)  can0  462   [4]  00 00 B0 0D
 (059.948270)  can0  464   [8]  1E 68 AF 02 98 02 75 00
 (060.435522)  can0  422   [1]  00
 (060.949806)  can0  460   [4]  00 00 B0 0D
 (060.950023)  can0  462   [4]  00 00 B0 0D
 (060.950220)  can0  464   [8]  1E 68 AF 02 98 02 75 00
 (061.435435)  can0  422   [1]  00
 (061.953773)  can0  460   [4]  00 00 B0 0D
 (061.953991)  can0  462   [4]  00 00 B0 0D
 (061.954193)  can0  464   [8]  1E 68 AF 02 98 02 75 00
 (062.435351)  can0  422   [1]  00
 (062.953737)  can0  460   [4]  00 00 B0 0D
 (062.953950)  can0  462   [4]  00 00 B0 0D
 (062.954146)  can0  464   [8]  1E 68 AF 02 98 02 75 00
 (063.435272)  can0  422   [1]  00
 (063.955698)  can0  460   [4]  00 00 B0 0D
 (063.955911)  can0  462   [4]  00 00 B0 0D
 (063.956106)  can0  464   [8]  1E 68 AF 02 98 02 75 00
 (064.435184)  can0  422   [1]  00
 (064.961659)  can0  460   [4]  00 00 B0 0D
 (064.961874)  can0  462   [4]  00 00 B0 0D
 (064.962076)  can0  464   [8]  1E 68 AF 02 98 02 75 00
 (065.435098)  can0  422   [1]  00
 (065.963629)  can0  460   [4]  00 00 B0 0D
 (065.963840)  can0  462   [4]  00 00 B0 0D
 (065.964037)  can0  464   [8]  1E 68 AF 02 98 02 75 00
 (066.435014)  can0  422   [1]  00
 (066.967594)  can0  460   [4]  00 00 B0 0D
 (066.967806)  can0  462   [4]  00 00 B0 0D
 (066.968002)  can0  464   [8]  1E 68 AF 02 98 02 75 00
 (067.434986)  can0  422   [1]  00
 (067.973557)  can0  460   [4]  00 00 B0 0D
 (067.973773)  can0  462   [4]  00 00 B0 0D
 (067.973969)  can0  464   [8]  1E 68 AF 02 98 02 75 00
 (068.434844)  can0  422   [1]  00
 (068.975528)  can0  460   [4]  00 00 B0 0D
 (068.975746)  can0  462   [4]  00 00 B0 0D
 (068.975940)  can0  464   [8]  1E 68 AF 02 98 02 75 00
 (069.434768)  can0  422   [1]  00
 (069.979493)  can0  460   [4]  00 00 B0 0D
 (069.979711)  can0  462   [4]  00 00 B0 0D
 (069.979905)  can0  464   [8]  1E 68 AF 02 98 02 75 00
 (070.434677)  can0  422   [1]  00
 (070.985461)  can0  460   [4]  00 00 B0 0D
 (070.985677)  can0  462   [4]  00 00 B0 0D
 (070.985874)  can0  464   [8]  1E 68 AF 02 98 02 75 00
 (071.434598)  can0  422   [1]  00
 (071.987478)  can0  460   [4]  00 00 B0 0D
 (071.987745)  can0  462   [4]  00 00 B0 0D
 (071.987985)  can0  464   [8]  1E 68 AF 02 98 02 75 00
 (072.434506)  can0  422   [1]  00
 (072.989379)  can0  460   [4]  00 00 B0 0D
 (072.989593)  can0  462   [4]  00 00 B0 0D
 (072.989792)  can0  464   [8]  1E 68 AF 02 98 02 75 00
 (073.434425)  can0  422   [1]  00
 (073.991349)  can0  460   [4]  00 00 B0 0D
 (073.991576)  can0  462   [4]  00 00 B0 0D
 (073.991788)  can0  464   [8]  1E 68 AF 02 98 02 75 00
 (074.434340)  can0  422   [1]  00
 (074.995341)  can0  460   [4]  00 00 B0 0D
 (074.995559)  can0  462   [4]  00 00 B0 0D
 (074.995758)  can0  464   [8]  1E 68 AF 02 98 02 75 00
 (075.434382)  can0  422   [1]  00
 (075.997521)  can0  460   [4]  00 00 B0 0D
 (075.997738)  can0  462   [4]  00 00 B0 0D
 (075.997940)  can0  464   [8]  1E 68 AF 02 98 02 75 00
 (076.434506)  can0  422   [1]  00
 (076.999699)  can0  460   [4]  00 00 B1 0D
 (076.999915)  can0  462   [4]  00 00 B1 0D
 (077.000116)  can0  464   [8]  1E 68 AF 02 98 02 75 00
 (077.434637)  can0  422   [1]  00
 (077.999875)  can0  460   [4]  00 00 B1 0D
 (078.000095)  can0  462   [4]  00 00 B1 0D
 (078.000296)  can0  464   [8]  1E 68 AF 02 98 02 75 00
 (078.434762)  can0  422   [1]  00
 (079.006050)  can0  460   [4]  00 00 B1 0D
 (079.006266)  can0  462   [4]  00 00 B1 0D
 (079.006466)  can0  464   [8]  1E 68 AF 02 98 02 75 00
 (079.434890)  can0  422   [1]  00
 (080.010223)  can0  460   [4]  00 00 B1 0D
 (080.010440)  can0  462   [4]  00 00 B1 0D
 (080.010641)  can0  464   [8]  1E 68 AF 02 99 02 75 00
 (080.435013)  can0  422   [1]  00
 (081.018397)  can0  460   [4]  00 00 B1 0D
 (081.018615)  can0  462   [4]  00 00 B1 0D
 (081.018814)  can0  464   [8]  1E 68 AF 02 99 02 75 00
 (081.435137)  can0  422   [1]  00
 (081.927050)  can0  460   [4]  00 00 B1 0D
 (081.927318)  can0  462   [4]  00 00 B1 0D
 (081.927559)  can0  464   [8]  1E 68 AF 02 99 02 75 00
 (082.435260)  can0  422   [1]  00
 (082.930727)  can0  460   [4]  00 00 B1 0D
 (082.930943)  can0  462   [4]  00 00 B1 0D
 (082.931144)  can0  464   [8]  1E 68 AF 02 99 02 75 00
 (083.435387)  can0  422   [1]  00
 (083.937337)  can0  460   [4]  00 00 B1 0D
 (083.937554)  can0  462   [4]  00 00 B1 0D
 (083.937753)  can0  464   [8]  1E 68 AF 02 99 02 75 00
 (084.435505)  can0  422   [1]  00
 (084.938032)  can0  460   [4]  00 00 B1 0D
 (084.938247)  can0  462   [4]  00 00 B1 0D
 (084.938443)  can0  464   [8]  1E 68 AF 02 99 02 75 00
 (084.939000)  can0  468   [2]  64 00
 (085.435629)  can0  422   [1]  00
 (085.941501)  can0  460   [4]  00 00 B1 0D
 (085.941716)  can0  462   [4]  00 00 B1 0D
 (085.941912)  can0  464   [8]  1E 68 AF 02 99 02 75 00
 (086.435747)  can0  422   [1]  00
 (086.945407)  can0  460   [4]  00 00 B1 0D
 (086.945623)  can0  462   [4]  00 00 B1 0D
 (086.945819)  can0  464   [8]  1E 68 AF 02 99 02 75 00
 (087.435865)  can0  422   [1]  00
 (087.952595)  can0  460   [4]  00 00 B1 0D
 (087.952864)  can0  462   [4]  00 00 B1 0D
 (087.953103)  can0  464   [8]  1E 68 AF 02 99 02 75 00
 (088.435990)  can0  422   [1]  00
 (088.944706)  can0  460   [4]  00 00 B1 0D
 (088.944924)  can0  462   [4]  00 00 B1 0D
 (088.945134)  can0  464   [8]  1E 68 AF 02 99 02 75 00
 (088.945672)  can0  468   [2]  64 00
 (089.436106)  can0  422   [1]  00
 (089.952873)  can0  460   [4]  00 00 B1 0D
 (089.953090)  can0  462   [4]  00 00 B1 0D
 (089.953291)  can0  464   [8]  1E 68 AF 02 99 02 75 00
 (090.436226)  can0  422   [1]  00
 (090.957039)  can0  460   [4]  00 00 B1 0D
 (090.957260)  can0  462   [4]  00 00 B1 0D
 (090.957462)  can0  464   [8]  1E 68 AF 02 99 02 75 00
 (090.958007)  can0  468   [2]  64 00
 (091.436339)  can0  422   [1]  00
 (091.962247)  can0  460   [4]  00 00 B1 0D
 (091.962460)  can0  462   [4]  00 00 B1 0D
 (091.962655)  can0  464   [8]  1E 68 AF 02 99 02 75 00
 (092.436456)  can0  422   [1]  00
 (092.965369)  can0  460   [4]  00 00 B1 0D
 (092.965580)  can0  462   [4]  00 00 B1 0D
 (092.965776)  can0  464   [8]  1E 68 AF 02 99 02 75 00
 (092.966340)  can0  468   [2]  64 00
 (093.436571)  can0  422   [1]  00
 (093.967541)  can0  460   [4]  00 00 B1 0D
 (093.967752)  can0  462   [4]  00 00 B1 0D
 (093.967946)  can0  464   [8]  1E 68 AF 02 99 02 75 00
 (093.968506)  can0  468   [2]  64 00
 (094.436688)  can0  422   [1]  00
 (094.971707)  can0  460   [4]  00 00 B1 0D
 (094.971919)  can0  462   [4]  00 00 B1 0D
 (094.972114)  can0  464   [8]  1E 68 AF 02 99 02 75 00
 (094.972679)  can0  468   [2]  64 00
 (095.436804)  can0  422   [1]  00
 (095.977879)  can0  460   [4]  00 00 B1 0D
 (095.978094)  can0  462   [4]  00 00 B1 0D
 (095.978289)  can0  464   [8]  1E 68 AF 02 99 02 75 00
 (095.978840)  can0  468   [2]  64 00
 (096.436966)  can0  422   [1]  00
 (096.979076)  can0  460   [4]  00 00 B1 0D
 (096.979290)  can0  462   [4]  00 00 B1 0D
 (096.979485)  can0  464   [8]  1E 68 AF 02 99 02 75 00
 (097.437030)  can0  422   [1]  00
 (097.980200)  can0  460   [4]  00 00 B1 0D
 (097.980413)  can0  462   [4]  00 00 B1 0D
 (097.980609)  can0  464   [8]  1E 68 AF 02 99 02 75 00
 (097.981155)  can0  468   [2]  64 00
 (098.437139)  can0  422   [1]  00
 (098.987400)  can0  460   [4]  00 00 B1 0D
 (098.987615)  can0  462   [4]  00 00 B1 0D
 (098.987814)  can0  464   [8]  1E 68 AF 02 99 02 75 00
 (099.437253)  can0  422   [1]  00
 (099.991554)  can0  460   [4]  00 00 B1 0D
 (099.991772)  can0  462   [4]  00 00 B1 0D
 (099.991975)  can0  464   [8]  1E 68 AF 02 99 02 75 00
 (100.437358)  can0  422   [1]  00
 (100.991714)  can0  460   [4]  00 00 B1 0D
 (100.991932)  can0  462   [4]  00 00 B1 0D
 (100.992135)  can0  464   [8]  1E 68 AF 02 99 02 75 00
 (101.437471)  can0  422   [1]  00
 (101.997872)  can0  460   [4]  00 00 B1 0D
 (101.998090)  can0  462   [4]  00 00 B1 0D
 (101.998289)  can0  464   [8]  1E 68 AF 02 99 02 75 00
 (102.437587)  can0  422   [1]  00
 (103.002029)  can0  460   [4]  00 00 B1 0D
 (103.002247)  can0  462   [4]  00 00 B1 0D
 (103.002444)  can0  464   [8]  1E 68 AF 02 99 02 75 00
 (103.437695)  can0  422   [1]  00
 (104.003149)  can0  460   [4]  00 00 B1 0D
 (104.003367)  can0  462   [4]  00 00 B1 0D
 (104.003568)  can0  464   [8]  1E 68 AF 02 99 02 75 00
 (104.004121)  can0  468   [2]  64 00
 (104.437801)  can0  422   [1]  00
 (105.002350)  can0  460   [4]  00 00 B1 0D
 (105.002566)  can0  462   [4]  00 00 B1 0D
 (105.002761)  can0  464   [8]  1E 68 AF 02 99 02 75 00
 (105.437903)  can0  422   [1]  00
 (106.003468)  can0  460   [4]  00 00 B1 0D
 (106.003692)  can0  462   [4]  00 00 B1 0D
 (106.003894)  can0  464   [8]  1E 68 AF 02 99 02 75 00
 (106.004435)  can0  468   [2]  64 00
 (106.438013)  can0  422   [1]  00
 (107.002654)  can0  460   [4]  00 00 B1 0D
 (107.002874)  can0  462   [4]  00 00 B1 0D
 (107.003075)  can0  464   [8]  1E 68 AF 02 99 02 75 00
 (107.438114)  can0  422   [1]  00
 (108.003772)  can0  460   [4]  00 00 B1 0D
 (108.003985)  can0  462   [4]  00 00 B1 0D
 (108.004180)  can0  464   [8]  1E 68 AF 02 99 02 75 00
 (108.004738)  can0  468   [2]  64 00
 (108.438224)  can0  422   [1]  00
 (109.004966)  can0  460   [4]  00 00 B1 0D
 (109.005179)  can0  462   [4]  00 00 B1 0D
 (109.005374)  can0  464   [8]  1E 68 AF 02 99 02 75 00
 (109.438333)  can0  422   [1]  00
 (110.005182)  can0  460   [4]  00 00 B1 0D
 (110.005442)  can0  462   [4]  00 00 B1 0D
 (110.005676)  can0  464   [8]  1E 68 AF 02 99 02 75 00
 (110.438434)  can0  422   [1]  00
 (111.003275)  can0  460   [4]  00 00 B1 0D
 (111.003488)  can0  462   [4]  00 00 B1 0D
 (111.003685)  can0  464   [8]  1E 68 AF 02 99 02 75 00
 (111.438540)  can0  422   [1]  00
 (112.005426)  can0  460   [4]  00 00 B1 0D
 (112.005646)  can0  462   [4]  00 00 B1 0D
 (112.005845)  can0  464   [8]  1E 68 AF 02 99 02 75 00
 (112.438643)  can0  422   [1]  00
 (113.004533)  can0  460   [4]  00 00 B1 0D
 (113.004750)  can0  462   [4]  00 00 B1 0D
 (113.004952)  can0  464   [8]  1E 68 AF 02 99 02 75 00
 (113.438742)  can0  422   [1]  00
 (114.007790)  can0  460   [4]  00 00 B1 0D
 (114.008069)  can0  462   [4]  00 00 B1 0D
 (114.008310)  can0  464   [8]  1E 68 AF 02 99 02 75 00
 (114.438844)  can0  422   [1]  00
 (115.009953)  can0  460   [4]  00 00 B1 0D
 (115.010223)  can0  462   [4]  00 00 B1 0D
 (115.010462)  can0  464   [8]  1E 68 AF 02 99 02 75 00
 (115.438950)  can0  422   [1]  00
 (116.014146)  can0  460   [4]  00 00 B1 0D
 (116.014361)  can0  462   [4]  00 00 B1 0D
 (116.014558)  can0  464   [8]  1E 68 AF 02 99 02 75 00
 (116.439052)  can0  422   [1]  00
 (117.020178)  can0  460   [4]  00 00 B1 0D
 (117.020396)  can0  462   [4]  00 00 B1 0D
 (117.020595)  can0  464   [8]  1E 68 AF 02 9A 02 75 00
 (117.439148)  can0  422   [1]  00
 (118.022332)  can0  460   [4]  00 00 B1 0D
 (118.022549)  can0  462   [4]  00 00 B1 0D
 (118.022750)  can0  464   [8]  1E 68 AF 02 9A 02 75 00
 (118.439249)  can0  422   [1]  00
 (119.028476)  can0  460   [4]  00 00 B1 0D
 (119.028690)  can0  462   [4]  00 00 B1 0D
 (119.028888)  can0  464   [8]  1E 68 AF 02 9B 02 75 00
 (119.439346)  can0  422   [1]  00
 (120.028626)  can0  460   [4]  00 00 B1 0D
 (120.028846)  can0  462   [4]  00 00 B1 0D
 (120.029053)  can0  464   [8]  1E 68 AF 02 9B 02 75 00
 (120.439444)  can0  422   [1]  00
 (121.028772)  can0  460   [4]  00 00 B1 0D
 (121.028989)  can0  462   [4]  00 00 B1 0D
 (121.029190)  can0  464   [8]  1E 68 AF 02 9B 02 75 00
 (121.439540)  can0  422   [1]  00
 (122.028921)  can0  460   [4]  00 00 B1 0D
 (122.029134)  can0  462   [4]  00 00 B1 0D
 (122.029329)  can0  464   [8]  1E 68 AF 02 9B 02 75 00
 (122.439642)  can0  422   [1]  00
 (122.931489)  can0  460   [4]  00 00 B1 0D
 (122.931705)  can0  462   [4]  00 00 B1 0D
 (122.931902)  can0  464   [8]  1E 68 AF 02 9B 02 75 00
 (123.439739)  can0  422   [1]  00
 (123.935195)  can0  460   [4]  00 00 B1 0D
 (123.935412)  can0  462   [4]  00 00 B1 0D
 (123.935609)  can0  464   [8]  1E 68 AF 02 9B 02 75 00
 (124.439828)  can0  422   [1]  00
 (125.039356)  can0  460   [4]  00 00 B1 0D
 (125.039578)  can0  462   [4]  00 00 B1 0D
 (125.039782)  can0  464   [8]  1E 68 AF 02 9B 02 75 00
 (125.439927)  can0  422   [1]  00
 (125.939921)  can0  460   [4]  00 00 B1 0D
 (125.940133)  can0  462   [4]  00 00 B1 0D
 (125.940327)  can0  464   [8]  1E 68 AF 02 9B 02 75 00
 (126.440020)  can0  422   [1]  00
 (126.943624)  can0  460   [4]  00 00 B1 0D
 (126.943835)  can0  462   [4]  00 00 B1 0D
 (126.944030)  can0  464   [8]  1E 68 AF 02 9B 02 75 00
 (127.440114)  can0  422   [1]  00
 (127.948210)  can0  460   [4]  00 00 B1 0D
 (127.948422)  can0  462   [4]  00 00 B1 0D
 (127.948616)  can0  464   [8]  1E 68 AF 02 9B 02 75 00
 (128.440208)  can0  422   [1]  00
 (128.953909)  can0  460   [4]  00 00 B1 0D
 (128.954129)  can0  462   [4]  00 00 B1 0D
 (128.954324)  can0  464   [8]  1E 68 AF 02 9B 02 75 00
 (129.440302)  can0  422   [1]  00
 (129.958053)  can0  460   [4]  00 00 B1 0D
 (129.958268)  can0  462   [4]  00 00 B1 0D
 (129.958460)  can0  464   [8]  1E 68 AF 02 9B 02 75 00
 (130.440392)  can0  422   [1]  00
 (130.958196)  can0  460   [4]  00 00 B1 0D
 (130.958405)  can0  462   [4]  00 00 B1 0D
 (130.958601)  can0  464   [8]  1E 68 AF 02 9B 02 75 00
 (131.440483)  can0  422   [1]  00
 (131.962333)  can0  460   [4]  00 00 B1 0D
 (131.962543)  can0  462   [4]  00 00 B1 0D
 (131.962736)  can0  464   [8]  1E 68 AF 02 9B 02 75 00
 (132.440573)  can0  422   [1]  00
 (132.964473)  can0  460   [4]  00 00 B1 0D
 (132.964685)  can0  462   [4]  00 00 B1 0D
 (132.964879)  can0  464   [8]  1E 68 AF 02 9B 02 75 00
 (133.440663)  can0  422   [1]  00
 (133.968614)  can0  460   [4]  00 00 B1 0D
 (133.968822)  can0  462   [4]  00 00 B1 0D
 (133.969017)  can0  464   [8]  1E 68 AF 02 9B 02 75 00
 (134.440753)  can0  422   [1]  00
 (134.972777)  can0  460   [4]  00 00 B1 0D
 (134.972990)  can0  462   [4]  00 00 B1 0D
 (134.973185)  can0  464   [8]  1E 68 AF 02 9B 02 75 00
 (135.440851)  can0  422   [1]  00
 (135.974899)  can0  460   [4]  00 00 B1 0D
 (135.975114)  can0  462   [4]  00 00 B1 0D
 (135.975308)  can0  464   [8]  1E 68 AF 02 9B 02 75 00
 (136.440932)  can0  422   [1]  00
 (136.977037)  can0  460   [4]  00 00 B1 0D
 (136.977249)  can0  462   [4]  00 00 B1 0D
 (136.977440)  can0  464   [8]  1E 68 AF 02 9B 02 75 00
 (137.441022)  can0  422   [1]  00
 (137.981184)  can0  460   [4]  00 00 B1 0D
 (137.981405)  can0  462   [4]  00 00 B1 0D
 (137.981599)  can0  464   [8]  1E 68 AF 02 9B 02 75 00
 (138.441109)  can0  422   [1]  00
 (138.979313)  can0  460   [4]  00 00 B1 0D
 (138.979532)  can0  462   [4]  00 00 B1 0D
 (138.979730)  can0  464   [8]  1E 68 AF 02 9B 02 75 00
 (139.441194)  can0  422   [1]  00
 (139.981446)  can0  460   [4]  00 00 B1 0D
 (139.981658)  can0  462   [4]  00 00 B1 0D
 (139.981852)  can0  464   [8]  1E 68 AF 02 9B 02 75 00
 (140.441283)  can0  422   [1]  00
 (140.985641)  can0  460   [4]  00 00 B1 0D
 (140.985908)  can0  462   [4]  00 00 B1 0D
 (140.986190)  can0  464   [8]  1E 68 AF 02 9B 02 75 00
 (141.441365)  can0  422   [1]  00
 (141.987780)  can0  460   [4]  00 00 B1 0D
 (141.988054)  can0  462   [4]  00 00 B1 0D
 (141.988300)  can0  464   [8]  1E 68 AF 02 9B 02 75 00
 (142.441458)  can0  422   [1]  00
 (142.993846)  can0  460   [4]  00 00 B1 0D
 (142.994069)  can0  462   [4]  00 00 B1 0D
 (142.994267)  can0  464   [8]  1E 68 AF 02 9B 02 75 00
 (143.441535)  can0  422   [1]  00
 (143.995980)  can0  460   [4]  00 00 B1 0D
 (143.996197)  can0  462   [4]  00 00 B1 0D
 (143.996393)  can0  464   [8]  1E 68 AF 02 9B 02 75 00
 (144.441621)  can0  422   [1]  00
 (144.998111)  can0  460   [4]  00 00 B1 0D
 (144.998326)  can0  462   [4]  00 00 B1 0D
 (144.998522)  can0  464   [8]  1E 68 AF 02 9B 02 75 00
 (145.441710)  can0  422   [1]  00
 (145.998242)  can0  460   [4]  00 00 B1 0D
 (145.998461)  can0  462   [4]  00 00 B1 0D
 (145.998664)  can0  464   [8]  1E 68 AF 02 9B 02 75 00
 (146.441785)  can0  422   [1]  00
 (146.998379)  can0  460   [4]  00 00 B1 0D
 (146.998593)  can0  462   [4]  00 00 B1 0D
 (146.998790)  can0  464   [8]  1E 68 AF 02 9B 02 75 00
 (147.441874)  can0  422   [1]  00
 (148.000514)  can0  460   [4]  00 00 B1 0D
 (148.000730)  can0  462   [4]  00 00 B1 0D
 (148.000926)  can0  464   [8]  1E 68 AF 02 9B 02 75 00
 (148.441953)  can0  422   [1]  00
 (149.002640)  can0  460   [4]  00 00 B1 0D
 (149.002862)  can0  462   [4]  00 00 B1 0D
 (149.003063)  can0  464   [8]  1E 68 AF 02 9B 02 75 00
 (149.442038)  can0  422   [1]  00
 (150.006772)  can0  460   [4]  00 00 B1 0D
 (150.006984)  can0  462   [4]  00 00 B1 0D
 (150.007182)  can0  464   [8]  1E 68 AF 02 9B 02 75 00
 (150.442116)  can0  422   [1]  00
 (151.004902)  can0  460   [4]  00 00 B1 0D
 (151.005114)  can0  462   [4]  00 00 B1 0D
 (151.005310)  can0  464   [8]  1E 68 AF 02 9B 02 75 00
 (151.442195)  can0  422   [1]  00
 (152.005026)  can0  460   [4]  00 00 B1 0D
 (152.005243)  can0  462   [4]  00 00 B1 0D
 (152.005444)  can0  464   [8]  1E 68 AF 02 9B 02 75 00
 (152.442278)  can0  422   [1]  00
 (153.009159)  can0  460   [4]  00 00 B1 0D
 (153.009377)  can0  462   [4]  00 00 B1 0D
 (153.009577)  can0  464   [8]  1E 68 AF 02 9B 02 75 00
 (153.442355)  can0  422   [1]  00
 (154.015282)  can0  460   [4]  00 00 B1 0D
 (154.015498)  can0  462   [4]  00 00 B1 0D
 (154.015698)  can0  464   [8]  1E 68 AF 02 9B 02 75 00
 (154.442434)  can0  422   [1]  00
 (155.017406)  can0  460   [4]  00 00 B1 0D
 (155.017618)  can0  462   [4]  00 00 B1 0D
 (155.017817)  can0  464   [8]  1E 68 AF 02 9B 02 75 00
 (155.442538)  can0  422   [1]  00
 (156.019550)  can0  460   [4]  00 00 B1 0D
 (156.019781)  can0  462   [4]  00 00 B1 0D
 (156.019984)  can0  464   [8]  1E 68 AF 02 9B 02 75 00
 (156.442603)  can0  422   [1]  00
 (157.017667)  can0  460   [4]  00 00 B1 0D
 (157.017901)  can0  462   [4]  00 00 B1 0D
 (157.018116)  can0  464   [8]  1E 68 AF 02 9B 02 75 00
 (157.442667)  can0  422   [1]  00
 (158.019801)  can0  460   [4]  00 00 B1 0D
 (158.020028)  can0  462   [4]  00 00 B1 0D
 (158.020241)  can0  464   [8]  1E 68 AF 02 9B 02 75 00
 (158.442802)  can0  422   [1]  00
 (159.020019)  can0  460   [4]  00 00 B1 0D
 (159.020251)  can0  462   [4]  00 00 B1 0D
 (159.020461)  can0  464   [8]  1E 68 AF 02 9B 02 75 00
 (159.442826)  can0  422   [1]  00
 (160.020049)  can0  460   [4]  00 00 B1 0D
 (160.020279)  can0  462   [4]  00 00 B1 0D
 (160.020482)  can0  464   [8]  1E 68 AF 02 9B 02 75 00
 (160.442899)  can0  422   [1]  00
 (161.022172)  can0  460   [4]  00 00 B1 0D
 (161.022407)  can0  462   [4]  00 00 B1 0D
 (161.022616)  can0  464   [8]  1E 68 AF 02 9B 02 75 00
 (161.443034)  can0  422   [1]  00
 (162.024292)  can0  460   [4]  00 00 B1 0D
 (162.024520)  can0  462   [4]  00 00 B1 0D
 (162.024719)  can0  464   [8]  1E 68 AF 02 9B 02 75 00
 (162.443109)  can0  422   [1]  00
 (163.024419)  can0  460   [4]  00 00 B1 0D
 (163.024653)  can0  462   [4]  00 00 B1 0D
 (163.024869)  can0  464   [8]  1E 68 AF 02 9B 02 75 00
 (163.443123)  can0  422   [1]  00
 (164.022540)  can0  460   [4]  00 00 B1 0D
 (164.022767)  can0  462   [4]  00 00 B1 0D
 (164.022974)  can0  464   [8]  1E 68 AF 02 9B 02 75 00
 (164.443207)  can0  422   [1]  00
 (165.026662)  can0  460   [4]  00 00 B1 0D
 (165.026890)  can0  462   [4]  00 00 B1 0D
 (165.027096)  can0  464   [8]  1E 68 AF 02 9B 02 75 00
 (165.443326)  can0  422   [1]  00
 (166.030782)  can0  460   [4]  00 00 B1 0D
 (166.031015)  can0  462   [4]  00 00 B1 0D
 (166.031223)  can0  464   [8]  1E 68 AF 02 9B 02 75 00
 (166.443402)  can0  422   [1]  00
 (167.034903)  can0  460   [4]  00 00 B1 0D
 (167.035122)  can0  462   [4]  00 00 B1 0D
 (167.035325)  can0  464   [8]  1E 68 AF 02 9B 02 75 00
 (167.443404)  can0  422   [1]  00
 (168.035020)  can0  460   [4]  00 00 B1 0D
 (168.035242)  can0  462   [4]  00 00 B1 0D
 (168.035444)  can0  464   [8]  1E 68 AF 02 9B 02 75 00
 (168.443473)  can0  422   [1]  00
 (169.033139)  can0  460   [4]  00 00 B1 0D
 (169.033358)  can0  462   [4]  00 00 B1 0D
 (169.033558)  can0  464   [8]  1E 68 AF 02 9B 02 75 00
 (169.443545)  can0  422   [1]  00
 (170.037322)  can0  460   [4]  00 00 B1 0D
 (170.037592)  can0  462   [4]  00 00 B1 0D
 (170.037830)  can0  464   [8]  1E 68 AF 02 9B 02 75 00
 (170.443616)  can0  422   [1]  00
 (170.939805)  can0  460   [4]  00 00 B1 0D
 (170.940018)  can0  462   [4]  00 00 B1 0D
 (170.940218)  can0  464   [8]  1E 68 AF 02 9B 02 75 00
 (171.443684)  can0  422   [1]  00
 (171.941936)  can0  460   [4]  00 00 B1 0D
 (171.942166)  can0  462   [4]  00 00 B1 0D
 (171.942378)  can0  464   [8]  1E 68 AF 02 9B 02 75 00
 (172.443813)  can0  422   [1]  00
 (172.946040)  can0  460   [4]  00 00 B1 0D
 (172.946267)  can0  462   [4]  00 00 B1 0D
 (172.946475)  can0  464   [8]  1E 68 AF 02 9B 02 75 00
 (173.443828)  can0  422   [1]  00
 (173.952159)  can0  460   [4]  00 00 B1 0D
 (173.952379)  can0  462   [4]  00 00 B1 0D
 (173.952587)  can0  464   [8]  1E 68 AF 02 9B 02 75 00
 (174.443888)  can0  422   [1]  00
 (174.953838)  can0  460   [4]  00 00 B1 0D
 (174.954060)  can0  462   [4]  00 00 B1 0D
 (174.954272)  can0  464   [8]  1E 68 AF 02 9B 02 75 00
 (175.443963)  can0  422   [1]  00
 (175.953952)  can0  460   [4]  00 00 B1 0D
 (175.954176)  can0  462   [4]  00 00 B1 0D
 (175.954383)  can0  464   [8]  1E 68 AF 02 9B 02 75 00
 (176.444029)  can0  422   [1]  00
 (176.960071)  can0  460   [4]  00 00 B1 0D
 (176.960297)  can0  462   [4]  00 00 B1 0D
 (176.960509)  can0  464   [8]  1E 68 AF 02 9B 02 75 00
 (177.444095)  can0  422   [1]  00
 (177.960188)  can0  460   [4]  00 00 B1 0D
 (177.960419)  can0  462   [4]  00 00 B1 0D
 (177.960630)  can0  464   [8]  1E 68 AF 02 9B 02 75 00
 (178.444160)  can0  422   [1]  00
 (178.962298)  can0  460   [4]  00 00 B1 0D
 (178.962524)  can0  462   [4]  00 00 B1 0D
 (178.962731)  can0  464   [8]  1E 68 AF 02 9B 02 75 00
 (179.444228)  can0  422   [1]  00
 (179.964414)  can0  460   [4]  00 00 B1 0D
 (179.964642)  can0  462   [4]  00 00 B1 0D
 (179.964852)  can0  464   [8]  1E 68 AF 02 9B 02 75 00
 (180.444293)  can0  422   [1]  00
 (180.966534)  can0  460   [4]  00 00 B1 0D
 (180.966758)  can0  462   [4]  00 00 B1 0D
 (180.966970)  can0  464   [8]  1E 68 AF 02 9B 02 75 00
 (181.444356)  can0  422   [1]  00
 (181.970652)  can0  460   [4]  00 00 B1 0D
 (181.970884)  can0  462   [4]  00 00 B1 0D
 (181.971112)  can0  464   [8]  1E 68 AF 02 9B 02 75 00
 (182.444421)  can0  422   [1]  00
 (182.970760)  can0  460   [4]  00 00 B1 0D
 (182.970995)  can0  462   [4]  00 00 B1 0D
 (182.971209)  can0  464   [8]  1E 68 AF 02 9B 02 75 00
 (183.444483)  can0  422   [1]  00
 (183.970880)  can0  460   [4]  00 00 B1 0D
 (183.971117)  can0  462   [4]  00 00 B1 0D
 (183.971326)  can0  464   [8]  1E 68 AF 02 9C 02 75 00
 (184.444548)  can0  422   [1]  00
 (184.970995)  can0  460   [4]  00 00 B1 0D
 (184.971230)  can0  462   [4]  00 00 B1 0D
 (184.971445)  can0  464   [8]  1E 68 AF 02 9C 02 75 00
 (185.444624)  can0  422   [1]  00
 (185.975107)  can0  460   [4]  00 00 B1 0D
 (185.975341)  can0  462   [4]  00 00 B1 0D
 (185.975554)  can0  464   [8]  1E 68 AF 02 9C 02 75 00
 (186.444674)  can0  422   [1]  00
 (186.977215)  can0  460   [4]  00 00 B1 0D
 (186.977449)  can0  462   [4]  00 00 B1 0D
 (186.977669)  can0  464   [8]  1E 68 AF 02 9C 02 75 00
 (187.444736)  can0  422   [1]  00
 (187.975325)  can0  460   [4]  00 00 B1 0D
 (187.975562)  can0  462   [4]  00 00 B1 0D
 (187.975784)  can0  464   [8]  1E 68 AF 02 9C 02 75 00
 (188.444792)  can0  422   [1]  00
 (188.977440)  can0  460   [4]  00 00 B1 0D
 (188.977669)  can0  462   [4]  00 00 B1 0D
 (188.977886)  can0  464   [8]  1E 68 AF 02 9C 02 75 00
 (189.444858)  can0  422   [1]  00
 (189.977539)  can0  460   [4]  00 00 B1 0D
 (189.977771)  can0  462   [4]  00 00 B1 0D
 (189.977984)  can0  464   [8]  1E 68 AF 02 9C 02 75 00
 (190.444918)  can0  422   [1]  00
 (190.977648)  can0  460   [4]  00 00 B1 0D
 (190.977875)  can0  462   [4]  00 00 B1 0D
 (190.978092)  can0  464   [8]  1E 68 AF 02 9C 02 75 00
 (191.445034)  can0  422   [1]  00
 (191.981759)  can0  460   [4]  00 00 B1 0D
 (191.981988)  can0  462   [4]  00 00 B1 0D
 (191.982198)  can0  464   [8]  1E 68 AF 02 9C 02 75 00
 (192.445036)  can0  422   [1]  00
 (192.983865)  can0  460   [4]  00 00 AF 0D
 (192.984090)  can0  462   [4]  00 00 AF 0D
 (192.984298)  can0  464   [8]  1E 68 AF 02 7F 02 75 00
 (193.445096)  can0  422   [1]  00
 (193.987970)  can0  460   [4]  00 00 AF 0D
 (193.988196)  can0  462   [4]  00 00 AF 0D
 (193.988406)  can0  464   [8]  1E 68 AF 02 7E 02 75 00
 (194.445152)  can0  422   [1]  00
 (194.988078)  can0  460   [4]  00 00 AF 0D
 (194.988305)  can0  462   [4]  00 00 AF 0D
 (194.988513)  can0  464   [8]  1E 68 AF 02 7E 02 75 00
 (195.445211)  can0  422   [1]  00
 (195.988184)  can0  460   [4]  00 00 AF 0D
 (195.988394)  can0  462   [4]  00 00 AF 0D
 (195.988587)  can0  464   [8]  1E 68 AF 02 7E 02 75 00
 (196.445263)  can0  422   [1]  00
 (196.990292)  can0  460   [4]  00 00 AF 0D
 (196.990504)  can0  462   [4]  00 00 AF 0D
 (196.990698)  can0  464   [8]  1E 68 AF 02 7E 02 75 00
 (197.445322)  can0  422   [1]  00
 (197.992395)  can0  460   [4]  00 00 AF 0D
 (197.992612)  can0  462   [4]  00 00 AF 0D
 (197.992812)  can0  464   [8]  1E 68 AF 02 7E 02 75 00
 (198.445380)  can0  422   [1]  00
 (198.994501)  can0  460   [4]  00 00 AF 0D
 (198.994712)  can0  462   [4]  00 00 AF 0D
 (198.994907)  can0  464   [8]  1E 68 AF 02 7E 02 75 00
 (199.445490)  can0  422   [1]  00
 (199.994609)  can0  460   [4]  00 00 AF 0D
 (199.994820)  can0  462   [4]  00 00 AF 0D
 (199.995012)  can0  464   [8]  1E 68 AF 02 7E 02 75 00
 (200.445495)  can0  422   [1]  00
 (201.000712)  can0  460   [4]  00 00 AF 0D
 (201.000922)  can0  462   [4]  00 00 AF 0D
 (201.001117)  can0  464   [8]  1E 68 AF 02 7E 02 75 00
 (201.445547)  can0  422   [1]  00
 (202.000880)  can0  460   [4]  00 00 AF 0D
 (202.001163)  can0  462   [4]  00 00 AF 0D
 (202.001413)  can0  464   [8]  1E 68 AF 02 7E 02 75 00
 (202.445608)  can0  422   [1]  00
 (203.002925)  can0  460   [4]  00 00 AF 0D
 (203.003149)  can0  462   [4]  00 00 AF 0D
 (203.003352)  can0  464   [8]  1E 68 AF 02 7E 02 75 00
 (203.445662)  can0  422   [1]  00
 (204.003027)  can0  460   [4]  00 00 AF 0D
 (204.003241)  can0  462   [4]  00 00 AF 0D
 (204.003439)  can0  464   [8]  1E 68 AF 02 7E 02 75 00
 (204.445711)  can0  422   [1]  00
 (205.001190)  can0  460   [4]  00 00 AF 0D
 (205.001454)  can0  462   [4]  00 00 AF 0D
 (205.001692)  can0  464   [8]  1E 68 AF 02 7E 02 75 00
 (205.445765)  can0  422   [1]  00
 (206.001227)  can0  460   [4]  00 00 AF 0D
 (206.001438)  can0  462   [4]  00 00 AF 0D
 (206.001633)  can0  464   [8]  1E 68 AF 02 7E 02 75 00
 (206.445821)  can0  422   [1]  00
 (207.007330)  can0  460   [4]  00 00 AF 0D
 (207.007542)  can0  462   [4]  00 00 AF 0D
 (207.007736)  can0  464   [8]  1E 68 AF 02 7E 02 75 00
 (207.445869)  can0  422   [1]  00
 (208.011436)  can0  460   [4]  00 00 AF 0D
 (208.011650)  can0  462   [4]  00 00 AF 0D
 (208.011846)  can0  464   [8]  1E 68 AF 02 7E 02 75 00
 (208.445975)  can0  422   [1]  00
 (209.013531)  can0  460   [4]  00 00 AF 0D
 (209.013741)  can0  462   [4]  00 00 AF 0D
 (209.013937)  can0  464   [8]  1E 68 AF 02 7E 02 75 00
 (209.445974)  can0  422   [1]  00
 (210.017634)  can0  460   [4]  00 00 AF 0D
 (210.017846)  can0  462   [4]  00 00 AF 0D
 (210.018042)  can0  464   [8]  1E 68 AF 02 7E 02 75 00
 (210.446094)  can0  422   [1]  00
 (211.017794)  can0  460   [4]  00 00 AF 0D
 (211.018059)  can0  462   [4]  00 00 AF 0D
 (211.018294)  can0  464   [8]  1E 68 AF 02 7E 02 75 00
 (211.446081)  can0  422   [1]  00
 (212.017836)  can0  460   [4]  00 00 AF 0D
 (212.018050)  can0  462   [4]  00 00 AF 0D
 (212.018247)  can0  464   [8]  1E 68 AF 02 7E 02 75 00
 (212.446132)  can0  422   [1]  00
 (213.019937)  can0  460   [4]  00 00 AF 0D
 (213.020148)  can0  462   [4]  00 00 AF 0D
 (213.020343)  can0  464   [8]  1E 68 AF 02 7E 02 75 00
 (213.446177)  can0  422   [1]  00
 (214.020036)  can0  460   [4]  00 00 AF 0D
 (214.020252)  can0  462   [4]  00 00 AF 0D
 (214.020460)  can0  464   [8]  1E 68 AF 02 7E 02 75 00
 (214.446229)  can0  422   [1]  00
 (215.020197)  can0  460   [4]  00 00 AF 0D
 (215.020467)  can0  462   [4]  00 00 AF 0D
 (215.020707)  can0  464   [8]  1E 68 AF 02 7E 02 75 00
 (215.446282)  can0  422   [1]  00
 (216.020230)  can0  460   [4]  00 00 AF 0D
 (216.020444)  can0  462   [4]  00 00 AF 0D
 (216.020642)  can0  464   [8]  1E 68 AF 02 7E 02 75 00
 (216.446325)  can0  422   [1]  00
 (217.020329)  can0  460   [4]  00 00 AF 0D
 (217.020547)  can0  462   [4]  00 00 AF 0D
 (217.020748)  can0  464   [8]  1E 68 AF 02 7E 02 75 00
 (217.446375)  can0  422   [1]  00
 (218.022426)  can0  460   [4]  00 00 AF 0D
 (218.022641)  can0  462   [4]  00 00 AF 0D
 (218.022840)  can0  464   [8]  1E 68 AF 02 7E 02 75 00
 (218.446424)  can0  422   [1]  00
 (219.022527)  can0  460   [4]  00 00 AF 0D
 (219.022746)  can0  462   [4]  00 00 AF 0D
 (219.022947)  can0  464   [8]  1E 68 AF 02 7E 02 75 00
 (219.446468)  can0  422   [1]  00
 (220.018619)  can0  460   [4]  00 00 AF 0D
 (220.018836)  can0  462   [4]  00 00 AF 0D
 (220.019034)  can0  464   [8]  1E 68 AF 02 7E 02 75 00
 (220.446520)  can0  422   [1]  00
 (221.018716)  can0  460   [4]  00 00 AF 0D
 (221.018933)  can0  462   [4]  00 00 AF 0D
 (221.019133)  can0  464   [8]  1E 68 AF 02 7D 02 75 00
 (221.446564)  can0  422   [1]  00
 (222.018811)  can0  460   [4]  00 00 AF 0D
 (222.019028)  can0  462   [4]  00 00 AF 0D
 (222.019228)  can0  464   [8]  1D 68 AF 02 7C 02 75 00
 (222.446610)  can0  422   [1]  00
 (223.020907)  can0  460   [4]  00 00 AF 0D
 (223.021127)  can0  462   [4]  00 00 AF 0D
 (223.021328)  can0  464   [8]  1C 68 AF 02 7B 02 75 00
 (223.446658)  can0  422   [1]  00
 (224.019001)  can0  460   [4]  00 00 AF 0D
 (224.019217)  can0  462   [4]  00 00 AF 0D
 (224.019416)  can0  464   [8]  1B 68 AF 02 7A 02 75 00
 (224.446702)  can0  422   [1]  00
 (225.019101)  can0  460   [4]  00 00 AF 0D
 (225.019319)  can0  462   [4]  00 00 AF 0D
 (225.019519)  can0  464   [8]  1A 68 AF 02 79 02 75 00
 (225.446750)  can0  422   [1]  00
 (226.019191)  can0  460   [4]  00 00 B0 0D
 (226.019409)  can0  462   [4]  00 00 B0 0D
 (226.019607)  can0  464   [8]  19 68 AF 02 78 02 75 00
 (226.446789)  can0  422   [1]  00
 (227.023346)  can0  460   [4]  00 00 B0 0D
 (227.023617)  can0  462   [4]  00 00 B0 0D
 (227.023856)  can0  464   [8]  16 68 AF 02 76 02 75 00
 (227.446892)  can0  422   [1]  00
 (228.021436)  can0  460   [4]  00 00 B0 0D
 (228.021707)  can0  462   [4]  00 00 B0 0D
 (228.021960)  can0  464   [8]  14 68 AF 02 73 02 75 00
 (228.446880)  can0  422   [1]  00
 (229.023474)  can0  460   [4]  00 00 B0 0D
 (229.023692)  can0  462   [4]  00 00 B0 0D
 (229.023893)  can0  464   [8]  12 68 AF 02 71 02 75 00
 (229.446921)  can0  422   [1]  00
 (230.023567)  can0  460   [4]  00 00 B0 0D
 (230.023783)  can0  462   [4]  00 00 B0 0D
 (230.023983)  can0  464   [8]  10 68 AF 02 6D 02 75 00
 (230.446968)  can0  422   [1]  00
 (231.025654)  can0  460   [4]  00 00 B0 0D
 (231.025864)  can0  462   [4]  00 00 B0 0D
 (231.026076)  can0  464   [8]  0E 68 AF 02 69 02 75 00
 (231.447014)  can0  422   [1]  00
 (232.025750)  can0  460   [4]  00 00 B0 0D
 (232.025967)  can0  462   [4]  00 00 B0 0D
 (232.026169)  can0  464   [8]  0D 68 AF 02 64 02 75 00
 (232.447105)  can0  422   [1]  00
 (233.027842)  can0  460   [4]  00 00 B0 0D
 (233.028058)  can0  462   [4]  00 00 B0 0D
 (233.028259)  can0  464   [8]  0D 68 AF 02 62 02 75 00
 (233.447091)  can0  422   [1]  00
 (234.031932)  can0  460   [4]  00 00 B0 0D
 (234.032146)  can0  462   [4]  00 00 B0 0D
 (234.032348)  can0  464   [8]  0C 68 AF 02 60 02 75 00
 (234.447134)  can0  422   [1]  00
 (235.036020)  can0  460   [4]  00 00 B0 0D
 (235.036245)  can0  462   [4]  00 00 B0 0D
 (235.036456)  can0  464   [8]  0C 68 AF 02 60 02 75 00
 (235.447202)  can0  422   [1]  00
 (236.040123)  can0  460   [4]  00 00 B0 0D
 (236.040350)  can0  462   [4]  00 00 B0 0D
 (236.040552)  can0  464   [8]  0C 68 AF 02 5F 02 75 00
 (236.447224)  can0  422   [1]  00
 (237.042208)  can0  460   [4]  00 00 B0 0D
 (237.042434)  can0  462   [4]  00 00 B0 0D
 (237.042632)  can0  464   [8]  0C 68 AF 02 5F 02 75 00
 (237.447268)  can0  422   [1]  00
 (237.948283)  can0  460   [4]  00 00 B0 0D
 (237.948506)  can0  462   [4]  00 00 B0 0D
 (237.948704)  can0  464   [8]  0C 68 AF 02 5F 02 75 00
 (238.447305)  can0  422   [1]  00
 (238.948824)  can0  460   [4]  00 00 B0 0D
 (238.949054)  can0  462   [4]  00 00 B0 0D
 (238.949264)  can0  464   [8]  0C 68 AF 02 5F 02 75 00
 (239.447345)  can0  422   [1]  00
 (239.958468)  can0  460   [4]  00 00 B0 0D
 (239.958697)  can0  462   [4]  00 00 B0 0D
 (239.958903)  can0  464   [8]  0C 68 AF 02 5F 02 75 00
 (240.447388)  can0  422   [1]  00
 (240.960562)  can0  460   [4]  00 00 B0 0D
 (240.960786)  can0  462   [4]  00 00 B0 0D
 (240.960987)  can0  464   [8]  0C 68 AF 02 5F 02 75 00
 (241.447488)  can0  422   [1]  00
 (241.966650)  can0  460   [4]  00 00 B0 0D
 (241.966905)  can0  462   [4]  00 00 B0 0D
 (241.967110)  can0  464   [8]  0C 68 AF 02 5F 02 75 00
 (242.447521)  can0  422   [1]  00
 (242.970734)  can0  460   [4]  00 00 B0 0D
 (242.970948)  can0  462   [4]  00 00 B0 0D
 (242.971144)  can0  464   [8]  0C 68 AF 02 5F 02 75 00
 (243.447497)  can0  422   [1]  00
 (243.978821)  can0  460   [4]  00 00 B0 0D
 (243.979047)  can0  462   [4]  00 00 B0 0D
 (243.979256)  can0  464   [8]  0C 68 AF 02 5F 02 75 00
 (244.447535)  can0  422   [1]  00
 (244.982970)  can0  460   [4]  00 00 B0 0D
 (244.983249)  can0  462   [4]  00 00 B0 0D
 (244.983494)  can0  464   [8]  0C 68 AF 02 5F 02 75 00
 (245.447568)  can0  422   [1]  00
 (245.988988)  can0  460   [4]  00 00 B0 0D
 (245.989206)  can0  462   [4]  00 00 B0 0D
 (245.989410)  can0  464   [8]  0C 68 AF 02 5F 02 75 00
 (246.447602)  can0  422   [1]  00
 (246.993130)  can0  460   [4]  00 00 B0 0D
 (246.993404)  can0  462   [4]  00 00 B0 0D
 (246.993644)  can0  464   [8]  0C 68 AF 02 5F 02 75 00
 (247.447645)  can0  422   [1]  00
 (248.001157)  can0  460   [4]  00 00 B0 0D
 (248.001374)  can0  462   [4]  00 00 B0 0D
 (248.001573)  can0  464   [8]  0C 68 AF 02 5F 02 75 00
 (248.447679)  can0  422   [1]  00
 (249.005243)  can0  460   [4]  00 00 B0 0D
 (249.005457)  can0  462   [4]  00 00 B0 0D
 (249.005653)  can0  464   [8]  0C 68 AF 02 5F 02 75 00
 (249.447717)  can0  422   [1]  00
 (250.011327)  can0  460   [4]  00 00 B0 0D
 (250.011537)  can0  462   [4]  00 00 B0 0D
 (250.011733)  can0  464   [8]  0C 68 AF 02 5F 02 75 00
 (250.447748)  can0  422   [1]  00
 (251.017416)  can0  460   [4]  00 00 B0 0D
 (251.017634)  can0  462   [4]  00 00 B0 0D
 (251.017836)  can0  464   [8]  0C 68 AF 02 5F 02 75 00
 (251.447785)  can0  422   [1]  00
 (252.019497)  can0  460   [4]  00 00 B0 0D
 (252.019716)  can0  462   [4]  00 00 B0 0D
 (252.019920)  can0  464   [8]  0C 68 AF 02 5F 02 75 00
 (252.447814)  can0  422   [1]  00
 (253.021583)  can0  460   [4]  00 00 B0 0D
 (253.021803)  can0  462   [4]  00 00 B0 0D
 (253.022002)  can0  464   [8]  0C 68 AF 02 5F 02 75 00
 (253.447855)  can0  422   [1]  00
 (254.029666)  can0  460   [4]  00 00 B0 0D
 (254.029886)  can0  462   [4]  00 00 B0 0D
 (254.030088)  can0  464   [8]  0C 68 AF 02 5F 02 75 00
 (254.447887)  can0  422   [1]  00
 (255.035748)  can0  460   [4]  00 00 B0 0D
 (255.035967)  can0  462   [4]  00 00 B0 0D
 (255.036168)  can0  464   [8]  0C 68 AF 02 5F 02 75 00
 (255.447919)  can0  422   [1]  00
 (256.037832)  can0  460   [4]  00 00 B0 0D
 (256.038055)  can0  462   [4]  00 00 B0 0D
 (256.038262)  can0  464   [8]  0C 68 AF 02 5F 02 75 00
 (256.447954)  can0  422   [1]  00
 (256.946409)  can0  460   [4]  00 00 B0 0D
 (256.946679)  can0  462   [4]  00 00 B0 0D
 (256.946922)  can0  464   [8]  0C 68 AF 02 5F 02 75 00
 (257.448047)  can0  422   [1]  00
 (257.950431)  can0  460   [4]  00 00 B0 0D
 (257.950648)  can0  462   [4]  00 00 B0 0D
 (257.950848)  can0  464   [8]  0C 68 AF 02 5F 02 75 00
 (258.448018)  can0  422   [1]  00
 (258.956515)  can0  460   [4]  00 00 B0 0D
 (258.956734)  can0  462   [4]  00 00 B0 0D
 (258.956935)  can0  464   [8]  0C 68 AF 02 5F 02 75 00
 (259.448049)  can0  422   [1]  00
 (259.960600)  can0  460   [4]  00 00 B0 0D
 (259.960823)  can0  462   [4]  00 00 B0 0D
 (259.961026)  can0  464   [8]  0C 68 AF 02 5F 02 75 00
 (260.448082)  can0  422   [1]  00
 (260.966240)  can0  460   [4]  00 00 B0 0D
 (260.966470)  can0  462   [4]  00 00 B0 0D
 (260.966671)  can0  464   [8]  0C 68 AF 02 5F 02 75 00
 (261.448110)  can0  422   [1]  00
 (261.972317)  can0  460   [4]  00 00 B0 0D
 (261.972540)  can0  462   [4]  00 00 B0 0D
 (261.972737)  can0  464   [8]  0C 68 AF 02 5F 02 75 00
 (262.448143)  can0  422   [1]  00
 (262.978397)  can0  460   [4]  00 00 B0 0D
 (262.978617)  can0  462   [4]  00 00 B0 0D
 (262.978820)  can0  464   [8]  0C 68 AF 02 5F 02 75 00
 (263.448168)  can0  422   [1]  00
 (263.990475)  can0  460   [4]  00 00 B0 0D
 (263.990695)  can0  462   [4]  00 00 B0 0D
 (263.990897)  can0  464   [8]  0C 68 AF 02 5F 02 75 00
 (264.448204)  can0  422   [1]  00
 (264.998555)  can0  460   [4]  00 00 B0 0D
 (264.998773)  can0  462   [4]  00 00 B0 0D
 (264.998974)  can0  464   [8]  0C 68 AF 02 5F 02 75 00
 (265.448236)  can0  422   [1]  00
 (266.006689)  can0  460   [4]  00 00 B0 0D
 (266.006957)  can0  462   [4]  00 00 B0 0D
 (266.007199)  can0  464   [8]  0C 68 AF 02 5F 02 75 00
 (266.448264)  can0  422   [1]  00
 (267.012715)  can0  460   [4]  00 00 B0 0D
 (267.012931)  can0  462   [4]  00 00 B0 0D
 (267.013133)  can0  464   [8]  0C 68 AF 02 5F 02 75 00
 (267.448294)  can0  422   [1]  00
 (268.020793)  can0  460   [4]  00 00 B0 0D
 (268.021011)  can0  462   [4]  00 00 B0 0D
 (268.021214)  can0  464   [8]  0C 68 AF 02 5F 02 75 00
 (268.448325)  can0  422   [1]  00
 (269.028869)  can0  460   [4]  00 00 B0 0D
 (269.029085)  can0  462   [4]  00 00 B0 0D
 (269.029282)  can0  464   [8]  0C 68 AF 02 5F 02 75 00
 (269.448352)  can0  422   [1]  00
 (270.040952)  can0  460   [4]  00 00 B0 0D
 (270.041177)  can0  462   [4]  00 00 B0 0D
 (270.041387)  can0  464   [8]  0C 68 AF 02 5F 02 75 00
 (270.448383)  can0  422   [1]  00
 (270.949454)  can0  460   [4]  00 00 B0 0D
 (270.949673)  can0  462   [4]  00 00 B0 0D
 (270.949874)  can0  464   [8]  0C 68 AF 02 5F 02 75 00
 (271.448404)  can0  422   [1]  00
 (271.955533)  can0  460   [4]  00 00 B0 0D
 (271.955754)  can0  462   [4]  00 00 B0 0D
 (271.955957)  can0  464   [8]  0B 68 AF 02 62 02 75 00
 (272.448436)  can0  422   [1]  00
 (272.963180)  can0  460   [4]  00 00 B0 0D
 (272.963406)  can0  462   [4]  00 00 B0 0D
 (272.963611)  can0  464   [8]  0A 68 AF 02 64 02 75 00
 (273.448459)  can0  422   [1]  00
 (273.975257)  can0  460   [4]  00 00 B0 0D
 (273.975478)  can0  462   [4]  00 00 B0 0D
 (273.975676)  can0  464   [8]  0A 68 AF 02 65 02 75 00
 (274.448489)  can0  422   [1]  00
 (274.983323)  can0  460   [4]  00 00 B0 0D
 (274.983567)  can0  462   [4]  00 00 B0 0D
 (274.983763)  can0  464   [8]  0A 68 AF 02 66 02 75 00
 (275.448517)  can0  422   [1]  00
 (275.989411)  can0  460   [4]  00 00 B0 0D
 (275.989637)  can0  462   [4]  00 00 B0 0D
 (275.989840)  can0  464   [8]  0A 68 AF 02 66 02 75 00
 (276.448542)  can0  422   [1]  00
 (276.995480)  can0  460   [4]  00 00 B0 0D
 (276.995701)  can0  462   [4]  00 00 B0 0D
 (276.995902)  can0  464   [8]  09 68 AF 02 66 02 75 00
 (277.448569)  can0  422   [1]  00
 (278.005555)  can0  460   [4]  00 00 B0 0D
 (278.005773)  can0  462   [4]  00 00 B0 0D
 (278.005972)  can0  464   [8]  09 68 AF 02 66 02 75 00
 (278.448595)  can0  422   [1]  00
 (279.011628)  can0  460   [4]  00 00 B0 0D
 (279.011846)  can0  462   [4]  00 00 B0 0D
 (279.012046)  can0  464   [8]  09 68 AF 02 66 02 75 00
 (279.448619)  can0  422   [1]  00
 (280.019703)  can0  460   [4]  00 00 B0 0D
 (280.019920)  can0  462   [4]  00 00 B0 0D
 (280.020121)  can0  464   [8]  09 68 AF 02 66 02 75 00
 (280.448645)  can0  422   [1]  00
 (281.029778)  can0  460   [4]  00 00 B0 0D
 (281.029997)  can0  462   [4]  00 00 B0 0D
 (281.030197)  can0  464   [8]  09 68 AF 02 66 02 75 00
 (281.448668)  can0  422   [1]  00
 (282.035851)  can0  460   [4]  00 00 B0 0D
 (282.036070)  can0  462   [4]  00 00 B0 0D
 (282.036273)  can0  464   [8]  08 68 AF 02 63 02 75 00
 (282.448696)  can0  422   [1]  00
 (283.043930)  can0  460   [4]  00 00 B0 0D
 (283.044156)  can0  462   [4]  00 00 B0 0D
 (283.044357)  can0  464   [8]  04 68 AF 02 5E 02 75 00
 (283.448714)  can0  422   [1]  00
 (283.952426)  can0  460   [4]  00 00 B0 0D
 (283.952636)  can0  462   [4]  00 00 B0 0D
 (283.952833)  can0  464   [8]  00 68 AF 02 59 02 75 00
 (284.448741)  can0  422   [1]  00
 (284.958503)  can0  460   [4]  00 00 B0 0D
 (284.958721)  can0  462   [4]  00 00 B0 0D
 (284.958915)  can0  464   [8]  FE 67 AF 02 55 02 75 00
 (285.448763)  can0  422   [1]  00
 (285.965100)  can0  460   [4]  00 00 B0 0D
 (285.965314)  can0  462   [4]  00 00 B0 0D
 (285.965510)  can0  464   [8]  FD 67 AF 02 51 02 75 00
 (285.966059)  can0  468   [2]  64 00
 (286.448783)  can0  422   [1]  00
 (286.971174)  can0  460   [4]  00 00 B0 0D
 (286.971395)  can0  462   [4]  00 00 B0 0D
 (286.971601)  can0  464   [8]  FD 67 AF 02 4F 02 75 00
 (286.972145)  can0  468   [2]  64 00
 (287.448813)  can0  422   [1]  00
 (287.977245)  can0  460   [4]  00 00 B0 0D
 (287.977459)  can0  462   [4]  00 00 B0 0D
 (287.977657)  can0  464   [8]  FD 67 AF 02 4E 02 75 00
 (288.448832)  can0  422   [1]  00
 (288.985318)  can0  460   [4]  00 00 B0 0D
 (288.985536)  can0  462   [4]  00 00 B0 0D
 (288.985734)  can0  464   [8]  FD 67 AF 02 4E 02 75 00
 (288.986282)  can0  468   [2]  64 00
 (289.448854)  can0  422   [1]  00
 (289.993385)  can0  460   [4]  00 00 B0 0D
 (289.993610)  can0  462   [4]  00 00 B0 0D
 (289.993817)  can0  464   [8]  FD 67 AF 02 4D 02 75 00
 (289.994351)  can0  468   [2]  64 00
 (290.448875)  can0  422   [1]  00
 (291.003450)  can0  460   [4]  00 00 B0 0D
 (291.003666)  can0  462   [4]  00 00 B0 0D
 (291.003867)  can0  464   [8]  FD 67 AF 02 4D 02 75 00
 (291.004420)  can0  468   [2]  64 00
 (291.448898)  can0  422   [1]  00
 (292.008629)  can0  460   [4]  00 00 B0 0D
 (292.008898)  can0  462   [4]  00 00 B0 0D
 (292.009132)  can0  464   [8]  FD 67 AF 02 4D 02 75 00
 (292.448916)  can0  422   [1]  00
 (293.012635)  can0  460   [4]  00 00 B0 0D
 (293.012851)  can0  462   [4]  00 00 B0 0D
 (293.013053)  can0  464   [8]  FD 67 AF 02 4D 02 75 00
 (293.448937)  can0  422   [1]  00
 (294.016704)  can0  460   [4]  00 00 B0 0D
 (294.016922)  can0  462   [4]  00 00 B0 0D
 (294.017123)  can0  464   [8]  FD 67 AF 02 4D 02 75 00
 (294.448959)  can0  422   [1]  00
 (295.024777)  can0  460   [4]  00 00 B0 0D
 (295.024997)  can0  462   [4]  00 00 B0 0D
 (295.025199)  can0  464   [8]  FD 67 AF 02 4D 02 75 00
 (295.448981)  can0  422   [1]  00
 (296.032842)  can0  460   [4]  00 00 B0 0D
 (296.033060)  can0  462   [4]  00 00 B0 0D
 (296.033263)  can0  464   [8]  FD 67 AF 02 4D 02 75 00
 (296.448997)  can0  422   [1]  00
 (297.038919)  can0  460   [4]  00 00 B0 0D
 (297.039135)  can0  462   [4]  00 00 B0 0D
 (297.039336)  can0  464   [8]  FD 67 AF 02 4D 02 75 00
 (297.449016)  can0  422   [1]  00
 (298.046987)  can0  460   [4]  00 00 B0 0D
 (298.047207)  can0  462   [4]  00 00 B0 0D
 (298.047405)  can0  464   [8]  FD 67 AF 02 4D 02 75 00
 (298.449040)  can0  422   [1]  00
 (298.951545)  can0  460   [4]  00 00 B0 0D
 (298.951811)  can0  462   [4]  00 00 B0 0D
 (298.952054)  can0  464   [8]  FD 67 AF 02 4D 02 75 00
 (299.449058)  can0  422   [1]  00
 (299.959553)  can0  460   [4]  00 00 B0 0D
 (299.959769)  can0  462   [4]  00 00 B0 0D
 (299.959963)  can0  464   [8]  FD 67 AF 02 4D 02 75 00
 (300.449075)  can0  422   [1]  00
 (300.963186)  can0  460   [4]  00 00 B0 0D
 (300.963401)  can0  462   [4]  00 00 B0 0D
 (300.963598)  can0  464   [8]  FD 67 AF 02 4D 02 75 00
 (301.449097)  can0  422   [1]  00
 (301.969252)  can0  460   [4]  00 00 B0 0D
 (301.969474)  can0  462   [4]  00 00 B0 0D
 (301.969678)  can0  464   [8]  FD 67 AF 02 4D 02 75 00
 (302.449110)  can0  422   [1]  00
 (302.975383)  can0  460   [4]  00 00 B0 0D
 (302.975652)  can0  462   [4]  00 00 B0 0D
 (302.975900)  can0  464   [8]  FD 67 AF 02 4D 02 75 00
 (303.449129)  can0  422   [1]  00
 (303.981379)  can0  460   [4]  00 00 B0 0D
 (303.981592)  can0  462   [4]  00 00 B0 0D
 (303.981785)  can0  464   [8]  FD 67 AF 02 4D 02 75 00
 (304.449144)  can0  422   [1]  00
 (304.985444)  can0  460   [4]  00 00 B0 0D
 (304.985657)  can0  462   [4]  00 00 B0 0D
 (304.985852)  can0  464   [8]  FD 67 AF 02 4D 02 75 00
 (305.449165)  can0  422   [1]  00
 (305.987514)  can0  460   [4]  00 00 B0 0D
 (305.987723)  can0  462   [4]  00 00 B0 0D
 (305.987917)  can0  464   [8]  FD 67 AF 02 4D 02 75 00
 (306.449182)  can0  422   [1]  00
 (306.989580)  can0  460   [4]  00 00 B0 0D
 (306.989793)  can0  462   [4]  00 00 B0 0D
 (306.989986)  can0  464   [8]  FD 67 AF 02 4D 02 75 00
 (307.449195)  can0  422   [1]  00
 (307.991647)  can0  460   [4]  00 00 B0 0D
 (307.991859)  can0  462   [4]  00 00 B0 0D
 (307.992051)  can0  464   [8]  FD 67 AF 02 4D 02 75 00
 (308.449215)  can0  422   [1]  00
 (308.997710)  can0  460   [4]  00 00 B0 0D
 (308.997931)  can0  462   [4]  00 00 B0 0D
 (308.998126)  can0  464   [8]  FD 67 AF 02 4D 02 75 00
 (309.449229)  can0  422   [1]  00
 (310.003779)  can0  460   [4]  00 00 B0 0D
 (310.003992)  can0  462   [4]  00 00 B0 0D
 (310.004203)  can0  464   [8]  FD 67 AF 02 4D 02 75 00
 (310.449243)  can0  422   [1]  00
 (311.005874)  can0  460   [4]  00 00 B0 0D
 (311.006147)  can0  462   [4]  00 00 B0 0D
 (311.006354)  can0  464   [8]  FD 67 AF 02 4D 02 75 00
 (311.449260)  can0  422   [1]  00
 (312.011974)  can0  460   [4]  00 00 B0 0D
 (312.012236)  can0  462   [4]  00 00 B0 0D
 (312.012472)  can0  464   [8]  FD 67 AF 02 4D 02 75 00
 (312.449273)  can0  422   [1]  00
 (313.021968)  can0  460   [4]  00 00 B0 0D
 (313.022179)  can0  462   [4]  00 00 B0 0D
 (313.022374)  can0  464   [8]  FD 67 AF 02 4D 02 75 00
 (313.449285)  can0  422   [1]  00
 (314.024032)  can0  460   [4]  00 00 B0 0D
 (314.024247)  can0  462   [4]  00 00 B0 0D
 (314.024441)  can0  464   [8]  FD 67 AF 02 4D 02 75 00
 (314.449358)  can0  422   [1]  00
 (315.026098)  can0  460   [4]  00 00 B0 0D
 (315.026312)  can0  462   [4]  00 00 B0 0D
 (315.026529)  can0  464   [8]  FD 67 AF 02 4D 02 75 00
 (315.449322)  can0  422   [1]  00
 (316.028158)  can0  460   [4]  00 00 B0 0D
 (316.028370)  can0  462   [4]  00 00 B0 0D
 (316.028565)  can0  464   [8]  FD 67 AF 02 4D 02 75 00
 (316.449331)  can0  422   [1]  00
 (317.034225)  can0  460   [4]  00 00 B0 0D
 (317.034439)  can0  462   [4]  00 00 B0 0D
 (317.034634)  can0  464   [8]  FD 67 AF 02 4D 02 75 00
 (317.449347)  can0  422   [1]  00
 (318.044293)  can0  460   [4]  00 00 B0 0D
 (318.044504)  can0  462   [4]  00 00 B0 0D
 (318.044700)  can0  464   [8]  FD 67 AF 02 4D 02 75 00
 (318.449357)  can0  422   [1]  00
 (318.948787)  can0  460   [4]  00 00 B0 0D
 (318.948996)  can0  462   [4]  00 00 B0 0D
 (318.949190)  can0  464   [8]  FD 67 AF 02 4D 02 75 00
 (319.449420)  can0  422   [1]  00
 (319.956853)  can0  460   [4]  00 00 B0 0D
 (319.957067)  can0  462   [4]  00 00 B0 0D
 (319.957262)  can0  464   [8]  FD 67 AF 02 4D 02 75 00
 (320.449386)  can0  422   [1]  00
 (320.960916)  can0  460   [4]  00 00 B0 0D
 (320.961129)  can0  462   [4]  00 00 B0 0D
 (320.961323)  can0  464   [8]  FD 67 AF 02 4D 02 75 00
 (321.449395)  can0  422   [1]  00
