 (000.000000)  can0  422   [1]  00
 (000.621127)  can0  460   [4]  04 00 27 00
 (000.621334)  can0  462   [4]  04 00 27 00
 (000.621526)  can0  464   [8]  07 68 AF 02 B4 02 75 00
 (001.000205)  can0  422   [1]  00
 (001.683185)  can0  460   [4]  00 00 27 00
 (001.683396)  can0  462   [4]  00 00 27 00
 (001.683589)  can0  464   [8]  07 68 AF 02 B4 02 75 00
 (002.000391)  can0  422   [1]  00
 (002.641629)  can0  460   [4]  04 00 27 00
 (002.641847)  can0  462   [4]  04 00 27 00
 (002.642036)  can0  464   [8]  07 68 AF 02 B4 02 75 00
 (003.000571)  can0  422   [1]  00
 (003.707061)  can0  460   [4]  04 00 27 00
 (003.707271)  can0  462   [4]  04 00 27 00
 (003.707461)  can0  464   [8]  07 68 AF 02 B4 02 75 00
 (004.000737)  can0  422   [1]  00
 (004.671177)  can0  460   [4]  00 00 27 00
 (004.671386)  can0  462   [4]  00 00 27 00
 (004.671577)  can0  464   [8]  07 68 AF 02 B4 02 75 00
 (005.000905)  can0  422   [1]  00
 (005.633230)  can0  460   [4]  36 00 28 00
 (005.633440)  can0  462   [4]  36 00 28 00
 (005.633631)  can0  464   [8]  06 68 AF 02 B3 02 75 00
 (006.001058)  can0  422   [1]  00
 (006.699213)  can0  460   [4]  1B 00 28 00
 (006.699421)  can0  462   [4]  1B 00 28 00
 (006.699613)  can0  464   [8]  05 68 AF 02 B3 02 75 00
 (007.001203)  can0  422   [1]  00
 (007.661169)  can0  460   [4]  0E 00 28 00
 (007.661382)  can0  462   [4]  0E 00 28 00
 (007.661572)  can0  464   [8]  05 68 AF 02 B3 02 75 00
 (008.001331)  can0  422   [1]  00
 (008.623042)  can0  460   [4]  08 00 28 00
 (008.623252)  can0  462   [4]  08 00 28 00
 (008.623444)  can0  464   [8]  04 68 AF 02 B2 02 75 00
 (009.001462)  can0  422   [1]  00
 (009.687217)  can0  460   [4]  04 00 28 00
 (009.687428)  can0  462   [4]  04 00 28 00
 (009.687619)  can0  464   [8]  04 68 AF 02 B2 02 75 00
 (010.001581)  can0  422   [1]  00
 (010.649563)  can0  460   [4]  06 00 28 00
 (010.649776)  can0  462   [4]  06 00 28 00
 (010.649968)  can0  464   [8]  04 68 AF 02 B2 02 75 00
 (011.001702)  can0  422   [1]  00
 (011.717426)  can0  460   [4]  00 00 28 00
 (011.717635)  can0  462   [4]  00 00 28 00
 (011.717825)  can0  464   [8]  04 68 AF 02 B2 02 75 00
 (012.001806)  can0  422   [1]  00
 (012.679863)  can0  460   [4]  00 00 28 00
 (012.680071)  can0  462   [4]  00 00 28 00
 (012.680261)  can0  464   [8]  04 68 AF 02 B2 02 75 00
 (013.001912)  can0  422   [1]  00
 (013.639970)  can0  460   [4]  00 00 28 00
 (013.640179)  can0  462   [4]  00 00 28 00
 (013.640370)  can0  464   [8]  04 68 AF 02 B2 02 75 00
 (014.002004)  can0  422   [1]  00
 (014.704167)  can0  460   [4]  04 00 28 00
 (014.704373)  can0  462   [4]  04 00 28 00
 (014.704562)  can0  464   [8]  04 68 AF 02 B2 02 75 00
 (015.002103)  can0  422   [1]  00
 (015.668672)  can0  460   [4]  00 00 28 00
 (015.668884)  can0  462   [4]  00 00 28 00
 (015.669074)  can0  464   [8]  04 68 AF 02 B2 02 75 00
 (016.002191)  can0  422   [1]  00
 (016.629087)  can0  460   [4]  00 00 28 00
 (016.629295)  can0  462   [4]  00 00 28 00
 (016.629487)  can0  464   [8]  04 68 AF 02 B2 02 75 00
 (017.002275)  can0  422   [1]  00
 (017.693462)  can0  460   [4]  00 00 28 00
 (017.693673)  can0  462   [4]  00 00 28 00
 (017.693867)  can0  464   [8]  04 68 AF 02 B2 02 75 00
 (018.002357)  can0  422   [1]  00
 (018.657758)  can0  460   [4]  00 00 28 00
 (018.658012)  can0  462   [4]  00 00 28 00
 (018.658237)  can0  464   [8]  04 68 AF 02 B2 02 75 00
 (019.002431)  can0  422   [1]  00
 (019.717244)  can0  460   [4]  00 00 28 00
 (019.717452)  can0  462   [4]  00 00 28 00
 (019.717642)  can0  464   [8]  04 68 AF 02 B2 02 75 00
 (020.002502)  can0  422   [1]  00
 (020.675108)  can0  460   [4]  00 00 28 00
 (020.675316)  can0  462   [4]  00 00 28 00
 (020.675504)  can0  464   [8]  04 68 AF 02 B2 02 75 00
 (021.002573)  can0  422   [1]  00
 (021.632497)  can0  460   [4]  00 00 28 00
 (021.632708)  can0  462   [4]  00 00 28 00
 (021.632897)  can0  464   [8]  04 68 AF 02 B2 02 75 00
 (022.002636)  can0  422   [1]  00
 (022.693631)  can0  460   [4]  00 00 28 00
 (022.693838)  can0  462   [4]  00 00 28 00
 (022.694025)  can0  464   [8]  04 68 AF 02 B2 02 75 00
 (023.002701)  can0  422   [1]  00
 (023.651086)  can0  460   [4]  00 00 28 00
 (023.651305)  can0  462   [4]  00 00 28 00
 (023.651500)  can0  464   [8]  04 68 AF 02 B2 02 75 00
 (024.002766)  can0  422   [1]  00
 (024.714202)  can0  460   [4]  00 00 28 00
 (024.714414)  can0  462   [4]  00 00 28 00
 (024.714607)  can0  464   [8]  04 68 AF 02 B2 02 75 00
 (025.002819)  can0  422   [1]  00
 (025.674345)  can0  460   [4]  00 00 28 00
 (025.674551)  can0  462   [4]  00 00 28 00
 (025.674741)  can0  464   [8]  04 68 AF 02 B2 02 75 00
 (026.002875)  can0  422   [1]  00
 (026.634263)  can0  460   [4]  00 00 28 00
 (026.634470)  can0  462   [4]  00 00 28 00
 (026.634668)  can0  464   [8]  04 68 AF 02 B2 02 75 00
 (027.002927)  can0  422   [1]  00
 (027.694264)  can0  460   [4]  00 00 28 00
 (027.694471)  can0  462   [4]  00 00 28 00
 (027.694669)  can0  464   [8]  04 68 AF 02 B2 02 75 00
 (028.002980)  can0  422   [1]  00
 (028.656236)  can0  460   [4]  00 00 28 00
 (028.656455)  can0  462   [4]  00 00 28 00
 (028.656649)  can0  464   [8]  04 68 AF 02 B2 02 75 00
 (029.003029)  can0  422   [1]  00
 (029.717885)  can0  460   [4]  00 00 28 00
 (029.718092)  can0  462   [4]  00 00 28 00
 (029.718287)  can0  464   [8]  04 68 AF 02 B2 02 75 00
 (030.003081)  can0  422   [1]  00
 (030.678040)  can0  460   [4]  0D 00 28 00
 (030.678247)  can0  462   [4]  0D 00 28 00
 (030.678437)  can0  464   [8]  05 68 AF 02 B2 02 75 00
 (031.003121)  can0  422   [1]  00
 (031.639615)  can0  460   [4]  06 00 28 00
 (031.639826)  can0  462   [4]  06 00 28 00
 (031.640017)  can0  464   [8]  05 68 AF 02 B2 02 75 00
 (032.003163)  can0  422   [1]  00
 (032.698880)  can0  460   [4]  04 00 28 00
 (032.699089)  can0  462   [4]  04 00 28 00
 (032.699278)  can0  464   [8]  05 68 AF 02 B2 02 75 00
 (033.003205)  can0  422   [1]  00
 (033.658772)  can0  460   [4]  00 00 28 00
 (033.658981)  can0  462   [4]  00 00 28 00
 (033.659170)  can0  464   [8]  05 68 AF 02 B2 02 75 00
 (034.003245)  can0  422   [1]  00
 (034.718446)  can0  460   [4]  06 00 28 00
 (034.718655)  can0  462   [4]  06 00 28 00
 (034.718851)  can0  464   [8]  05 68 AF 02 B2 02 75 00
 (035.003288)  can0  422   [1]  00
 (035.677902)  can0  460   [4]  06 00 28 00
 (035.678113)  can0  462   [4]  06 00 28 00
 (035.678308)  can0  464   [8]  05 68 AF 02 B2 02 75 00
 (036.003318)  can0  422   [1]  00
 (036.637563)  can0  460   [4]  00 00 28 00
 (036.637768)  can0  462   [4]  00 00 28 00
 (036.637964)  can0  464   [8]  05 68 AF 02 B2 02 75 00
 (037.003362)  can0  422   [1]  00
 (037.698247)  can0  460   [4]  00 00 28 00
 (037.698454)  can0  462   [4]  00 00 28 00
 (037.698650)  can0  464   [8]  05 68 AF 02 B2 02 75 00
 (038.003394)  can0  422   [1]  00
 (038.656269)  can0  460   [4]  00 00 28 00
 (038.656487)  can0  462   [4]  00 00 28 00
 (038.656692)  can0  464   [8]  05 68 AF 02 B2 02 75 00
 (039.003434)  can0  422   [1]  00
 (039.715909)  can0  460   [4]  06 00 28 00
 (039.716119)  can0  462   [4]  06 00 28 00
 (039.716307)  can0  464   [8]  05 68 AF 02 B2 02 75 00
 (040.003464)  can0  422   [1]  00
 (040.677774)  can0  460   [4]  06 00 28 00
 (040.677984)  can0  462   [4]  06 00 28 00
 (040.678170)  can0  464   [8]  05 68 AF 02 B2 02 75 00
 (041.003503)  can0  422   [1]  00
 (041.635653)  can0  460   [4]  06 00 28 00
 (041.635863)  can0  462   [4]  06 00 28 00
 (041.636053)  can0  464   [8]  05 68 AF 02 B2 02 75 00
 (042.003554)  can0  422   [1]  00
 (042.697411)  can0  460   [4]  06 00 28 00
 (042.697621)  can0  462   [4]  06 00 28 00
 (042.697817)  can0  464   [8]  05 68 AF 02 B2 02 75 00
 (043.003562)  can0  422   [1]  00
 (043.659408)  can0  460   [4]  06 00 28 00
 (043.659622)  can0  462   [4]  06 00 28 00
 (043.659813)  can0  464   [8]  05 68 AF 02 B2 02 75 00
 (044.003594)  can0  422   [1]  00
 (044.717326)  can0  460   [4]  00 00 28 00
 (044.717537)  can0  462   [4]  00 00 28 00
 (044.717730)  can0  464   [8]  05 68 AF 02 B2 02 75 00
 (045.003628)  can0  422   [1]  00
 (045.679793)  can0  460   [4]  1A 00 28 00
 (045.680002)  can0  462   [4]  1A 00 28 00
 (045.680191)  can0  464   [8]  04 68 AF 02 B2 02 75 00
 (046.003665)  can0  422   [1]  00
 (046.639896)  can0  460   [4]  0D 00 28 00
 (046.640120)  can0  462   [4]  0D 00 28 00
 (046.640310)  can0  464   [8]  04 68 AF 02 B2 02 75 00
 (047.004065)  can0  422   [1]  00
 (047.702444)  can0  460   [4]  06 00 28 00
 (047.702661)  can0  462   [4]  06 00 28 00
 (047.702863)  can0  464   [8]  04 68 AF 02 B2 02 75 00
 (048.004949)  can0  422   [1]  00
 (048.663309)  can0  460   [4]  06 00 28 00
 (048.663520)  can0  462   [4]  06 00 28 00
 (048.663710)  can0  464   [8]  04 68 AF 02 B2 02 75 00
 (049.005818)  can0  422   [1]  00
 (049.723783)  can0  460   [4]  06 00 28 00
 (049.723996)  can0  462   [4]  06 00 28 00
 (049.724186)  can0  464   [8]  04 68 AF 02 B2 02 75 00
 (050.006674)  can0  422   [1]  00
 (050.686605)  can0  460   [4]  00 00 28 00
 (050.686815)  can0  462   [4]  00 00 28 00
 (050.687013)  can0  464   [8]  04 68 AF 02 B2 02 75 00
 (051.007484)  can0  422   [1]  00
 (051.645379)  can0  460   [4]  00 00 28 00
 (051.645617)  can0  462   [4]  00 00 28 00
 (051.645818)  can0  464   [8]  04 68 AF 02 B2 02 75 00
 (052.008286)  can0  422   [1]  00
 (052.711962)  can0  460   [4]  0D 00 28 00
 (052.712187)  can0  462   [4]  0D 00 28 00
 (052.712398)  can0  464   [8]  04 68 AF 02 B2 02 75 00
 (053.009058)  can0  422   [1]  00
 (053.678927)  can0  460   [4]  0E 00 28 00
 (053.679156)  can0  462   [4]  0E 00 28 00
 (053.679364)  can0  464   [8]  03 68 AF 02 B2 02 75 00
 (054.009821)  can0  422   [1]  00
 (054.658241)  can0  460   [4]  06 00 28 00
 (054.658473)  can0  462   [4]  06 00 28 00
 (054.658692)  can0  464   [8]  03 68 AF 02 B2 02 75 00
 (055.010561)  can0  422   [1]  00
 (055.726968)  can0  460   [4]  04 00 28 00
 (055.727189)  can0  462   [4]  04 00 28 00
 (055.727391)  can0  464   [8]  03 68 AF 02 B2 02 75 00
 (056.011278)  can0  422   [1]  00
 (056.692494)  can0  460   [4]  06 00 28 00
 (056.692719)  can0  462   [4]  06 00 28 00
 (056.692920)  can0  464   [8]  03 68 AF 02 B2 02 75 00
 (057.011977)  can0  422   [1]  00
 (057.655815)  can0  460   [4]  00 00 28 00
 (057.656043)  can0  462   [4]  00 00 28 00
 (057.656246)  can0  464   [8]  03 68 AF 02 B2 02 75 00
 (058.012653)  can0  422   [1]  00
 (058.718470)  can0  460   [4]  00 00 28 00
 (058.718694)  can0  462   [4]  00 00 28 00
 (058.718897)  can0  464   [8]  03 68 AF 02 B2 02 75 00
 (059.013315)  can0  422   [1]  00
 (059.681644)  can0  460   [4]  00 00 28 00
 (059.681868)  can0  462   [4]  00 00 28 00
 (059.682072)  can0  464   [8]  03 68 AF 02 B2 02 75 00
 (060.013964)  can0  422   [1]  00
 (060.644244)  can0  460   [4]  00 00 28 00
 (060.644468)  can0  462   [4]  00 00 28 00
 (060.644672)  can0  464   [8]  03 68 AF 02 B2 02 75 00
 (061.014594)  can0  422   [1]  00
 (061.704879)  can0  460   [4]  00 00 28 00
 (061.705101)  can0  462   [4]  00 00 28 00
 (061.705302)  can0  464   [8]  03 68 AF 02 B2 02 75 00
 (062.015204)  can0  422   [1]  00
 (062.667688)  can0  460   [4]  00 00 28 00
 (062.667910)  can0  462   [4]  00 00 28 00
 (062.668112)  can0  464   [8]  03 68 AF 02 B2 02 75 00
 (063.015808)  can0  422   [1]  00
 (063.732274)  can0  460   [4]  00 00 28 00
 (063.732506)  can0  462   [4]  00 00 28 00
 (063.732714)  can0  464   [8]  03 68 AF 02 B2 02 75 00
 (064.016398)  can0  422   [1]  00
 (064.693181)  can0  460   [4]  00 00 28 00
 (064.693402)  can0  462   [4]  00 00 28 00
 (064.693605)  can0  464   [8]  03 68 AF 02 B2 02 75 00
 (065.016961)  can0  422   [1]  00
 (065.655232)  can0  460   [4]  06 00 28 00
 (065.655455)  can0  462   [4]  06 00 28 00
 (065.655655)  can0  464   [8]  03 68 AF 02 B2 02 75 00
 (066.017530)  can0  422   [1]  00
 (066.713865)  can0  460   [4]  00 00 28 00
 (066.714092)  can0  462   [4]  00 00 28 00
 (066.714305)  can0  464   [8]  03 68 AF 02 B2 02 75 00
 (067.018090)  can0  422   [1]  00
 (067.676035)  can0  460   [4]  00 00 28 00
 (067.676260)  can0  462   [4]  00 00 28 00
 (067.676462)  can0  464   [8]  03 68 AF 02 B2 02 75 00
 (068.018584)  can0  422   [1]  00
 (068.637802)  can0  460   [4]  00 00 28 00
 (068.638023)  can0  462   [4]  00 00 28 00
 (068.638224)  can0  464   [8]  03 68 AF 02 B2 02 75 00
 (069.019093)  can0  422   [1]  00
 (069.698406)  can0  460   [4]  00 00 28 00
 (069.698629)  can0  462   [4]  00 00 28 00
 (069.698830)  can0  464   [8]  03 68 AF 02 B2 02 75 00
 (070.019594)  can0  422   [1]  00
 (070.665398)  can0  460   [4]  00 00 28 00
 (070.665632)  can0  462   [4]  00 00 28 00
 (070.665837)  can0  464   [8]  03 68 AF 02 B2 02 75 00
 (071.020083)  can0  422   [1]  00
 (071.728195)  can0  460   [4]  00 00 28 00
 (071.728425)  can0  462   [4]  00 00 28 00
 (071.728635)  can0  464   [8]  03 68 AF 02 B2 02 75 00
 (072.020565)  can0  422   [1]  00
 (072.693089)  can0  460   [4]  00 00 28 00
 (072.693310)  can0  462   [4]  00 00 28 00
 (072.693512)  can0  464   [8]  03 68 AF 02 B2 02 75 00
 (073.021107)  can0  422   [1]  00
 (073.653881)  can0  460   [4]  00 00 28 00
 (073.654118)  can0  462   [4]  00 00 28 00
 (073.654324)  can0  464   [8]  03 68 AF 02 B2 02 75 00
 (074.021507)  can0  422   [1]  00
 (074.716769)  can0  460   [4]  00 00 28 00
 (074.716990)  can0  462   [4]  00 00 28 00
 (074.717192)  can0  464   [8]  03 68 AF 02 B2 02 75 00
 (075.021934)  can0  422   [1]  00
 (075.677720)  can0  460   [4]  06 00 28 00
 (075.677946)  can0  462   [4]  06 00 28 00
 (075.678148)  can0  464   [8]  03 68 AF 02 B2 02 75 00
 (076.022365)  can0  422   [1]  00
 (076.640344)  can0  460   [4]  06 00 28 00
 (076.640566)  can0  462   [4]  06 00 28 00
 (076.640766)  can0  464   [8]  03 68 AF 02 B2 02 75 00
 (077.022792)  can0  422   [1]  00
 (077.707093)  can0  460   [4]  00 00 28 00
 (077.707315)  can0  462   [4]  00 00 28 00
 (077.707514)  can0  464   [8]  03 68 AF 02 B2 02 75 00
 (078.023213)  can0  422   [1]  00
 (078.672158)  can0  460   [4]  00 00 28 00
 (078.672377)  can0  462   [4]  00 00 28 00
 (078.672574)  can0  464   [8]  03 68 AF 02 B2 02 75 00
 (079.023615)  can0  422   [1]  00
 (079.736883)  can0  460   [4]  06 00 28 00
 (079.737106)  can0  462   [4]  06 00 28 00
 (079.737321)  can0  464   [8]  03 68 AF 02 B2 02 75 00
 (080.024015)  can0  422   [1]  00
 (080.699758)  can0  460   [4]  00 00 28 00
 (080.699985)  can0  462   [4]  00 00 28 00
 (080.700194)  can0  464   [8]  03 68 AF 02 B2 02 75 00
 (081.024401)  can0  422   [1]  00
 (081.662088)  can0  460   [4]  06 00 28 00
 (081.662317)  can0  462   [4]  06 00 28 00
 (081.662525)  can0  464   [8]  03 68 AF 02 B2 02 75 00
 (082.024784)  can0  422   [1]  00
 (082.723975)  can0  460   [4]  00 00 28 00
 (082.724199)  can0  462   [4]  00 00 28 00
 (082.724408)  can0  464   [8]  03 68 AF 02 B2 02 75 00
 (083.025156)  can0  422   [1]  00
 (083.684080)  can0  460   [4]  00 00 28 00
 (083.684302)  can0  462   [4]  00 00 28 00
 (083.684503)  can0  464   [8]  03 68 AF 02 B2 02 75 00
 (084.025600)  can0  422   [1]  00
 (084.747721)  can0  460   [4]  00 00 28 00
 (084.747951)  can0  462   [4]  00 00 28 00
 (084.748166)  can0  464   [8]  03 68 AF 02 B2 02 75 00
 (085.025876)  can0  422   [1]  00
 (085.714255)  can0  460   [4]  08 00 28 00
 (085.714474)  can0  462   [4]  08 00 28 00
 (085.714678)  can0  464   [8]  03 68 AF 02 B2 02 75 00
 (086.026227)  can0  422   [1]  00
 (086.675009)  can0  460   [4]  04 00 28 00
 (086.675234)  can0  462   [4]  04 00 28 00
 (086.675443)  can0  464   [8]  03 68 AF 02 B3 02 75 00
 (087.026560)  can0  422   [1]  00
 (087.739144)  can0  460   [4]  00 00 28 00
 (087.739369)  can0  462   [4]  00 00 28 00
 (087.739579)  can0  464   [8]  03 68 AF 02 B3 02 75 00
 (088.026902)  can0  422   [1]  00
 (088.703755)  can0  460   [4]  00 00 28 00
 (088.703975)  can0  462   [4]  00 00 28 00
 (088.704176)  can0  464   [8]  03 68 AF 02 B3 02 75 00
 (089.027228)  can0  422   [1]  00
 (089.663999)  can0  460   [4]  00 00 28 00
 (089.664226)  can0  462   [4]  00 00 28 00
 (089.664431)  can0  464   [8]  03 68 AF 02 B3 02 75 00
 (090.027560)  can0  422   [1]  00
 (090.725983)  can0  460   [4]  00 00 28 00
 (090.726208)  can0  462   [4]  00 00 28 00
 (090.726421)  can0  464   [8]  03 68 AF 02 B3 02 75 00
 (091.027869)  can0  422   [1]  00
 (091.690573)  can0  460   [4]  00 00 28 00
 (091.690797)  can0  462   [4]  00 00 28 00
 (091.691001)  can0  464   [8]  03 68 AF 02 B3 02 75 00
 (092.028176)  can0  422   [1]  00
 (092.652940)  can0  460   [4]  00 00 28 00
 (092.653157)  can0  462   [4]  00 00 28 00
 (092.653356)  can0  464   [8]  03 68 AF 02 B3 02 75 00
 (093.028480)  can0  422   [1]  00
 (093.720971)  can0  460   [4]  00 00 28 00
 (093.721182)  can0  462   [4]  00 00 28 00
 (093.721370)  can0  464   [8]  03 68 AF 02 B3 02 75 00
 (094.028776)  can0  422   [1]  00
 (094.685381)  can0  460   [4]  00 00 28 00
 (094.685589)  can0  462   [4]  00 00 28 00
 (094.685782)  can0  464   [8]  03 68 AF 02 B3 02 75 00
 (095.029064)  can0  422   [1]  00
 (095.649392)  can0  460   [4]  00 00 28 00
 (095.649605)  can0  462   [4]  00 00 28 00
 (095.649796)  can0  464   [8]  03 68 AF 02 B3 02 75 00
 (096.029363)  can0  422   [1]  00
 (096.711453)  can0  460   [4]  00 00 28 00
 (096.711661)  can0  462   [4]  00 00 28 00
 (096.711847)  can0  464   [8]  03 68 AF 02 B3 02 75 00
 (097.029680)  can0  422   [1]  00
 (097.673577)  can0  460   [4]  00 00 28 00
 (097.673802)  can0  462   [4]  00 00 28 00
 (097.674006)  can0  464   [8]  03 68 AF 02 B3 02 75 00
 (098.029903)  can0  422   [1]  00
 (098.738690)  can0  460   [4]  00 00 28 00
 (098.738928)  can0  462   [4]  00 00 28 00
 (098.739135)  can0  464   [8]  03 68 AF 02 B3 02 75 00
 (099.030176)  can0  422   [1]  00
 (099.702850)  can0  460   [4]  00 00 28 00
 (099.703071)  can0  462   [4]  00 00 28 00
 (099.703272)  can0  464   [8]  03 68 AF 02 B3 02 75 00
 (100.030443)  can0  422   [1]  00
 (100.664987)  can0  460   [4]  00 00 28 00
 (100.665219)  can0  462   [4]  00 00 28 00
 (100.665419)  can0  464   [8]  03 68 AF 02 B3 02 75 00
 (101.030711)  can0  422   [1]  00
 (101.727454)  can0  460   [4]  00 00 28 00
 (101.727673)  can0  462   [4]  00 00 28 00
 (101.727871)  can0  464   [8]  03 68 AF 02 B3 02 75 00
 (102.030961)  can0  422   [1]  00
 (102.692769)  can0  460   [4]  00 00 28 00
 (102.692995)  can0  462   [4]  00 00 28 00
 (102.693196)  can0  464   [8]  03 68 AF 02 B3 02 75 00
 (103.031214)  can0  422   [1]  00
 (103.656909)  can0  460   [4]  00 00 28 00
 (103.657134)  can0  462   [4]  00 00 28 00
 (103.657341)  can0  464   [8]  03 68 AF 02 B3 02 75 00
 (104.031473)  can0  422   [1]  00
 (104.717318)  can0  460   [4]  00 00 28 00
 (104.717539)  can0  462   [4]  00 00 28 00
 (104.717745)  can0  464   [8]  03 68 AF 02 B3 02 75 00
 (105.031701)  can0  422   [1]  00
 (105.678025)  can0  460   [4]  00 00 28 00
 (105.678254)  can0  462   [4]  00 00 28 00
 (105.678462)  can0  464   [8]  03 68 AF 02 B3 02 75 00
 (106.031943)  can0  422   [1]  00
 (106.738182)  can0  460   [4]  00 00 28 00
 (106.738407)  can0  462   [4]  00 00 28 00
 (106.738615)  can0  464   [8]  03 68 AF 02 B3 02 75 00
 (107.032182)  can0  422   [1]  00
 (107.702848)  can0  460   [4]  00 00 28 00
 (107.703076)  can0  462   [4]  00 00 28 00
 (107.703285)  can0  464   [8]  03 68 AF 02 B3 02 75 00
 (108.032417)  can0  422   [1]  00
 (108.665218)  can0  460   [4]  00 00 28 00
 (108.665444)  can0  462   [4]  00 00 28 00
 (108.665655)  can0  464   [8]  03 68 AF 02 B3 02 75 00
 (109.032640)  can0  422   [1]  00
 (109.727931)  can0  460   [4]  00 00 28 00
 (109.728166)  can0  462   [4]  00 00 28 00
 (109.728378)  can0  464   [8]  03 68 AF 02 B3 02 75 00
 (110.032869)  can0  422   [1]  00
 (110.688683)  can0  460   [4]  00 00 28 00
 (110.688912)  can0  462   [4]  00 00 28 00
 (110.689119)  can0  464   [8]  03 68 AF 02 B3 02 75 00
 (111.033093)  can0  422   [1]  00
 (111.749125)  can0  460   [4]  00 00 28 00
 (111.749365)  can0  462   [4]  00 00 28 00
 (111.749569)  can0  464   [8]  03 68 AF 02 B3 02 75 00
 (112.033306)  can0  422   [1]  00
 (112.711417)  can0  460   [4]  00 00 28 00
 (112.711650)  can0  462   [4]  00 00 28 00
 (112.711854)  can0  464   [8]  03 68 AF 02 B3 02 75 00
 (113.033523)  can0  422   [1]  00
 (113.670284)  can0  460   [4]  00 00 28 00
 (113.670511)  can0  462   [4]  00 00 28 00
 (113.670713)  can0  464   [8]  03 68 AF 02 B3 02 75 00
 (114.033737)  can0  422   [1]  00
 (114.736596)  can0  460   [4]  00 00 28 00
 (114.736818)  can0  462   [4]  00 00 28 00
 (114.737019)  can0  464   [8]  03 68 AF 02 B3 02 75 00
 (115.033940)  can0  422   [1]  00
 (115.699373)  can0  460   [4]  00 00 28 00
 (115.699595)  can0  462   [4]  00 00 28 00
 (115.699797)  can0  464   [8]  03 68 AF 02 B3 02 75 00
 (116.034151)  can0  422   [1]  00
 (116.664089)  can0  460   [4]  00 00 28 00
 (116.664322)  can0  462   [4]  00 00 28 00
 (116.664523)  can0  464   [8]  03 68 AF 02 B3 02 75 00
 (117.034353)  can0  422   [1]  00
 (117.731140)  can0  460   [4]  00 00 28 00
 (117.731362)  can0  462   [4]  00 00 28 00
 (117.731565)  can0  464   [8]  03 68 AF 02 B3 02 75 00
 (118.034557)  can0  422   [1]  00
 (118.692140)  can0  460   [4]  00 00 28 00
 (118.692349)  can0  462   [4]  00 00 28 00
 (118.692539)  can0  464   [8]  03 68 AF 02 B3 02 75 00
 (119.034758)  can0  422   [1]  00
 (119.653022)  can0  460   [4]  00 00 28 00
 (119.653249)  can0  462   [4]  00 00 28 00
 (119.653453)  can0  464   [8]  03 68 AF 02 B3 02 75 00
 (120.034948)  can0  422   [1]  00
 (120.716275)  can0  460   [4]  00 00 28 00
 (120.716501)  can0  462   [4]  00 00 28 00
 (120.716711)  can0  464   [8]  03 68 AF 02 B3 02 75 00
 (121.035139)  can0  422   [1]  00
 (121.677110)  can0  460   [4]  00 00 28 00
 (121.677335)  can0  462   [4]  00 00 28 00
 (121.677533)  can0  464   [8]  03 68 AF 02 B3 02 75 00
 (122.035336)  can0  422   [1]  00
 (122.743509)  can0  460   [4]  00 00 28 00
 (122.743737)  can0  462   [4]  00 00 28 00
 (122.743940)  can0  464   [8]  03 68 AF 02 B3 02 75 00
 (123.035520)  can0  422   [1]  00
 (123.708302)  can0  460   [4]  00 00 28 00
 (123.708523)  can0  462   [4]  00 00 28 00
 (123.708725)  can0  464   [8]  03 68 AF 02 B3 02 75 00
 (124.035712)  can0  422   [1]  00
 (124.670957)  can0  460   [4]  00 00 28 00
 (124.671171)  can0  462   [4]  00 00 28 00
 (124.671362)  can0  464   [8]  03 68 AF 02 B3 02 75 00
 (125.035893)  can0  422   [1]  00
 (125.733576)  can0  460   [4]  2A 00 28 00
 (125.733783)  can0  462   [4]  2A 00 28 00
 (125.733977)  can0  464   [8]  02 68 AF 02 B2 02 75 00
 (126.036075)  can0  422   [1]  00
 (126.693255)  can0  460   [4]  16 00 29 00
 (126.693462)  can0  462   [4]  16 00 29 00
 (126.693651)  can0  464   [8]  01 68 AF 02 B2 02 75 00
