 (000.000000)  can0  460   [4]  00 00 00 00
 (000.000220)  can0  462   [4]  00 00 00 00
 (000.000417)  can0  464   [8]  F7 66 AF 02 7F FF 74 00
 (001.067873)  can0  460   [4]  00 00 00 00
 (001.068095)  can0  462   [4]  00 00 00 00
 (001.068291)  can0  464   [8]  F7 66 AF 02 7F FF 74 00
 (002.014476)  can0  460   [4]  00 00 00 00
 (002.014697)  can0  462   [4]  00 00 00 00
 (002.014893)  can0  464   [8]  F7 66 AF 02 7F FF 74 00
 (003.061512)  can0  460   [4]  00 00 00 00
 (003.061734)  can0  462   [4]  00 00 00 00
 (003.061928)  can0  464   [8]  F7 66 AF 02 7F FF 74 00
 (004.012296)  can0  460   [4]  00 00 00 00
 (004.012516)  can0  462   [4]  00 00 00 00
 (004.012713)  can0  464   [8]  F7 66 AF 02 7F FF 74 00
 (005.061945)  can0  460   [4]  00 00 00 00
 (005.062162)  can0  462   [4]  00 00 00 00
 (005.062355)  can0  464   [8]  F7 66 AF 02 7F FF 74 00
 (006.013629)  can0  460   [4]  00 00 00 00
 (006.013851)  can0  462   [4]  00 00 00 00
 (006.014053)  can0  464   [8]  F8 66 AF 02 9A FF 74 00
 (007.062272)  can0  460   [4]  00 00 00 00
 (007.062486)  can0  462   [4]  00 00 00 00
 (007.062678)  can0  464   [8]  F9 66 AF 02 B3 FF 74 00
 (008.010909)  can0  460   [4]  00 00 00 00
 (008.011122)  can0  462   [4]  00 00 00 00
 (008.011312)  can0  464   [8]  FB 66 AF 02 CB FF 74 00
 (009.061669)  can0  460   [4]  00 00 00 00
 (009.061888)  can0  462   [4]  00 00 00 00
 (009.062086)  can0  464   [8]  FC 66 AF 02 E2 FF 74 00
 (010.013639)  can0  460   [4]  00 00 00 00
 (010.013856)  can0  462   [4]  00 00 00 00
 (010.014050)  can0  464   [8]  FD 66 AF 02 F8 FF 74 00
 (011.065654)  can0  460   [4]  00 00 00 00
 (011.065881)  can0  462   [4]  00 00 00 00
 (011.066083)  can0  464   [8]  FE 66 AF 02 0D 00 75 00
 (012.019488)  can0  460   [4]  00 00 00 00
 (012.019706)  can0  462   [4]  00 00 00 00
 (012.019903)  can0  464   [8]  FF 66 AF 02 22 00 75 00
 (013.068136)  can0  460   [4]  00 00 00 00
 (013.068355)  can0  462   [4]  00 00 00 00
 (013.068547)  can0  464   [8]  01 67 AF 02 37 00 75 00
 (014.015882)  can0  460   [4]  00 00 00 00
 (014.016088)  can0  462   [4]  00 00 00 00
 (014.016269)  can0  464   [8]  02 67 AF 02 4B 00 75 00
 (015.068510)  can0  460   [4]  00 00 00 00
 (015.068728)  can0  462   [4]  00 00 00 00
 (015.068923)  can0  464   [8]  03 67 AF 02 60 00 75 00
 (016.017112)  can0  460   [4]  00 00 00 00
 (016.017331)  can0  462   [4]  00 00 00 00
 (016.017530)  can0  464   [8]  04 67 AF 02 74 00 75 00
 (017.064387)  can0  460   [4]  00 00 00 00
 (017.064601)  can0  462   [4]  00 00 00 00
 (017.064797)  can0  464   [8]  06 67 AF 02 88 00 75 00
 (018.010946)  can0  460   [4]  00 00 00 00
 (018.011156)  can0  462   [4]  00 00 00 00
 (018.011343)  can0  464   [8]  07 67 AF 02 9C 00 75 00
 (019.057553)  can0  460   [4]  00 00 00 00
 (019.057789)  can0  462   [4]  00 00 00 00
 (019.057987)  can0  464   [8]  A4 67 AF 02 5A 02 75 00
 (020.010246)  can0  460   [4]  00 00 00 00
 (020.010467)  can0  462   [4]  00 00 00 00
 (020.010668)  can0  464   [8]  A5 67 AF 02 5F 02 75 00
 (021.061866)  can0  460   [4]  00 00 00 00
 (021.062095)  can0  462   [4]  00 00 00 00
 (021.062291)  can0  464   [8]  A5 67 AF 02 5F 02 75 00
 (022.006622)  can0  460   [4]  00 00 00 00
 (022.006843)  can0  462   [4]  00 00 00 00
 (022.007041)  can0  464   [8]  A5 67 AF 02 5F 02 75 00
 (023.057406)  can0  460   [4]  00 00 00 00
 (023.057617)  can0  462   [4]  00 00 00 00
 (023.057810)  can0  464   [8]  A5 67 AF 02 5F 02 75 00
 (024.006335)  can0  460   [4]  00 00 00 00
 (024.006551)  can0  462   [4]  00 00 00 00
 (024.006745)  can0  464   [8]  A5 67 AF 02 5F 02 75 00
 (025.055381)  can0  460   [4]  00 00 00 00
 (025.055596)  can0  462   [4]  00 00 00 00
 (025.055796)  can0  464   [8]  A5 67 AF 02 5F 02 75 00
 (026.003160)  can0  460   [4]  00 00 00 00
 (026.003383)  can0  462   [4]  00 00 00 00
 (026.003580)  can0  464   [8]  A5 67 AF 02 5F 02 75 00
 (027.048906)  can0  460   [4]  00 00 00 00
 (027.049126)  can0  462   [4]  00 00 00 00
 (027.049325)  can0  464   [8]  A5 67 AF 02 5F 02 75 00
 (027.993735)  can0  460   [4]  00 00 00 00
 (027.993954)  can0  462   [4]  00 00 00 00
 (027.994145)  can0  464   [8]  A5 67 AF 02 5F 02 75 00
 (029.042951)  can0  460   [4]  00 00 00 00
 (029.043173)  can0  462   [4]  00 00 00 00
 (029.043368)  can0  464   [8]  A5 67 AF 02 5F 02 75 00
 (029.986291)  can0  460   [4]  00 00 00 00
 (029.986508)  can0  462   [4]  00 00 00 00
 (029.986707)  can0  464   [8]  A5 67 AF 02 5F 02 75 00
 (031.037179)  can0  460   [4]  00 00 00 00
 (031.037401)  can0  462   [4]  00 00 00 00
 (031.037596)  can0  464   [8]  A5 67 AF 02 5F 02 75 00
 (031.981996)  can0  460   [4]  00 00 00 00
 (031.982229)  can0  462   [4]  00 00 00 00
 (031.982426)  can0  464   [8]  A5 67 AF 02 5F 02 75 00
 (033.032196)  can0  460   [4]  00 00 00 00
 (033.032412)  can0  462   [4]  00 00 00 00
 (033.032609)  can0  464   [8]  A5 67 AF 02 5F 02 75 00
 (033.979157)  can0  460   [4]  00 00 00 00
 (033.979379)  can0  462   [4]  00 00 00 00
 (033.979572)  can0  464   [8]  A5 67 AF 02 5F 02 75 00
 (035.032206)  can0  460   [4]  00 00 00 00
 (035.032426)  can0  462   [4]  00 00 00 00
 (035.032619)  can0  464   [8]  A5 67 AF 02 5F 02 75 00
 (035.978823)  can0  460   [4]  00 00 00 00
 (035.979042)  can0  462   [4]  00 00 00 00
 (035.979242)  can0  464   [8]  A5 67 AF 02 5F 02 75 00
 (037.030920)  can0  460   [4]  00 00 00 00
 (037.031176)  can0  462   [4]  00 00 00 00
 (037.031367)  can0  464   [8]  A5 67 AF 02 5F 02 75 00
 (037.977653)  can0  460   [4]  00 00 00 00
 (037.977887)  can0  462   [4]  00 00 00 00
 (037.978084)  can0  464   [8]  A5 67 AF 02 5F 02 75 00
 (039.030088)  can0  460   [4]  00 00 00 00
 (039.030318)  can0  462   [4]  00 00 00 00
 (039.030516)  can0  464   [8]  A5 67 AF 02 5F 02 75 00
 (039.976245)  can0  460   [4]  00 00 00 00
 (039.976473)  can0  462   [4]  00 00 00 00
 (039.976663)  can0  464   [8]  A5 67 AF 02 5F 02 75 00
 (041.026740)  can0  460   [4]  00 00 00 00
 (041.026956)  can0  462   [4]  00 00 00 00
 (041.027151)  can0  464   [8]  A5 67 AF 02 5F 02 75 00
 (041.969881)  can0  460   [4]  00 00 00 00
 (041.970108)  can0  462   [4]  00 00 00 00
 (041.970307)  can0  464   [8]  A5 67 AF 02 5F 02 75 00
 (043.018252)  can0  460   [4]  00 00 00 00
 (043.018467)  can0  462   [4]  00 00 00 00
 (043.018657)  can0  464   [8]  A5 67 AF 02 5F 02 75 00
 (044.067701)  can0  460   [4]  00 00 00 00
 (044.067917)  can0  462   [4]  00 00 00 00
 (044.068112)  can0  464   [8]  A5 67 AF 02 5F 02 75 00
 (045.019309)  can0  460   [4]  00 00 00 00
 (045.019528)  can0  462   [4]  00 00 00 00
 (045.019721)  can0  464   [8]  A5 67 AF 02 5F 02 75 00
 (045.972671)  can0  460   [4]  00 00 00 00
 (045.972889)  can0  462   [4]  00 00 00 00
 (045.973086)  can0  464   [8]  A5 67 AF 02 5F 02 75 00
 (047.028460)  can0  460   [4]  00 00 00 00
 (047.028690)  can0  462   [4]  00 00 00 00
 (047.028880)  can0  464   [8]  A5 67 AF 02 5F 02 75 00
 (047.982607)  can0  460   [4]  00 00 00 00
 (047.982821)  can0  462   [4]  00 00 00 00
 (047.983026)  can0  464   [8]  A5 67 AF 02 5E 02 75 00
 (049.040247)  can0  460   [4]  12 00 00 00
 (049.040463)  can0  462   [4]  12 00 00 00
 (049.040656)  can0  464   [8]  A5 67 AF 02 5E 02 75 00
 (049.993094)  can0  460   [4]  00 00 00 00
 (049.993326)  can0  462   [4]  00 00 00 00
 (049.993522)  can0  464   [8]  A5 67 AF 02 5E 02 75 00
 (051.049411)  can0  460   [4]  00 00 00 00
 (051.049646)  can0  462   [4]  00 00 00 00
 (051.049835)  can0  464   [8]  A5 67 AF 02 5E 02 75 00
 (052.026065)  can0  460   [4]  00 00 00 00
 (052.026287)  can0  462   [4]  00 00 00 00
 (052.026488)  can0  464   [8]  A5 67 AF 02 5E 02 75 00
 (052.977432)  can0  460   [4]  00 00 00 00
 (052.977656)  can0  462   [4]  00 00 00 00
 (052.977852)  can0  464   [8]  A5 67 AF 02 5E 02 75 00
 (054.034178)  can0  460   [4]  00 00 00 00
 (054.034386)  can0  462   [4]  00 00 00 00
 (054.034578)  can0  464   [8]  A5 67 AF 02 5E 02 75 00
 (054.986925)  can0  460   [4]  00 00 00 00
 (054.987153)  can0  462   [4]  00 00 00 00
 (054.987352)  can0  464   [8]  A5 67 AF 02 5E 02 75 00
 (056.043176)  can0  460   [4]  00 00 00 00
 (056.043400)  can0  462   [4]  00 00 00 00
 (056.043595)  can0  464   [8]  A5 67 AF 02 5E 02 75 00
 (056.996059)  can0  460   [4]  00 00 00 00
 (056.996286)  can0  462   [4]  00 00 00 00
 (056.996481)  can0  464   [8]  A5 67 AF 02 5E 02 75 00
 (058.054669)  can0  460   [4]  12 00 00 00
 (058.054896)  can0  462   [4]  12 00 00 00
 (058.055092)  can0  464   [8]  A4 67 AF 02 5D 02 75 00
 (059.009039)  can0  460   [4]  00 00 00 00
 (059.009256)  can0  462   [4]  00 00 00 00
 (059.009455)  can0  464   [8]  A4 67 AF 02 5D 02 75 00
 (060.063593)  can0  460   [4]  00 00 00 00
 (060.063808)  can0  462   [4]  00 00 00 00
 (060.063998)  can0  464   [8]  A4 67 AF 02 5D 02 75 00
 (061.037924)  can0  460   [4]  00 00 00 00
 (061.038142)  can0  462   [4]  00 00 00 00
 (061.038336)  can0  464   [8]  A4 67 AF 02 5D 02 75 00
 (061.994540)  can0  460   [4]  00 00 00 00
 (061.994755)  can0  462   [4]  00 00 00 00
 (061.994950)  can0  464   [8]  A4 67 AF 02 5D 02 75 00
 (063.049234)  can0  460   [4]  12 00 00 00
 (063.049443)  can0  462   [4]  12 00 00 00
 (063.049632)  can0  464   [8]  A4 67 AF 02 5C 02 75 00
 (064.003884)  can0  460   [4]  00 00 00 00
 (064.004100)  can0  462   [4]  00 00 00 00
 (064.004288)  can0  464   [8]  A4 67 AF 02 5C 02 75 00
 (065.061450)  can0  460   [4]  00 00 00 00
 (065.061668)  can0  462   [4]  00 00 00 00
 (065.061861)  can0  464   [8]  A4 67 AF 02 5C 02 75 00
 (066.017860)  can0  460   [4]  00 00 00 00
 (066.018066)  can0  462   [4]  00 00 00 00
 (066.018247)  can0  464   [8]  A4 67 AF 02 5C 02 75 00
 (067.067457)  can0  460   [4]  00 00 00 00
 (067.067689)  can0  462   [4]  00 00 00 00
 (067.067880)  can0  464   [8]  A4 67 AF 02 5C 02 75 00
 (068.019348)  can0  460   [4]  00 00 00 00
 (068.019567)  can0  462   [4]  00 00 00 00
 (068.019760)  can0  464   [8]  A4 67 AF 02 5C 02 75 00
 (069.072277)  can0  460   [4]  00 00 00 00
 (069.072508)  can0  462   [4]  00 00 00 00
 (069.072705)  can0  464   [8]  A4 67 AF 02 5B 02 75 00
 (070.025959)  can0  460   [4]  00 00 00 00
 (070.026178)  can0  462   [4]  00 00 00 00
 (070.026376)  can0  464   [8]  A4 67 AF 02 5B 02 75 00
 (070.997651)  can0  460   [4]  00 00 00 00
 (070.997874)  can0  462   [4]  00 00 00 00
 (070.998071)  can0  464   [8]  A4 67 AF 02 5B 02 75 00
 (072.050491)  can0  460   [4]  00 00 00 00
 (072.050707)  can0  462   [4]  00 00 00 00
 (072.050901)  can0  464   [8]  A4 67 AF 02 5B 02 75 00
 (073.000394)  can0  460   [4]  00 00 00 00
 (073.000623)  can0  462   [4]  00 00 00 00
 (073.000821)  can0  464   [8]  A4 67 AF 02 5B 02 75 00
 (074.055125)  can0  460   [4]  00 00 00 00
 (074.055341)  can0  462   [4]  00 00 00 00
 (074.055530)  can0  464   [8]  A4 67 AF 02 5B 02 75 00
 (075.006974)  can0  460   [4]  00 00 00 00
 (075.007189)  can0  462   [4]  00 00 00 00
 (075.007382)  can0  464   [8]  A4 67 AF 02 5B 02 75 00
 (076.058908)  can0  460   [4]  00 00 00 00
 (076.059130)  can0  462   [4]  00 00 00 00
 (076.059328)  can0  464   [8]  A4 67 AF 02 5B 02 75 00
 (077.015933)  can0  460   [4]  00 00 00 00
 (077.016152)  can0  462   [4]  00 00 00 00
 (077.016345)  can0  464   [8]  A4 67 AF 02 5B 02 75 00
 (078.070845)  can0  460   [4]  00 00 00 00
 (078.071080)  can0  462   [4]  00 00 00 00
 (078.071277)  can0  464   [8]  A4 67 AF 02 5B 02 75 00
 (079.042605)  can0  460   [4]  00 00 00 00
 (079.042814)  can0  462   [4]  00 00 00 00
 (079.042996)  can0  464   [8]  A4 67 AF 02 5B 02 75 00
 (079.993207)  can0  460   [4]  00 00 00 00
 (079.993431)  can0  462   [4]  00 00 00 00
 (079.993624)  can0  464   [8]  A4 67 AF 02 5B 02 75 00
 (081.049743)  can0  460   [4]  12 00 00 00
 (081.049961)  can0  462   [4]  12 00 00 00
 (081.050154)  can0  464   [8]  A4 67 AF 02 5B 02 75 00
 (082.002394)  can0  460   [4]  00 00 00 00
 (082.002617)  can0  462   [4]  00 00 00 00
 (082.002812)  can0  464   [8]  A4 67 AF 02 5B 02 75 00
 (083.057150)  can0  460   [4]  00 00 00 00
 (083.057372)  can0  462   [4]  00 00 00 00
 (083.057565)  can0  464   [8]  A4 67 AF 02 5B 02 75 00
 (084.035025)  can0  460   [4]  00 00 00 00
 (084.035244)  can0  462   [4]  00 00 00 00
 (084.035436)  can0  464   [8]  A4 67 AF 02 5B 02 75 00
 (084.986362)  can0  460   [4]  00 00 00 00
 (084.986585)  can0  462   [4]  00 00 00 00
 (084.986792)  can0  464   [8]  A4 67 AF 02 5B 02 75 00
 (086.044173)  can0  460   [4]  00 00 00 00
 (086.044390)  can0  462   [4]  00 00 00 00
 (086.044586)  can0  464   [8]  A4 67 AF 02 5B 02 75 00
 (087.000107)  can0  460   [4]  00 00 00 00
 (087.000328)  can0  462   [4]  00 00 00 00
 (087.000524)  can0  464   [8]  A4 67 AF 02 5B 02 75 00
 (088.060027)  can0  460   [4]  00 00 00 00
 (088.060243)  can0  462   [4]  00 00 00 00
 (088.060437)  can0  464   [8]  A4 67 AF 02 5B 02 75 00
 (089.016331)  can0  460   [4]  00 00 00 00
 (089.016557)  can0  462   [4]  00 00 00 00
 (089.016751)  can0  464   [8]  A4 67 AF 02 5B 02 75 00
 (089.970739)  can0  460   [4]  00 00 00 00
 (089.970961)  can0  462   [4]  00 00 00 00
 (089.971161)  can0  464   [8]  A4 67 AF 02 5A 02 75 00
 (091.025616)  can0  460   [4]  00 00 00 00
 (091.025823)  can0  462   [4]  00 00 00 00
 (091.026015)  can0  464   [8]  A4 67 AF 02 5A 02 75 00
 (091.974577)  can0  460   [4]  00 00 00 00
 (091.974802)  can0  462   [4]  00 00 00 00
 (091.974994)  can0  464   [8]  A4 67 AF 02 5A 02 75 00
 (093.030687)  can0  460   [4]  00 00 00 00
 (093.030900)  can0  462   [4]  00 00 00 00
 (093.031095)  can0  464   [8]  A4 67 AF 02 5A 02 75 00
 (093.990119)  can0  460   [4]  00 00 00 00
 (093.990331)  can0  462   [4]  00 00 00 00
 (093.990515)  can0  464   [8]  A4 67 AF 02 5A 02 75 00
 (095.045339)  can0  460   [4]  00 00 00 00
 (095.045568)  can0  462   [4]  00 00 00 00
 (095.045762)  can0  464   [8]  A4 67 AF 02 5A 02 75 00
 (095.998986)  can0  460   [4]  00 00 00 00
 (095.999209)  can0  462   [4]  00 00 00 00
 (095.999405)  can0  464   [8]  A4 67 AF 02 5A 02 75 00
 (096.973761)  can0  460   [4]  00 00 00 00
 (096.973980)  can0  462   [4]  00 00 00 00
 (096.974177)  can0  464   [8]  A4 67 AF 02 5A 02 75 00
 (098.034619)  can0  460   [4]  00 00 00 00
 (098.034840)  can0  462   [4]  00 00 00 00
 (098.035033)  can0  464   [8]  A4 67 AF 02 5A 02 75 00
 (098.988304)  can0  460   [4]  00 00 00 00
 (098.988543)  can0  462   [4]  00 00 00 00
 (098.988738)  can0  464   [8]  A4 67 AF 02 5A 02 75 00
 (100.048231)  can0  460   [4]  00 00 00 00
 (100.048463)  can0  462   [4]  00 00 00 00
 (100.048658)  can0  464   [8]  A4 67 AF 02 5A 02 75 00
 (101.003782)  can0  460   [4]  00 00 00 00
 (101.004014)  can0  462   [4]  00 00 00 00
 (101.004207)  can0  464   [8]  A4 67 AF 02 5A 02 75 00
 (102.063391)  can0  460   [4]  00 00 00 00
 (102.063608)  can0  462   [4]  00 00 00 00
 (102.063803)  can0  464   [8]  A4 67 AF 02 5A 02 75 00
 (103.020340)  can0  460   [4]  00 00 00 00
 (103.020566)  can0  462   [4]  00 00 00 00
 (103.020760)  can0  464   [8]  A4 67 AF 02 5A 02 75 00
 (103.973107)  can0  460   [4]  00 00 00 00
 (103.973327)  can0  462   [4]  00 00 00 00
 (103.973524)  can0  464   [8]  A4 67 AF 02 5A 02 75 00
 (105.035271)  can0  460   [4]  00 00 00 00
 (105.035490)  can0  462   [4]  00 00 00 00
 (105.035688)  can0  464   [8]  A4 67 AF 02 5A 02 75 00
 (105.987875)  can0  460   [4]  00 00 00 00
 (105.988093)  can0  462   [4]  00 00 00 00
 (105.988289)  can0  464   [8]  A4 67 AF 02 5A 02 75 00
 (107.044934)  can0  460   [4]  00 00 00 00
 (107.045152)  can0  462   [4]  00 00 00 00
 (107.045345)  can0  464   [8]  A4 67 AF 02 5A 02 75 00
 (107.999984)  can0  460   [4]  00 00 00 00
 (108.000190)  can0  462   [4]  00 00 00 00
 (108.000378)  can0  464   [8]  A4 67 AF 02 5A 02 75 00
 (109.055269)  can0  460   [4]  00 00 00 00
 (109.055497)  can0  462   [4]  00 00 00 00
 (109.055693)  can0  464   [8]  A4 67 AF 02 5A 02 75 00
 (110.011641)  can0  460   [4]  00 00 00 00
 (110.011865)  can0  462   [4]  00 00 00 00
 (110.012058)  can0  464   [8]  A4 67 AF 02 5A 02 75 00
 (111.070188)  can0  460   [4]  00 00 00 00
 (111.070407)  can0  462   [4]  00 00 00 00
 (111.070603)  can0  464   [8]  A4 67 AF 02 5A 02 75 00
 (112.023972)  can0  460   [4]  00 00 00 00
 (112.024186)  can0  462   [4]  00 00 00 00
 (112.024385)  can0  464   [8]  A4 67 AF 02 5A 02 75 00
 (112.976839)  can0  460   [4]  00 00 00 00
 (112.977058)  can0  462   [4]  00 00 00 00
 (112.977257)  can0  464   [8]  A4 67 AF 02 5A 02 75 00
 (114.031892)  can0  460   [4]  00 00 00 00
 (114.032117)  can0  462   [4]  00 00 00 00
 (114.032311)  can0  464   [8]  A4 67 AF 02 5A 02 75 00
 (114.982460)  can0  460   [4]  00 00 00 00
 (114.982672)  can0  462   [4]  00 00 00 00
 (114.982868)  can0  464   [8]  A4 67 AF 02 5A 02 75 00
 (116.038054)  can0  460   [4]  00 00 00 00
 (116.038272)  can0  462   [4]  00 00 00 00
 (116.038474)  can0  464   [8]  A4 67 AF 02 5A 02 75 00
 (116.992789)  can0  460   [4]  00 00 00 00
 (116.993007)  can0  462   [4]  00 00 00 00
 (116.993204)  can0  464   [8]  A4 67 AF 02 5A 02 75 00
 (118.048545)  can0  460   [4]  00 00 00 00
 (118.048765)  can0  462   [4]  00 00 00 00
 (118.048961)  can0  464   [8]  A4 67 AF 02 5A 02 75 00
 (119.001853)  can0  460   [4]  00 00 00 00
 (119.002079)  can0  462   [4]  00 00 00 00
 (119.002277)  can0  464   [8]  A4 67 AF 02 5A 02 75 00
 (120.058979)  can0  460   [4]  00 00 00 00
 (120.059200)  can0  462   [4]  00 00 00 00
 (120.059397)  can0  464   [8]  A4 67 AF 02 5A 02 75 00
 (121.018114)  can0  460   [4]  00 00 00 00
 (121.018334)  can0  462   [4]  00 00 00 00
 (121.018528)  can0  464   [8]  A4 67 AF 02 5A 02 75 00
 (121.971378)  can0  460   [4]  00 00 00 00
 (121.971594)  can0  462   [4]  00 00 00 00
 (121.971787)  can0  464   [8]  A4 67 AF 02 5A 02 75 00
 (123.030382)  can0  460   [4]  00 00 00 00
 (123.030601)  can0  462   [4]  00 00 00 00
 (123.030795)  can0  464   [8]  A4 67 AF 02 5A 02 75 00
 (123.983695)  can0  460   [4]  00 00 00 00
 (123.983904)  can0  462   [4]  00 00 00 00
 (123.984094)  can0  464   [8]  A4 67 AF 02 5A 02 75 00
 (125.043849)  can0  460   [4]  00 00 00 00
 (125.044071)  can0  462   [4]  00 00 00 00
 (125.044270)  can0  464   [8]  A4 67 AF 02 5A 02 75 00
 (126.001446)  can0  460   [4]  00 00 00 00
 (126.001668)  can0  462   [4]  00 00 00 00
 (126.001863)  can0  464   [8]  A4 67 AF 02 5A 02 75 00
 (127.057991)  can0  460   [4]  00 00 00 00
 (127.058212)  can0  462   [4]  00 00 00 00
 (127.058410)  can0  464   [8]  A4 67 AF 02 5A 02 75 00
 (128.017273)  can0  460   [4]  00 00 00 00
 (128.017496)  can0  462   [4]  00 00 00 00
 (128.017692)  can0  464   [8]  A4 67 AF 02 5A 02 75 00
 (128.976153)  can0  460   [4]  00 00 00 00
 (128.976371)  can0  462   [4]  00 00 00 00
 (128.976567)  can0  464   [8]  A4 67 AF 02 5A 02 75 00
 (130.035942)  can0  460   [4]  00 00 00 00
 (130.036162)  can0  462   [4]  00 00 00 00
 (130.036355)  can0  464   [8]  A4 67 AF 02 5A 02 75 00
 (130.987216)  can0  460   [4]  00 00 00 00
 (130.987446)  can0  462   [4]  00 00 00 00
 (130.987639)  can0  464   [8]  A4 67 AF 02 5A 02 75 00
 (132.044247)  can0  460   [4]  00 00 00 00
 (132.044478)  can0  462   [4]  00 00 00 00
 (132.044673)  can0  464   [8]  A4 67 AF 02 5A 02 75 00
 (132.999457)  can0  460   [4]  00 00 00 00
 (132.999671)  can0  462   [4]  00 00 00 00
 (132.999863)  can0  464   [8]  A4 67 AF 02 5A 02 75 00
 (134.059814)  can0  460   [4]  00 00 00 00
 (134.060033)  can0  462   [4]  00 00 00 00
 (134.060230)  can0  464   [8]  A4 67 AF 02 5A 02 75 00
 (135.017292)  can0  460   [4]  00 00 00 00
 (135.017521)  can0  462   [4]  00 00 00 00
 (135.017717)  can0  464   [8]  A4 67 AF 02 5A 02 75 00
 (135.973782)  can0  460   [4]  00 00 00 00
 (135.974003)  can0  462   [4]  00 00 00 00
 (135.974203)  can0  464   [8]  A4 67 AF 02 5A 02 75 00
 (137.031031)  can0  460   [4]  00 00 00 00
 (137.031252)  can0  462   [4]  00 00 00 00
 (137.031450)  can0  464   [8]  A4 67 AF 02 5A 02 75 00
 (137.985994)  can0  460   [4]  00 00 00 00
 (137.986229)  can0  462   [4]  00 00 00 00
 (137.986427)  can0  464   [8]  A4 67 AF 02 5A 02 75 00
 (139.046252)  can0  460   [4]  00 00 00 00
 (139.046476)  can0  462   [4]  00 00 00 00
 (139.046669)  can0  464   [8]  A4 67 AF 02 5A 02 75 00
 (140.004165)  can0  460   [4]  00 00 00 00
 (140.004382)  can0  462   [4]  00 00 00 00
 (140.004581)  can0  464   [8]  A4 67 AF 02 5A 02 75 00
 (141.061194)  can0  460   [4]  00 00 00 00
 (141.061415)  can0  462   [4]  00 00 00 00
 (141.061609)  can0  464   [8]  A4 67 AF 02 5A 02 75 00
 (142.016687)  can0  460   [4]  00 00 00 00
 (142.016908)  can0  462   [4]  00 00 00 00
 (142.017105)  can0  464   [8]  A4 67 AF 02 5A 02 75 00
 (143.070795)  can0  460   [4]  00 00 00 00
 (143.071022)  can0  462   [4]  00 00 00 00
 (143.071222)  can0  464   [8]  A4 67 AF 02 5A 02 75 00
 (144.029948)  can0  460   [4]  00 00 00 00
 (144.030170)  can0  462   [4]  00 00 00 00
 (144.030371)  can0  464   [8]  A4 67 AF 02 5A 02 75 00
 (144.983130)  can0  460   [4]  00 00 00 00
 (144.983354)  can0  462   [4]  00 00 00 00
 (144.983553)  can0  464   [8]  A4 67 AF 02 5A 02 75 00
 (146.040599)  can0  460   [4]  00 00 00 00
 (146.040815)  can0  462   [4]  00 00 00 00
 (146.041012)  can0  464   [8]  A4 67 AF 02 5A 02 75 00
 (146.995459)  can0  460   [4]  00 00 00 00
 (146.995696)  can0  462   [4]  00 00 00 00
 (146.995895)  can0  464   [8]  A4 67 AF 02 5A 02 75 00
 (148.051779)  can0  460   [4]  00 00 00 00
 (148.051998)  can0  462   [4]  00 00 00 00
 (148.052193)  can0  464   [8]  A4 67 AF 02 5A 02 75 00
 (149.006656)  can0  460   [4]  00 00 00 00
 (149.006898)  can0  462   [4]  00 00 00 00
 (149.007095)  can0  464   [8]  A4 67 AF 02 5A 02 75 00
 (150.059785)  can0  460   [4]  00 00 00 00
 (150.060016)  can0  462   [4]  00 00 00 00
 (150.060215)  can0  464   [8]  A4 67 AF 02 5A 02 75 00
 (151.012787)  can0  460   [4]  00 00 00 00
 (151.013016)  can0  462   [4]  00 00 00 00
 (151.013206)  can0  464   [8]  A4 67 AF 02 5A 02 75 00
 (152.066006)  can0  460   [4]  00 00 00 00
 (152.066240)  can0  462   [4]  00 00 00 00
 (152.066431)  can0  464   [8]  A4 67 AF 02 5A 02 75 00
 (153.021022)  can0  460   [4]  00 00 00 00
 (153.021244)  can0  462   [4]  00 00 00 00
 (153.021442)  can0  464   [8]  A4 67 AF 02 5A 02 75 00
 (153.972691)  can0  460   [4]  00 00 00 00
 (153.972928)  can0  462   [4]  00 00 00 00
 (153.973127)  can0  464   [8]  A4 67 AF 02 5A 02 75 00
 (155.031876)  can0  460   [4]  00 00 00 00
 (155.032095)  can0  462   [4]  00 00 00 00
 (155.032290)  can0  464   [8]  A4 67 AF 02 5A 02 75 00
 (155.983198)  can0  460   [4]  00 00 00 00
 (155.983412)  can0  462   [4]  00 00 00 00
 (155.983599)  can0  464   [8]  A4 67 AF 02 5A 02 75 00
 (157.040083)  can0  460   [4]  00 00 00 00
 (157.040304)  can0  462   [4]  00 00 00 00
 (157.040496)  can0  464   [8]  A4 67 AF 02 5A 02 75 00
 (157.995273)  can0  460   [4]  00 00 00 00
 (157.995491)  can0  462   [4]  00 00 00 00
 (157.995686)  can0  464   [8]  A4 67 AF 02 5A 02 75 00
 (159.051467)  can0  460   [4]  00 00 00 00
 (159.051686)  can0  462   [4]  00 00 00 00
 (159.051880)  can0  464   [8]  A4 67 AF 02 5A 02 75 00
 (160.006554)  can0  460   [4]  00 00 00 00
 (160.006784)  can0  462   [4]  00 00 00 00
 (160.006983)  can0  464   [8]  A4 67 AF 02 5A 02 75 00
 (161.063580)  can0  460   [4]  00 00 00 00
 (161.063797)  can0  462   [4]  00 00 00 00
 (161.063994)  can0  464   [8]  A4 67 AF 02 5A 02 75 00
 (162.019508)  can0  460   [4]  00 00 00 00
 (162.019720)  can0  462   [4]  00 00 00 00
 (162.019917)  can0  464   [8]  A4 67 AF 02 5A 02 75 00
 (162.970472)  can0  460   [4]  00 00 00 00
 (162.970688)  can0  462   [4]  00 00 00 00
 (162.970892)  can0  464   [8]  A4 67 AF 02 5A 02 75 00
 (164.027658)  can0  460   [4]  00 00 00 00
 (164.027878)  can0  462   [4]  00 00 00 00
 (164.028078)  can0  464   [8]  A4 67 AF 02 5A 02 75 00
 (165.002390)  can0  460   [4]  00 00 00 00
 (165.002607)  can0  462   [4]  00 00 00 00
 (165.002797)  can0  464   [8]  A4 67 AF 02 5A 02 75 00
 (166.055048)  can0  460   [4]  00 00 00 00
 (166.055266)  can0  462   [4]  00 00 00 00
 (166.055458)  can0  464   [8]  A4 67 AF 02 5A 02 75 00
 (167.011797)  can0  460   [4]  00 00 00 00
 (167.012027)  can0  462   [4]  00 00 00 00
 (167.012223)  can0  464   [8]  A4 67 AF 02 5A 02 75 00
 (168.064301)  can0  460   [4]  00 00 00 00
 (168.064522)  can0  462   [4]  00 00 00 00
 (168.064715)  can0  464   [8]  A4 67 AF 02 5A 02 75 00
 (169.019394)  can0  460   [4]  00 00 00 00
 (169.019625)  can0  462   [4]  00 00 00 00
 (169.019817)  can0  464   [8]  A4 67 AF 02 5A 02 75 00
 (169.974609)  can0  460   [4]  00 00 00 00
 (169.974827)  can0  462   [4]  00 00 00 00
 (169.975032)  can0  464   [8]  A4 67 AF 02 59 02 75 00
 (171.032987)  can0  460   [4]  00 00 00 00
 (171.033197)  can0  462   [4]  00 00 00 00
 (171.033385)  can0  464   [8]  A4 67 AF 02 59 02 75 00
 (171.988068)  can0  460   [4]  00 00 00 00
 (171.988303)  can0  462   [4]  00 00 00 00
 (171.988501)  can0  464   [8]  A4 67 AF 02 59 02 75 00
 (173.045799)  can0  460   [4]  00 00 00 00
 (173.046039)  can0  462   [4]  00 00 00 00
 (173.046230)  can0  464   [8]  A3 67 AF 02 59 02 75 00
 (173.999575)  can0  460   [4]  00 00 00 00
 (173.999793)  can0  462   [4]  00 00 00 00
 (173.999991)  can0  464   [8]  A3 67 AF 02 59 02 75 00
 (175.056224)  can0  460   [4]  00 00 00 00
 (175.056440)  can0  462   [4]  00 00 00 00
 (175.056634)  can0  464   [8]  A3 67 AF 02 59 02 75 00
 (176.010938)  can0  460   [4]  00 00 00 00
 (176.011154)  can0  462   [4]  00 00 00 00
 (176.011347)  can0  464   [8]  A3 67 AF 02 59 02 75 00
 (177.065900)  can0  460   [4]  00 00 00 00
 (177.066116)  can0  462   [4]  00 00 00 00
 (177.066315)  can0  464   [8]  A3 67 AF 02 59 02 75 00
 (178.015291)  can0  460   [4]  00 00 00 00
 (178.015512)  can0  462   [4]  00 00 00 00
 (178.015706)  can0  464   [8]  A3 67 AF 02 58 02 75 00
 (179.066332)  can0  460   [4]  00 00 00 00
 (179.066547)  can0  462   [4]  00 00 00 00
 (179.066741)  can0  464   [8]  A3 67 AF 02 58 02 75 00
 (180.019761)  can0  460   [4]  00 00 00 00
 (180.019986)  can0  462   [4]  00 00 00 00
 (180.020179)  can0  464   [8]  A3 67 AF 02 58 02 75 00
 (181.072087)  can0  460   [4]  00 00 00 00
 (181.072297)  can0  462   [4]  00 00 00 00
 (181.072489)  can0  464   [8]  A3 67 AF 02 58 02 75 00
 (182.042983)  can0  460   [4]  00 00 00 00
 (182.043210)  can0  462   [4]  00 00 00 00
 (182.043405)  can0  464   [8]  A3 67 AF 02 58 02 75 00
 (182.991913)  can0  460   [4]  00 00 00 00
 (182.992141)  can0  462   [4]  00 00 00 00
 (182.992338)  can0  464   [8]  A3 67 AF 02 58 02 75 00
 (184.038702)  can0  460   [4]  00 00 00 00
 (184.038908)  can0  462   [4]  00 00 00 00
 (184.039104)  can0  464   [8]  A3 67 AF 02 58 02 75 00
 (184.989765)  can0  460   [4]  00 00 00 00
 (184.989987)  can0  462   [4]  00 00 00 00
 (184.990186)  can0  464   [8]  A3 67 AF 02 58 02 75 00
 (186.040894)  can0  460   [4]  00 00 00 00
 (186.041113)  can0  462   [4]  00 00 00 00
 (186.041311)  can0  464   [8]  A3 67 AF 02 58 02 75 00
 (186.988392)  can0  460   [4]  25 00 00 00
 (186.988612)  can0  462   [4]  25 00 00 00
 (186.988811)  can0  464   [8]  A3 67 AF 02 57 02 75 00
 (188.041192)  can0  460   [4]  CF 01 00 00
 (188.041413)  can0  462   [4]  CF 01 00 00
 (188.041608)  can0  464   [8]  A1 67 AF 02 48 02 75 00
 (188.990265)  can0  460   [4]  A9 01 02 00
 (188.990487)  can0  462   [4]  A9 01 02 00
 (188.990692)  can0  464   [8]  A1 67 AF 02 3B 02 75 00
 (190.039176)  can0  460   [4]  2B 02 03 00
 (190.039385)  can0  462   [4]  2B 02 03 00
 (190.039577)  can0  464   [8]  A1 67 AF 02 2A 02 75 00
 (190.988291)  can0  460   [4]  AD 02 05 00
 (190.988514)  can0  462   [4]  AD 02 05 00
 (190.988712)  can0  464   [8]  A0 67 AF 02 13 02 75 00
 (192.036477)  can0  460   [4]  41 03 07 00
 (192.036694)  can0  462   [4]  41 03 07 00
 (192.036896)  can0  464   [8]  A0 67 AF 02 F8 01 75 00
 (192.983641)  can0  460   [4]  C3 03 09 00
 (192.983864)  can0  462   [4]  C3 03 09 00
 (192.984066)  can0  464   [8]  A0 67 AF 02 D7 01 75 00
 (194.040401)  can0  460   [4]  57 04 0C 00
 (194.040624)  can0  462   [4]  57 04 0C 00
 (194.040819)  can0  464   [8]  A0 67 AF 02 B2 01 75 00
 (194.987362)  can0  460   [4]  EB 04 10 00
 (194.987576)  can0  462   [4]  EB 04 10 00
 (194.987769)  can0  464   [8]  A0 67 AF 02 87 01 75 00
 (196.037834)  can0  460   [4]  6D 05 13 00
 (196.038047)  can0  462   [4]  6D 05 13 00
 (196.038243)  can0  464   [8]  A0 67 AF 02 58 01 75 00
 (196.985504)  can0  460   [4]  13 06 17 00
 (196.985727)  can0  462   [4]  13 06 17 00
 (196.985924)  can0  464   [8]  A0 67 AF 02 23 01 75 00
 (198.035110)  can0  460   [4]  A7 06 1C 00
 (198.035323)  can0  462   [4]  A7 06 1C 00
 (198.035516)  can0  464   [8]  A0 67 AF 02 E8 00 75 00
 (198.981333)  can0  460   [4]  3C 07 21 00
 (198.981549)  can0  462   [4]  3C 07 21 00
 (198.981743)  can0  464   [8]  A1 67 AF 02 A9 00 75 00
 (200.028904)  can0  460   [4]  BD 07 26 00
 (200.029117)  can0  462   [4]  BD 07 26 00
 (200.029312)  can0  464   [8]  A1 67 AF 02 65 00 75 00
 (200.976857)  can0  460   [4]  1A 08 2C 00
 (200.977074)  can0  462   [4]  1A 08 2C 00
 (200.977274)  can0  464   [8]  A3 67 AF 02 1D 00 75 00
 (202.023137)  can0  460   [4]  AE 08 32 00
 (202.023356)  can0  462   [4]  AE 08 32 00
 (202.023556)  can0  464   [8]  A6 67 AF 02 D1 FF 74 00
 (203.068992)  can0  460   [4]  55 09 38 00
 (203.069211)  can0  462   [4]  55 09 38 00
 (203.069406)  can0  464   [8]  AD 67 AF 02 7F FF 74 00
 (204.017010)  can0  460   [4]  F7 02 3C 00
 (204.017224)  can0  462   [4]  F7 02 3C 00
 (204.017418)  can0  464   [8]  B0 67 AF 02 68 FF 74 00
 (205.065014)  can0  460   [4]  B0 03 3F 00
 (205.065233)  can0  462   [4]  B0 03 3F 00
 (205.065433)  can0  464   [8]  B4 67 AF 02 4A FF 74 00
 (206.013009)  can0  460   [4]  7C 04 42 00
 (206.013222)  can0  462   [4]  7C 04 42 00
 (206.013418)  can0  464   [8]  B9 67 AF 02 25 FF 74 00
 (207.056789)  can0  460   [4]  35 05 45 00
 (207.057003)  can0  462   [4]  35 05 45 00
 (207.057201)  can0  464   [8]  BF 67 AF 02 F9 FE 74 00
 (208.002579)  can0  460   [4]  03 01 47 00
 (208.002793)  can0  462   [4]  03 01 47 00
 (208.002988)  can0  464   [8]  C0 67 AF 02 F0 FE 74 00
 (209.056685)  can0  460   [4]  3A 01 48 00
 (209.056897)  can0  462   [4]  3A 01 48 00
 (209.057094)  can0  464   [8]  C1 67 AF 02 E6 FE 74 00
 (210.005149)  can0  460   [4]  72 01 49 00
 (210.005367)  can0  462   [4]  72 01 49 00
 (210.005570)  can0  464   [8]  C3 67 AF 02 DA FE 74 00
 (211.049233)  can0  460   [4]  97 01 4A 00
 (211.049447)  can0  462   [4]  97 01 4A 00
 (211.049643)  can0  464   [8]  C5 67 AF 02 CC FE 74 00
 (211.995129)  can0  460   [4]  CF 01 4B 00
 (211.995349)  can0  462   [4]  CF 01 4B 00
 (211.995546)  can0  464   [8]  C7 67 AF 02 BD FE 74 00
 (213.042837)  can0  460   [4]  19 02 4D 00
 (213.043052)  can0  462   [4]  19 02 4D 00
 (213.043253)  can0  464   [8]  CB 67 AF 02 AC FE 74 00
 (213.982995)  can0  460   [4]  E1 01 4E 00
 (213.983216)  can0  462   [4]  E1 01 4E 00
 (213.983414)  can0  464   [8]  CE 67 AF 02 9C FE 74 00
 (215.032782)  can0  460   [4]  3E 02 50 00
 (215.033000)  can0  462   [4]  3E 02 50 00
 (215.033195)  can0  464   [8]  D1 67 AF 02 8A FE 74 00
 (215.977753)  can0  460   [4]  88 02 51 00
 (215.977973)  can0  462   [4]  88 02 51 00
 (215.978167)  can0  464   [8]  D6 67 AF 02 75 FE 74 00
 (217.025732)  can0  460   [4]  94 00 53 00
 (217.025951)  can0  462   [4]  94 00 53 00
 (217.026155)  can0  464   [8]  D7 67 AF 02 70 FE 74 00
 (217.978166)  can0  460   [4]  4A 00 53 00
 (217.978387)  can0  462   [4]  4A 00 53 00
 (217.978593)  can0  464   [8]  D7 67 AF 02 6E FE 74 00
 (219.047543)  can0  460   [4]  25 00 53 00
 (219.047758)  can0  462   [4]  25 00 53 00
 (219.047955)  can0  464   [8]  D7 67 AF 02 6D FE 74 00
 (219.995367)  can0  460   [4]  12 00 53 00
 (219.995581)  can0  462   [4]  12 00 53 00
 (219.995777)  can0  464   [8]  D7 67 AF 02 6C FE 74 00
 (221.041152)  can0  460   [4]  12 00 53 00
 (221.041373)  can0  462   [4]  12 00 53 00
 (221.041577)  can0  464   [8]  D8 67 AF 02 6C FE 74 00
 (221.985346)  can0  460   [4]  00 00 53 00
 (221.985561)  can0  462   [4]  00 00 53 00
 (221.985755)  can0  464   [8]  D8 67 AF 02 6C FE 74 00
 (223.032981)  can0  460   [4]  00 00 53 00
 (223.033206)  can0  462   [4]  00 00 53 00
 (223.033401)  can0  464   [8]  D8 67 AF 02 6C FE 74 00
 (223.975008)  can0  460   [4]  00 00 53 00
 (223.975224)  can0  462   [4]  00 00 53 00
 (223.975431)  can0  464   [8]  D8 67 AF 02 6C FE 74 00
 (225.024773)  can0  460   [4]  00 00 53 00
 (225.024989)  can0  462   [4]  00 00 53 00
 (225.025188)  can0  464   [8]  D8 67 AF 02 6C FE 74 00
 (226.070506)  can0  460   [4]  00 00 53 00
 (226.070721)  can0  462   [4]  00 00 53 00
 (226.070915)  can0  464   [8]  D8 67 AF 02 6B FE 74 00
 (227.014664)  can0  460   [4]  00 00 53 00
 (227.014894)  can0  462   [4]  00 00 53 00
 (227.015090)  can0  464   [8]  D8 67 AF 02 6B FE 74 00
 (228.062608)  can0  460   [4]  00 00 53 00
 (228.062824)  can0  462   [4]  00 00 53 00
 (228.063030)  can0  464   [8]  D8 67 AF 02 6A FE 74 00
 (229.010152)  can0  460   [4]  12 00 53 00
 (229.010366)  can0  462   [4]  12 00 53 00
 (229.010563)  can0  464   [8]  D8 67 AF 02 6A FE 74 00
 (230.058541)  can0  460   [4]  12 00 53 00
 (230.058757)  can0  462   [4]  12 00 53 00
 (230.058952)  can0  464   [8]  D8 67 AF 02 69 FE 74 00
 (231.011218)  can0  460   [4]  12 00 53 00
 (231.011438)  can0  462   [4]  12 00 53 00
 (231.011639)  can0  464   [8]  D8 67 AF 02 68 FE 74 00
 (232.062029)  can0  460   [4]  25 00 53 00
 (232.062243)  can0  462   [4]  25 00 53 00
 (232.062438)  can0  464   [8]  D9 67 AF 02 67 FE 74 00
 (233.011921)  can0  460   [4]  25 00 53 00
 (233.012140)  can0  462   [4]  25 00 53 00
 (233.012334)  can0  464   [8]  D9 67 AF 02 65 FE 74 00
 (234.060879)  can0  460   [4]  25 00 54 00
 (234.061093)  can0  462   [4]  25 00 54 00
 (234.061289)  can0  464   [8]  D9 67 AF 02 63 FE 74 00
 (235.013388)  can0  460   [4]  25 00 54 00
 (235.013609)  can0  462   [4]  25 00 54 00
 (235.013804)  can0  464   [8]  D9 67 AF 02 63 FE 74 00
 (236.061911)  can0  460   [4]  12 00 54 00
 (236.062127)  can0  462   [4]  12 00 54 00
 (236.062326)  can0  464   [8]  DA 67 AF 02 62 FE 74 00
 (237.030144)  can0  460   [4]  00 00 54 00
 (237.030361)  can0  462   [4]  00 00 54 00
 (237.030554)  can0  464   [8]  DA 67 AF 02 62 FE 74 00
 (237.975077)  can0  460   [4]  00 00 54 00
 (237.975291)  can0  462   [4]  00 00 54 00
 (237.975488)  can0  464   [8]  DA 67 AF 02 62 FE 74 00
 (239.023428)  can0  460   [4]  00 00 54 00
 (239.023648)  can0  462   [4]  00 00 54 00
 (239.023844)  can0  464   [8]  DA 67 AF 02 62 FE 74 00
 (240.070110)  can0  460   [4]  00 00 54 00
 (240.070323)  can0  462   [4]  00 00 54 00
 (240.070525)  can0  464   [8]  DA 67 AF 02 62 FE 74 00
 (241.018760)  can0  460   [4]  00 00 54 00
 (241.018983)  can0  462   [4]  00 00 54 00
 (241.019177)  can0  464   [8]  DA 67 AF 02 62 FE 74 00
 (242.067539)  can0  460   [4]  00 00 54 00
 (242.067754)  can0  462   [4]  00 00 54 00
 (242.067950)  can0  464   [8]  DA 67 AF 02 62 FE 74 00
 (243.035896)  can0  460   [4]  00 00 54 00
 (243.036117)  can0  462   [4]  00 00 54 00
 (243.036315)  can0  464   [8]  DA 67 AF 02 62 FE 74 00
 (243.982492)  can0  460   [4]  00 00 54 00
 (243.982710)  can0  462   [4]  00 00 54 00
 (243.982906)  can0  464   [8]  DA 67 AF 02 62 FE 74 00
 (245.030702)  can0  460   [4]  00 00 54 00
 (245.030919)  can0  462   [4]  00 00 54 00
 (245.031113)  can0  464   [8]  DA 67 AF 02 62 FE 74 00
 (245.973405)  can0  460   [4]  00 00 54 00
 (245.973621)  can0  462   [4]  00 00 54 00
 (245.973812)  can0  464   [8]  DA 67 AF 02 62 FE 74 00
 (247.023769)  can0  460   [4]  00 00 54 00
 (247.023983)  can0  462   [4]  00 00 54 00
 (247.024179)  can0  464   [8]  DA 67 AF 02 62 FE 74 00
 (247.972111)  can0  460   [4]  00 00 54 00
 (247.972327)  can0  462   [4]  00 00 54 00
 (247.972525)  can0  464   [8]  DA 67 AF 02 62 FE 74 00
 (249.024885)  can0  460   [4]  00 00 54 00
 (249.025102)  can0  462   [4]  00 00 54 00
 (249.025298)  can0  464   [8]  DA 67 AF 02 62 FE 74 00
 (250.069383)  can0  460   [4]  00 00 54 00
 (250.069597)  can0  462   [4]  00 00 54 00
 (250.069791)  can0  464   [8]  DA 67 AF 02 62 FE 74 00
 (251.018847)  can0  460   [4]  00 00 54 00
 (251.019074)  can0  462   [4]  00 00 54 00
 (251.019273)  can0  464   [8]  DA 67 AF 02 62 FE 74 00
 (252.063289)  can0  460   [4]  00 00 54 00
 (252.063503)  can0  462   [4]  00 00 54 00
 (252.063697)  can0  464   [8]  DA 67 AF 02 61 FE 74 00
 (253.012312)  can0  460   [4]  12 00 54 00
 (253.012528)  can0  462   [4]  12 00 54 00
 (253.012722)  can0  464   [8]  DA 67 AF 02 61 FE 74 00
 (254.058850)  can0  460   [4]  00 00 54 00
 (254.059071)  can0  462   [4]  00 00 54 00
 (254.059267)  can0  464   [8]  DA 67 AF 02 61 FE 74 00
 (255.007262)  can0  460   [4]  00 00 54 00
 (255.007480)  can0  462   [4]  00 00 54 00
 (255.007676)  can0  464   [8]  DA 67 AF 02 61 FE 74 00
 (255.973815)  can0  460   [4]  00 00 54 00
 (255.974044)  can0  462   [4]  00 00 54 00
 (255.974241)  can0  464   [8]  DA 67 AF 02 61 FE 74 00
 (257.021697)  can0  460   [4]  00 00 54 00
 (257.021914)  can0  462   [4]  00 00 54 00
 (257.022112)  can0  464   [8]  DA 67 AF 02 61 FE 74 00
 (258.067677)  can0  460   [4]  00 00 54 00
 (258.067891)  can0  462   [4]  00 00 54 00
 (258.068084)  can0  464   [8]  DA 67 AF 02 61 FE 74 00
 (259.011934)  can0  460   [4]  00 00 54 00
 (259.012154)  can0  462   [4]  00 00 54 00
 (259.012351)  can0  464   [8]  DA 67 AF 02 61 FE 74 00
 (260.059972)  can0  460   [4]  00 00 54 00
 (260.060188)  can0  462   [4]  00 00 54 00
 (260.060386)  can0  464   [8]  DA 67 AF 02 61 FE 74 00
 (261.006004)  can0  460   [4]  00 00 54 00
 (261.006225)  can0  462   [4]  00 00 54 00
 (261.006417)  can0  464   [8]  DA 67 AF 02 61 FE 74 00
 (262.052138)  can0  460   [4]  12 00 54 00
 (262.052350)  can0  462   [4]  12 00 54 00
 (262.052547)  can0  464   [8]  DA 67 AF 02 60 FE 74 00
 (262.997208)  can0  460   [4]  12 00 54 00
 (262.997429)  can0  462   [4]  12 00 54 00
 (262.997625)  can0  464   [8]  DA 67 AF 02 5F FE 74 00
 (264.042924)  can0  460   [4]  00 00 54 00
 (264.043142)  can0  462   [4]  00 00 54 00
 (264.043342)  can0  464   [8]  DA 67 AF 02 5F FE 74 00
 (264.991975)  can0  460   [4]  00 00 54 00
 (264.992194)  can0  462   [4]  00 00 54 00
 (264.992392)  can0  464   [8]  DA 67 AF 02 5F FE 74 00
 (266.058174)  can0  460   [4]  00 00 54 00
 (266.058385)  can0  462   [4]  00 00 54 00
 (266.058580)  can0  464   [8]  DA 67 AF 02 5F FE 74 00
 (267.004414)  can0  460   [4]  00 00 54 00
 (267.004630)  can0  462   [4]  00 00 54 00
 (267.004827)  can0  464   [8]  DA 67 AF 02 5F FE 74 00
 (268.054345)  can0  460   [4]  00 00 54 00
 (268.054557)  can0  462   [4]  00 00 54 00
 (268.054750)  can0  464   [8]  DA 67 AF 02 5F FE 74 00
 (269.002955)  can0  460   [4]  00 00 54 00
 (269.003170)  can0  462   [4]  00 00 54 00
 (269.003362)  can0  464   [8]  DA 67 AF 02 5F FE 74 00
 (270.057487)  can0  460   [4]  00 00 54 00
 (270.057702)  can0  462   [4]  00 00 54 00
 (270.057900)  can0  464   [8]  DA 67 AF 02 5F FE 74 00
 (271.006206)  can0  460   [4]  00 00 54 00
 (271.006424)  can0  462   [4]  00 00 54 00
 (271.006619)  can0  464   [8]  DA 67 AF 02 5F FE 74 00
 (272.054800)  can0  460   [4]  00 00 54 00
 (272.055034)  can0  462   [4]  00 00 54 00
 (272.055230)  can0  464   [8]  DA 67 AF 02 5F FE 74 00
 (272.999486)  can0  460   [4]  00 00 54 00
 (272.999699)  can0  462   [4]  00 00 54 00
 (272.999897)  can0  464   [8]  DA 67 AF 02 5F FE 74 00
 (274.048624)  can0  460   [4]  00 00 54 00
 (274.048836)  can0  462   [4]  00 00 54 00
 (274.049029)  can0  464   [8]  DA 67 AF 02 5F FE 74 00
 (275.017928)  can0  460   [4]  00 00 54 00
 (275.018144)  can0  462   [4]  00 00 54 00
 (275.018339)  can0  464   [8]  DA 67 AF 02 5F FE 74 00
 (276.062350)  can0  460   [4]  00 00 54 00
 (276.062564)  can0  462   [4]  00 00 54 00
 (276.062763)  can0  464   [8]  DA 67 AF 02 5F FE 74 00
 (277.010879)  can0  460   [4]  00 00 54 00
 (277.011097)  can0  462   [4]  00 00 54 00
 (277.011293)  can0  464   [8]  DA 67 AF 02 5F FE 74 00
 (278.056966)  can0  460   [4]  00 00 54 00
 (278.057186)  can0  462   [4]  00 00 54 00
 (278.057380)  can0  464   [8]  DA 67 AF 02 5F FE 74 00
 (279.001211)  can0  460   [4]  00 00 54 00
 (279.001424)  can0  462   [4]  00 00 54 00
 (279.001622)  can0  464   [8]  DA 67 AF 02 5F FE 74 00
 (280.045317)  can0  460   [4]  00 00 54 00
 (280.045531)  can0  462   [4]  00 00 54 00
 (280.045724)  can0  464   [8]  DA 67 AF 02 5F FE 74 00
 (280.993658)  can0  460   [4]  00 00 54 00
 (280.993878)  can0  462   [4]  00 00 54 00
 (280.994074)  can0  464   [8]  DA 67 AF 02 5F FE 74 00
 (282.039665)  can0  460   [4]  00 00 54 00
 (282.039883)  can0  462   [4]  00 00 54 00
 (282.040080)  can0  464   [8]  DA 67 AF 02 5F FE 74 00
 (282.982215)  can0  460   [4]  00 00 54 00
 (282.982436)  can0  462   [4]  00 00 54 00
 (282.982632)  can0  464   [8]  DA 67 AF 02 5F FE 74 00
 (284.031989)  can0  460   [4]  00 00 54 00
 (284.032201)  can0  462   [4]  00 00 54 00
 (284.032400)  can0  464   [8]  DA 67 AF 02 5F FE 74 00
 (284.974181)  can0  460   [4]  00 00 54 00
 (284.974397)  can0  462   [4]  00 00 54 00
 (284.974596)  can0  464   [8]  DA 67 AF 02 5F FE 74 00
 (286.021826)  can0  460   [4]  00 00 54 00
 (286.022039)  can0  462   [4]  00 00 54 00
 (286.022239)  can0  464   [8]  DA 67 AF 02 5F FE 74 00
 (287.071985)  can0  460   [4]  00 00 54 00
 (287.072206)  can0  462   [4]  00 00 54 00
 (287.072401)  can0  464   [8]  DA 67 AF 02 5F FE 74 00
 (288.018025)  can0  460   [4]  00 00 54 00
 (288.018246)  can0  462   [4]  00 00 54 00
 (288.018449)  can0  464   [8]  DA 67 AF 02 5F FE 74 00
 (289.064289)  can0  460   [4]  00 00 54 00
 (289.064504)  can0  462   [4]  00 00 54 00
 (289.064701)  can0  464   [8]  DA 67 AF 02 5F FE 74 00
 (290.010478)  can0  460   [4]  00 00 54 00
 (290.010692)  can0  462   [4]  00 00 54 00
 (290.010893)  can0  464   [8]  DA 67 AF 02 5F FE 74 00
 (291.054370)  can0  460   [4]  00 00 54 00
 (291.054587)  can0  462   [4]  00 00 54 00
 (291.054778)  can0  464   [8]  DA 67 AF 02 5F FE 74 00
 (292.002405)  can0  460   [4]  00 00 54 00
 (292.002622)  can0  462   [4]  00 00 54 00
 (292.002817)  can0  464   [8]  DA 67 AF 02 5F FE 74 00
 (293.048468)  can0  460   [4]  00 00 54 00
 (293.048681)  can0  462   [4]  00 00 54 00
 (293.048882)  can0  464   [8]  DA 67 AF 02 5F FE 74 00
 (293.995457)  can0  460   [4]  00 00 54 00
 (293.995670)  can0  462   [4]  00 00 54 00
 (293.995865)  can0  464   [8]  DA 67 AF 02 5F FE 74 00
 (295.043903)  can0  460   [4]  00 00 54 00
 (295.044120)  can0  462   [4]  00 00 54 00
 (295.044321)  can0  464   [8]  DA 67 AF 02 5F FE 74 00
 (295.988306)  can0  460   [4]  00 00 54 00
 (295.988524)  can0  462   [4]  00 00 54 00
 (295.988717)  can0  464   [8]  DA 67 AF 02 5F FE 74 00
 (297.037791)  can0  460   [4]  00 00 54 00
 (297.038004)  can0  462   [4]  00 00 54 00
 (297.038205)  can0  464   [8]  DA 67 AF 02 5F FE 74 00
 (297.982270)  can0  460   [4]  00 00 54 00
 (297.982483)  can0  462   [4]  00 00 54 00
 (297.982677)  can0  464   [8]  DA 67 AF 02 5F FE 74 00
 (299.030980)  can0  460   [4]  00 00 54 00
 (299.031205)  can0  462   [4]  00 00 54 00
 (299.031400)  can0  464   [8]  DA 67 AF 02 5F FE 74 00
 (299.972944)  can0  460   [4]  00 00 54 00
 (299.973162)  can0  462   [4]  00 00 54 00
 (299.973359)  can0  464   [8]  DA 67 AF 02 5F FE 74 00
 (301.020716)  can0  460   [4]  00 00 54 00
 (301.020937)  can0  462   [4]  00 00 54 00
 (301.021130)  can0  464   [8]  DA 67 AF 02 5F FE 74 00
 (302.065072)  can0  460   [4]  00 00 54 00
 (302.065287)  can0  462   [4]  00 00 54 00
 (302.065486)  can0  464   [8]  DA 67 AF 02 5F FE 74 00
 (303.011276)  can0  460   [4]  00 00 54 00
 (303.011493)  can0  462   [4]  00 00 54 00
 (303.011689)  can0  464   [8]  DA 67 AF 02 5F FE 74 00
 (304.057476)  can0  460   [4]  00 00 54 00
 (304.057692)  can0  462   [4]  00 00 54 00
 (304.057887)  can0  464   [8]  DA 67 AF 02 5F FE 74 00
 (305.004933)  can0  460   [4]  00 00 54 00
 (305.005149)  can0  462   [4]  00 00 54 00
 (305.005346)  can0  464   [8]  DA 67 AF 02 5F FE 74 00
 (306.054181)  can0  460   [4]  00 00 54 00
 (306.054394)  can0  462   [4]  00 00 54 00
 (306.054590)  can0  464   [8]  DA 67 AF 02 5F FE 74 00
 (306.998603)  can0  460   [4]  00 00 54 00
 (306.998822)  can0  462   [4]  00 00 54 00
 (306.999038)  can0  464   [8]  DA 67 AF 02 5F FE 74 00
 (308.047253)  can0  460   [4]  00 00 54 00
 (308.047467)  can0  462   [4]  00 00 54 00
 (308.047664)  can0  464   [8]  DA 67 AF 02 5F FE 74 00
 (308.994898)  can0  460   [4]  00 00 54 00
 (308.995113)  can0  462   [4]  00 00 54 00
 (308.995313)  can0  464   [8]  DA 67 AF 02 5F FE 74 00
 (310.039042)  can0  460   [4]  00 00 54 00
 (310.039254)  can0  462   [4]  00 00 54 00
 (310.039447)  can0  464   [8]  DA 67 AF 02 5F FE 74 00
 (310.981562)  can0  460   [4]  00 00 54 00
 (310.981781)  can0  462   [4]  00 00 54 00
 (310.981979)  can0  464   [8]  DA 67 AF 02 5F FE 74 00
 (312.030676)  can0  460   [4]  00 00 54 00
 (312.030899)  can0  462   [4]  00 00 54 00
 (312.031099)  can0  464   [8]  DA 67 AF 02 5F FE 74 00
 (312.973432)  can0  460   [4]  00 00 54 00
 (312.973650)  can0  462   [4]  00 00 54 00
 (312.973850)  can0  464   [8]  DA 67 AF 02 5F FE 74 00
 (314.022564)  can0  460   [4]  00 00 54 00
 (314.022783)  can0  462   [4]  00 00 54 00
 (314.022982)  can0  464   [8]  DA 67 AF 02 5F FE 74 00
 (315.072397)  can0  460   [4]  00 00 54 00
 (315.072612)  can0  462   [4]  00 00 54 00
 (315.072809)  can0  464   [8]  DA 67 AF 02 5F FE 74 00
 (316.020367)  can0  460   [4]  00 00 54 00
 (316.020586)  can0  462   [4]  00 00 54 00
 (316.020784)  can0  464   [8]  DA 67 AF 02 5F FE 74 00
 (317.068359)  can0  460   [4]  00 00 54 00
 (317.068575)  can0  462   [4]  00 00 54 00
 (317.068778)  can0  464   [8]  DA 67 AF 02 5F FE 74 00
 (318.012510)  can0  460   [4]  00 00 54 00
 (318.012730)  can0  462   [4]  00 00 54 00
 (318.012926)  can0  464   [8]  DA 67 AF 02 5F FE 74 00
 (319.058841)  can0  460   [4]  00 00 54 00
 (319.059053)  can0  462   [4]  00 00 54 00
 (319.059249)  can0  464   [8]  DA 67 AF 02 5F FE 74 00
 (320.012372)  can0  460   [4]  00 00 54 00
 (320.012589)  can0  462   [4]  00 00 54 00
 (320.012784)  can0  464   [8]  DA 67 AF 02 5E FE 74 00
 (321.056601)  can0  460   [4]  00 00 54 00
 (321.056824)  can0  462   [4]  00 00 54 00
 (321.057019)  can0  464   [8]  DA 67 AF 02 5E FE 74 00
 (322.006448)  can0  460   [4]  00 00 54 00
 (322.006669)  can0  462   [4]  00 00 54 00
 (322.006866)  can0  464   [8]  DA 67 AF 02 5E FE 74 00
 (323.051891)  can0  460   [4]  00 00 54 00
 (323.052114)  can0  462   [4]  00 00 54 00
 (323.052312)  can0  464   [8]  DA 67 AF 02 5E FE 74 00
 (323.999988)  can0  460   [4]  00 00 54 00
 (324.000209)  can0  462   [4]  00 00 54 00
 (324.000404)  can0  464   [8]  DA 67 AF 02 5E FE 74 00
 (325.045874)  can0  460   [4]  00 00 54 00
 (325.046090)  can0  462   [4]  00 00 54 00
 (325.046287)  can0  464   [8]  DA 67 AF 02 5E FE 74 00
 (325.987918)  can0  460   [4]  00 00 54 00
 (325.988139)  can0  462   [4]  00 00 54 00
 (325.988337)  can0  464   [8]  DA 67 AF 02 5E FE 74 00
 (327.036594)  can0  460   [4]  00 00 54 00
 (327.036806)  can0  462   [4]  00 00 54 00
 (327.037002)  can0  464   [8]  DA 67 AF 02 5E FE 74 00
 (327.980966)  can0  460   [4]  00 00 54 00
 (327.981185)  can0  462   [4]  00 00 54 00
 (327.981381)  can0  464   [8]  DA 67 AF 02 5E FE 74 00
 (329.028832)  can0  460   [4]  00 00 54 00
 (329.029048)  can0  462   [4]  00 00 54 00
 (329.029242)  can0  464   [8]  DA 67 AF 02 5E FE 74 00
 (329.973359)  can0  460   [4]  00 00 54 00
 (329.973578)  can0  462   [4]  00 00 54 00
 (329.973777)  can0  464   [8]  DA 67 AF 02 5E FE 74 00
 (331.024906)  can0  460   [4]  00 00 54 00
 (331.025120)  can0  462   [4]  00 00 54 00
 (331.025318)  can0  464   [8]  DA 67 AF 02 5E FE 74 00
 (332.070766)  can0  460   [4]  00 00 54 00
 (332.070977)  can0  462   [4]  00 00 54 00
 (332.071169)  can0  464   [8]  DA 67 AF 02 5E FE 74 00
 (333.016849)  can0  460   [4]  00 00 54 00
 (333.017070)  can0  462   [4]  00 00 54 00
 (333.017265)  can0  464   [8]  DA 67 AF 02 5E FE 74 00
 (334.064435)  can0  460   [4]  00 00 54 00
 (334.064654)  can0  462   [4]  00 00 54 00
 (334.064855)  can0  464   [8]  DA 67 AF 02 5E FE 74 00
 (335.010478)  can0  460   [4]  00 00 54 00
 (335.010695)  can0  462   [4]  00 00 54 00
 (335.010893)  can0  464   [8]  DA 67 AF 02 5E FE 74 00
 (336.058397)  can0  460   [4]  00 00 54 00
 (336.058619)  can0  462   [4]  00 00 54 00
 (336.058817)  can0  464   [8]  DA 67 AF 02 5E FE 74 00
 (337.004552)  can0  460   [4]  00 00 54 00
 (337.004772)  can0  462   [4]  00 00 54 00
 (337.004969)  can0  464   [8]  DA 67 AF 02 5E FE 74 00
 (338.050574)  can0  460   [4]  00 00 54 00
 (338.050787)  can0  462   [4]  00 00 54 00
 (338.050984)  can0  464   [8]  DA 67 AF 02 5E FE 74 00
 (338.995026)  can0  460   [4]  00 00 54 00
 (338.995246)  can0  462   [4]  00 00 54 00
 (338.995440)  can0  464   [8]  DA 67 AF 02 5E FE 74 00
 (340.039262)  can0  460   [4]  00 00 54 00
 (340.039475)  can0  462   [4]  00 00 54 00
 (340.039675)  can0  464   [8]  DA 67 AF 02 5E FE 74 00
 (340.981662)  can0  460   [4]  00 00 54 00
 (340.981880)  can0  462   [4]  00 00 54 00
 (340.982075)  can0  464   [8]  DA 67 AF 02 5E FE 74 00
 (342.027278)  can0  460   [4]  00 00 54 00
 (342.027497)  can0  462   [4]  00 00 54 00
 (342.027699)  can0  464   [8]  DA 67 AF 02 5E FE 74 00
 (342.973320)  can0  460   [4]  00 00 54 00
 (342.973536)  can0  462   [4]  00 00 54 00
 (342.973730)  can0  464   [8]  DA 67 AF 02 5E FE 74 00
 (344.019583)  can0  460   [4]  00 00 54 00
 (344.019799)  can0  462   [4]  00 00 54 00
 (344.019994)  can0  464   [8]  DA 67 AF 02 5E FE 74 00
 (345.067621)  can0  460   [4]  00 00 54 00
 (345.067835)  can0  462   [4]  00 00 54 00
 (345.068033)  can0  464   [8]  DA 67 AF 02 5E FE 74 00
 (346.013757)  can0  460   [4]  00 00 54 00
 (346.013974)  can0  462   [4]  00 00 54 00
 (346.014170)  can0  464   [8]  DA 67 AF 02 5E FE 74 00
 (347.062191)  can0  460   [4]  00 00 54 00
 (347.062404)  can0  462   [4]  00 00 54 00
 (347.062599)  can0  464   [8]  DA 67 AF 02 5E FE 74 00
 (348.005763)  can0  460   [4]  00 00 54 00
 (348.005984)  can0  462   [4]  00 00 54 00
 (348.006179)  can0  464   [8]  DA 67 AF 02 5E FE 74 00
 (349.053395)  can0  460   [4]  00 00 54 00
 (349.053612)  can0  462   [4]  00 00 54 00
 (349.053812)  can0  464   [8]  DA 67 AF 02 5E FE 74 00
 (349.999246)  can0  460   [4]  00 00 54 00
 (349.999465)  can0  462   [4]  00 00 54 00
 (349.999659)  can0  464   [8]  DA 67 AF 02 5E FE 74 00
 (351.049183)  can0  460   [4]  00 00 54 00
 (351.049400)  can0  462   [4]  00 00 54 00
 (351.049595)  can0  464   [8]  DA 67 AF 02 5E FE 74 00
 (351.998372)  can0  460   [4]  00 00 54 00
 (351.998590)  can0  462   [4]  00 00 54 00
 (351.998787)  can0  464   [8]  DA 67 AF 02 5E FE 74 00
 (353.044399)  can0  460   [4]  00 00 54 00
 (353.044617)  can0  462   [4]  00 00 54 00
 (353.044817)  can0  464   [8]  DA 67 AF 02 5E FE 74 00
 (353.986908)  can0  460   [4]  00 00 54 00
 (353.987127)  can0  462   [4]  00 00 54 00
 (353.987329)  can0  464   [8]  DA 67 AF 02 5E FE 74 00
 (355.040624)  can0  460   [4]  00 00 54 00
 (355.040843)  can0  462   [4]  00 00 54 00
 (355.041038)  can0  464   [8]  DA 67 AF 02 5E FE 74 00
 (355.985733)  can0  460   [4]  00 00 54 00
 (355.985950)  can0  462   [4]  00 00 54 00
 (355.986144)  can0  464   [8]  DA 67 AF 02 5E FE 74 00
 (357.037528)  can0  460   [4]  00 00 54 00
 (357.037745)  can0  462   [4]  00 00 54 00
 (357.037939)  can0  464   [8]  DA 67 AF 02 5E FE 74 00
 (357.987142)  can0  460   [4]  00 00 54 00
 (357.987367)  can0  462   [4]  00 00 54 00
 (357.987564)  can0  464   [8]  DA 67 AF 02 5E FE 74 00
 (359.034973)  can0  460   [4]  00 00 54 00
 (359.035188)  can0  462   [4]  00 00 54 00
 (359.035388)  can0  464   [8]  DA 67 AF 02 5E FE 74 00
 (359.979260)  can0  460   [4]  00 00 54 00
 (359.979485)  can0  462   [4]  00 00 54 00
 (359.979684)  can0  464   [8]  DA 67 AF 02 5E FE 74 00
 (361.026867)  can0  460   [4]  00 00 54 00
 (361.027089)  can0  462   [4]  00 00 54 00
 (361.027286)  can0  464   [8]  DA 67 AF 02 5E FE 74 00
 (362.072653)  can0  460   [4]  00 00 54 00
 (362.072866)  can0  462   [4]  00 00 54 00
 (362.073059)  can0  464   [8]  DA 67 AF 02 5E FE 74 00
 (363.019722)  can0  460   [4]  00 00 54 00
 (363.019936)  can0  462   [4]  00 00 54 00
 (363.020129)  can0  464   [8]  DA 67 AF 02 5E FE 74 00
 (364.067463)  can0  460   [4]  00 00 54 00
 (364.067684)  can0  462   [4]  00 00 54 00
 (364.067883)  can0  464   [8]  DA 67 AF 02 5E FE 74 00
 (365.011687)  can0  460   [4]  12 00 54 00
 (365.011902)  can0  462   [4]  12 00 54 00
 (365.012097)  can0  464   [8]  DA 67 AF 02 5E FE 74 00
 (366.059824)  can0  460   [4]  12 00 54 00
 (366.060039)  can0  462   [4]  12 00 54 00
 (366.060233)  can0  464   [8]  DA 67 AF 02 5D FE 74 00
 (367.005414)  can0  460   [4]  00 00 54 00
 (367.005620)  can0  462   [4]  00 00 54 00
 (367.005805)  can0  464   [8]  DA 67 AF 02 5D FE 74 00
 (368.055956)  can0  460   [4]  12 00 54 00
 (368.056183)  can0  462   [4]  12 00 54 00
 (368.056380)  can0  464   [8]  DB 67 AF 02 5D FE 74 00
 (369.002516)  can0  460   [4]  12 00 54 00
 (369.002726)  can0  462   [4]  12 00 54 00
 (369.002922)  can0  464   [8]  DB 67 AF 02 5C FE 74 00
 (370.052557)  can0  460   [4]  12 00 54 00
 (370.052770)  can0  462   [4]  12 00 54 00
 (370.052968)  can0  464   [8]  DB 67 AF 02 5C FE 74 00
 (370.997078)  can0  460   [4]  12 00 54 00
 (370.997294)  can0  462   [4]  12 00 54 00
 (370.997487)  can0  464   [8]  DB 67 AF 02 5B FE 74 00
 (372.043468)  can0  460   [4]  12 00 54 00
 (372.043683)  can0  462   [4]  12 00 54 00
 (372.043876)  can0  464   [8]  DB 67 AF 02 5A FE 74 00
 (372.997215)  can0  460   [4]  12 00 54 00
 (372.997430)  can0  462   [4]  12 00 54 00
 (372.997621)  can0  464   [8]  DB 67 AF 02 5A FE 74 00
 (374.049609)  can0  460   [4]  00 00 54 00
 (374.049819)  can0  462   [4]  00 00 54 00
 (374.050005)  can0  464   [8]  DB 67 AF 02 5A FE 74 00
 (374.999128)  can0  460   [4]  00 00 54 00
 (374.999341)  can0  462   [4]  00 00 54 00
 (374.999542)  can0  464   [8]  DB 67 AF 02 5A FE 74 00
 (376.054442)  can0  460   [4]  00 00 54 00
 (376.055322)  can0  462   [4]  00 00 54 00
 (376.055563)  can0  464   [8]  DB 67 AF 02 5A FE 74 00
 (377.008083)  can0  460   [4]  25 00 54 00
 (377.008605)  can0  462   [4]  25 00 54 00
 (377.008845)  can0  464   [8]  DB 67 AF 02 59 FE 74 00
 (378.062492)  can0  460   [4]  25 00 54 00
 (378.063269)  can0  462   [4]  25 00 54 00
 (378.063527)  can0  464   [8]  DC 67 AF 02 57 FE 74 00
 (379.013115)  can0  460   [4]  37 00 55 00
 (379.013330)  can0  462   [4]  37 00 55 00
 (379.013579)  can0  464   [8]  DC 67 AF 02 55 FE 74 00
 (380.067325)  can0  460   [4]  4A 00 55 00
 (380.067536)  can0  462   [4]  4A 00 55 00
 (380.068004)  can0  464   [8]  DD 67 AF 02 53 FE 74 00
 (381.019683)  can0  460   [4]  12 00 55 00
 (381.020050)  can0  462   [4]  12 00 55 00
 (381.020305)  can0  464   [8]  DD 67 AF 02 52 FE 74 00
 (381.208129)  can0  421   [2]  00 00
 (381.279048)  can0  421   [2]  00 00
 (381.349982)  can0  421   [2]  00 00
 (381.420927)  can0  421   [2]  00 00
 (381.491860)  can0  421   [2]  00 00
 (381.562793)  can0  421   [2]  00 00
 (381.633735)  can0  421   [2]  00 00
 (381.704681)  can0  421   [2]  00 00
 (381.775600)  can0  421   [2]  00 00
 (381.846535)  can0  421   [2]  00 00
 (381.917464)  can0  421   [2]  00 00
 (381.988407)  can0  421   [2]  00 00
 (382.059334)  can0  421   [2]  00 00
 (382.071145)  can0  460   [4]  00 00 55 00
 (382.071331)  can0  462   [4]  00 00 55 00
 (382.071573)  can0  464   [8]  DD 67 AF 02 52 FE 74 00
 (382.130278)  can0  421   [2]  00 00
 (382.201216)  can0  421   [2]  00 00
 (382.272156)  can0  421   [2]  00 00
 (382.343076)  can0  421   [2]  00 00
 (382.414012)  can0  421   [2]  00 00
 (382.484952)  can0  421   [2]  00 00
 (382.555880)  can0  421   [2]  00 00
 (382.626823)  can0  421   [2]  00 00
 (382.697766)  can0  421   [2]  00 00
 (382.768679)  can0  421   [2]  00 00
 (382.839602)  can0  421   [2]  00 00
 (382.910529)  can0  421   [2]  00 00
 (382.981453)  can0  421   [2]  00 00
 (383.041396)  can0  460   [4]  00 00 55 00
 (383.041597)  can0  462   [4]  00 00 55 00
 (383.041791)  can0  464   [8]  DD 67 AF 02 52 FE 74 00
 (383.052481)  can0  421   [2]  00 00
 (383.123334)  can0  421   [2]  00 00
 (383.194262)  can0  421   [2]  00 00
 (383.265194)  can0  421   [2]  00 00
 (383.336138)  can0  421   [2]  00 00
 (383.407082)  can0  421   [2]  00 00
 (383.478027)  can0  421   [2]  00 00
 (383.548965)  can0  421   [2]  00 00
 (383.619902)  can0  421   [2]  00 00
 (383.690834)  can0  421   [2]  00 00
 (383.761785)  can0  421   [2]  00 00
 (383.832710)  can0  421   [2]  00 00
 (383.903637)  can0  421   [2]  00 00
 (383.974574)  can0  421   [2]  00 00
 (383.985928)  can0  460   [4]  00 00 55 00
 (383.986131)  can0  462   [4]  00 00 55 00
 (383.986375)  can0  464   [8]  DD 67 AF 02 52 FE 74 00
 (384.045527)  can0  421   [2]  00 00
 (384.116442)  can0  421   [2]  00 00
 (384.187389)  can0  421   [2]  00 00
 (384.258325)  can0  421   [2]  00 00
 (384.329265)  can0  421   [2]  00 00
 (384.400212)  can0  421   [2]  00 00
 (384.471149)  can0  421   [2]  00 00
 (384.542092)  can0  421   [2]  00 00
 (384.613032)  can0  421   [2]  00 00
 (384.683971)  can0  421   [2]  00 00
 (384.754935)  can0  421   [2]  00 00
 (384.825870)  can0  421   [2]  00 00
 (384.896796)  can0  421   [2]  00 00
 (384.967744)  can0  421   [2]  00 00
 (385.035481)  can0  460   [4]  00 00 55 00
 (385.035683)  can0  462   [4]  00 00 55 00
 (385.035922)  can0  464   [8]  DD 67 AF 02 52 FE 74 00
 (385.038662)  can0  421   [2]  00 00
 (385.109605)  can0  421   [2]  00 00
 (385.180572)  can0  421   [2]  00 00
 (385.251497)  can0  421   [2]  00 00
 (385.322422)  can0  421   [2]  00 00
 (385.393358)  can0  421   [2]  00 00
 (385.464297)  can0  421   [2]  00 00
 (385.535230)  can0  421   [2]  00 00
 (385.606175)  can0  421   [2]  00 00
 (385.677114)  can0  421   [2]  00 00
 (385.748068)  can0  421   [2]  00 00
 (385.819004)  can0  421   [2]  00 00
 (385.889939)  can0  421   [2]  00 00
 (385.960891)  can0  421   [2]  00 00
 (386.031828)  can0  421   [2]  00 00
 (386.102779)  can0  421   [2]  00 00
 (386.173716)  can0  421   [2]  00 00
 (386.244660)  can0  421   [2]  00 00
 (386.290860)  can0  460   [4]  00 00 55 00
 (386.291069)  can0  462   [4]  00 00 55 00
 (386.291260)  can0  464   [8]  DD 67 AF 02 52 FE 74 00
 (386.315610)  can0  421   [2]  00 00
 (386.386550)  can0  421   [2]  00 00
 (386.457474)  can0  421   [2]  00 00
 (386.528406)  can0  421   [2]  00 00
 (386.599344)  can0  421   [2]  00 00
 (386.670274)  can0  421   [2]  00 00
 (386.741206)  can0  421   [2]  00 00
 (386.812144)  can0  421   [2]  00 00
 (386.883081)  can0  421   [2]  00 00
 (386.954025)  can0  421   [2]  00 00
 (386.997395)  can0  460   [4]  00 00 55 00
 (386.997642)  can0  462   [4]  00 00 55 00
 (386.997876)  can0  464   [8]  DD 67 AF 02 52 FE 74 00
 (387.024969)  can0  421   [2]  00 00
 (387.095937)  can0  421   [2]  00 00
 (387.166884)  can0  421   [2]  00 00
 (387.237815)  can0  421   [2]  00 00
 (387.308744)  can0  421   [2]  00 00
 (387.379680)  can0  421   [2]  00 00
 (387.450624)  can0  421   [2]  00 00
 (387.521554)  can0  421   [2]  00 00
 (387.592488)  can0  421   [2]  00 00
 (387.663427)  can0  421   [2]  00 00
 (387.734372)  can0  421   [2]  00 00
 (387.805330)  can0  421   [2]  00 00
 (387.876256)  can0  421   [2]  00 00
 (387.947196)  can0  421   [2]  00 00
 (388.018136)  can0  421   [2]  00 00
 (388.047261)  can0  460   [4]  00 00 55 00
 (388.047468)  can0  462   [4]  00 00 55 00
 (388.047713)  can0  464   [8]  DD 67 AF 02 52 FE 74 00
 (388.089098)  can0  421   [2]  00 00
 (388.160042)  can0  421   [2]  00 00
 (388.230978)  can0  421   [2]  00 00
 (388.301915)  can0  421   [2]  00 00
 (388.372859)  can0  421   [2]  00 00
 (388.443805)  can0  421   [2]  00 00
 (388.514749)  can0  421   [2]  00 00
 (388.585702)  can0  421   [2]  00 00
 (388.656649)  can0  421   [2]  00 00
 (388.727594)  can0  421   [2]  00 00
 (388.798559)  can0  421   [2]  00 00
 (388.869482)  can0  421   [2]  00 00
 (388.940432)  can0  421   [2]  00 00
 (388.995648)  can0  460   [4]  00 00 55 00
 (388.995849)  can0  462   [4]  00 00 55 00
 (388.996094)  can0  464   [8]  DD 67 AF 02 52 FE 74 00
 (389.011354)  can0  421   [2]  00 00
 (389.082295)  can0  421   [2]  00 00
 (389.153257)  can0  421   [2]  00 00
 (389.224189)  can0  421   [2]  00 00
 (389.295127)  can0  421   [2]  00 00
 (389.366064)  can0  421   [2]  00 00
 (389.437011)  can0  421   [2]  00 00
 (389.507954)  can0  421   [2]  00 00
 (389.578891)  can0  421   [2]  00 00
 (389.649851)  can0  421   [2]  00 00
 (389.720796)  can0  421   [2]  00 00
 (389.791756)  can0  421   [2]  00 00
 (389.862704)  can0  421   [2]  00 00
 (389.933666)  can0  421   [2]  00 00
 (390.004634)  can0  421   [2]  00 00
 (390.041411)  can0  460   [4]  00 00 55 00
 (390.041609)  can0  462   [4]  00 00 55 00
 (390.041853)  can0  464   [8]  DD 67 AF 02 52 FE 74 00
 (390.075591)  can0  421   [2]  00 00
 (390.146558)  can0  421   [2]  00 00
 (390.217504)  can0  421   [2]  00 00
 (390.288432)  can0  421   [2]  00 00
 (390.359368)  can0  421   [2]  00 00
 (390.430295)  can0  421   [2]  00 00
 (390.501228)  can0  421   [2]  00 00
 (390.572162)  can0  421   [2]  00 00
 (390.643098)  can0  421   [2]  00 00
 (390.714038)  can0  421   [2]  00 00
 (390.784979)  can0  421   [2]  00 00
 (390.855916)  can0  421   [2]  00 00
 (390.926847)  can0  421   [2]  00 00
 (390.988532)  can0  460   [4]  00 00 55 00
 (390.988736)  can0  462   [4]  00 00 55 00
 (390.988927)  can0  464   [8]  DD 67 AF 02 52 FE 74 00
 (390.997776)  can0  421   [2]  00 00
 (391.068738)  can0  421   [2]  00 00
 (391.139673)  can0  421   [2]  00 00
 (391.210614)  can0  421   [2]  00 00
 (391.281547)  can0  421   [2]  00 00
 (391.352482)  can0  421   [2]  00 00
 (391.423429)  can0  421   [2]  00 00
 (391.494364)  can0  421   [2]  00 00
 (391.565298)  can0  421   [2]  00 00
 (391.636232)  can0  421   [2]  00 00
 (391.707173)  can0  421   [2]  00 00
 (391.778127)  can0  421   [2]  00 00
 (391.849087)  can0  421   [2]  00 00
 (391.920017)  can0  421   [2]  00 00
 (391.990961)  can0  421   [2]  00 00
 (392.035266)  can0  460   [4]  00 00 55 00
 (392.035475)  can0  462   [4]  00 00 55 00
 (392.035676)  can0  464   [8]  DD 67 AF 02 52 FE 74 00
 (392.061927)  can0  421   [2]  00 00
 (392.132833)  can0  421   [2]  00 00
 (392.203766)  can0  421   [2]  00 00
 (392.274693)  can0  421   [2]  00 00
 (392.345629)  can0  421   [2]  00 00
 (392.416574)  can0  421   [2]  00 00
 (392.487513)  can0  421   [2]  00 00
 (392.558452)  can0  421   [2]  00 00
 (392.629409)  can0  421   [2]  00 00
 (392.700359)  can0  421   [2]  00 00
 (392.771303)  can0  421   [2]  00 00
 (392.842261)  can0  421   [2]  00 00
 (392.913200)  can0  421   [2]  00 00
 (392.983821)  can0  460   [4]  00 00 55 00
 (392.984024)  can0  462   [4]  00 00 55 00
 (392.984215)  can0  421   [2]  00 00
 (392.984401)  can0  464   [8]  DD 67 AF 02 52 FE 74 00
 (393.055115)  can0  421   [2]  00 00
 (393.126055)  can0  421   [2]  00 00
 (393.196998)  can0  421   [2]  00 00
 (393.267923)  can0  421   [2]  00 00
 (393.338865)  can0  421   [2]  00 00
 (393.409811)  can0  421   [2]  00 00
 (393.480754)  can0  421   [2]  00 00
 (393.551691)  can0  421   [2]  00 00
 (393.622637)  can0  421   [2]  00 00
 (393.693578)  can0  421   [2]  00 00
 (393.764517)  can0  421   [2]  00 00
 (393.835475)  can0  421   [2]  00 00
 (393.906402)  can0  421   [2]  00 00
 (393.977345)  can0  421   [2]  00 00
 (394.033676)  can0  460   [4]  00 00 55 00
 (394.033883)  can0  462   [4]  00 00 55 00
 (394.034074)  can0  464   [8]  DD 67 AF 02 52 FE 74 00
 (394.048297)  can0  421   [2]  00 00
 (394.119234)  can0  421   [2]  00 00
 (394.190164)  can0  421   [2]  00 00
 (394.261100)  can0  421   [2]  00 00
 (394.332033)  can0  421   [2]  00 00
 (394.402970)  can0  421   [2]  00 00
 (394.473910)  can0  421   [2]  00 00
 (394.544845)  can0  421   [2]  00 00
 (394.615793)  can0  421   [2]  00 00
 (394.686728)  can0  421   [2]  00 00
 (394.757674)  can0  421   [2]  00 00
 (394.828621)  can0  421   [2]  00 00
 (394.899556)  can0  421   [2]  00 00
 (394.970484)  can0  421   [2]  00 00
 (394.982129)  can0  460   [4]  00 00 55 00
 (394.982324)  can0  462   [4]  00 00 55 00
 (394.982566)  can0  464   [8]  DD 67 AF 02 52 FE 74 00
 (395.041445)  can0  421   [2]  00 00
 (395.112371)  can0  421   [2]  00 00
 (395.183306)  can0  421   [2]  00 00
 (395.254251)  can0  421   [2]  00 00
 (395.325181)  can0  421   [2]  00 00
 (395.396110)  can0  421   [2]  00 00
 (395.467043)  can0  421   [2]  00 00
 (395.537973)  can0  421   [2]  00 00
 (395.608909)  can0  421   [2]  00 00
 (395.679843)  can0  421   [2]  00 00
 (395.750775)  can0  421   [2]  00 00
 (395.821712)  can0  421   [2]  00 00
 (395.892666)  can0  421   [2]  00 00
 (395.963594)  can0  421   [2]  00 00
 (396.031971)  can0  460   [4]  00 00 55 00
 (396.032175)  can0  462   [4]  00 00 55 00
 (396.032368)  can0  464   [8]  DD 67 AF 02 52 FE 74 00
 (396.034517)  can0  421   [2]  00 00
 (396.105490)  can0  421   [2]  00 00
 (396.176420)  can0  421   [2]  00 00
 (396.247369)  can0  421   [2]  00 00
 (396.318306)  can0  421   [2]  00 00
 (396.389236)  can0  421   [2]  00 00
 (396.460176)  can0  421   [2]  00 00
 (396.531105)  can0  421   [2]  00 00
 (396.602032)  can0  421   [2]  00 00
 (396.672964)  can0  421   [2]  00 00
 (396.743884)  can0  421   [2]  00 00
 (396.814818)  can0  421   [2]  00 00
 (396.885759)  can0  421   [2]  00 00
 (396.956679)  can0  421   [2]  00 00
 (396.975794)  can0  460   [4]  00 00 55 00
 (396.975996)  can0  462   [4]  00 00 55 00
 (396.976238)  can0  464   [8]  DD 67 AF 02 52 FE 74 00
 (397.027630)  can0  421   [2]  00 00
 (397.098550)  can0  421   [2]  00 00
 (397.169463)  can0  421   [2]  00 00
 (397.240400)  can0  421   [2]  00 00
 (397.311314)  can0  421   [2]  00 00
 (397.382229)  can0  421   [2]  00 00
 (397.453156)  can0  421   [2]  00 00
 (397.524086)  can0  421   [2]  00 00
 (397.595028)  can0  421   [2]  00 00
 (397.665950)  can0  421   [2]  00 00
 (397.736883)  can0  421   [2]  00 00
 (397.807820)  can0  421   [2]  00 00
 (397.878768)  can0  421   [2]  00 00
 (397.949696)  can0  421   [2]  00 00
 (398.020628)  can0  421   [2]  00 00
 (398.028878)  can0  460   [4]  00 00 55 00
 (398.029072)  can0  462   [4]  00 00 55 00
 (398.029312)  can0  464   [8]  DD 67 AF 02 52 FE 74 00
 (398.091609)  can0  421   [2]  00 00
 (398.162522)  can0  421   [2]  00 00
 (398.233445)  can0  421   [2]  00 00
 (398.304367)  can0  421   [2]  00 00
 (398.375292)  can0  421   [2]  00 00
 (398.446225)  can0  421   [2]  00 00
 (398.517142)  can0  421   [2]  00 00
 (398.588072)  can0  421   [2]  00 00
 (398.659004)  can0  421   [2]  00 00
 (398.729929)  can0  421   [2]  00 00
 (398.800861)  can0  421   [2]  00 00
 (398.871806)  can0  421   [2]  00 00
 (398.942747)  can0  421   [2]  00 00
 (398.977465)  can0  460   [4]  00 00 55 00
 (398.977660)  can0  462   [4]  00 00 55 00
 (398.977894)  can0  464   [8]  DD 67 AF 02 52 FE 74 00
 (399.013665)  can0  421   [2]  00 00
 (399.084595)  can0  421   [2]  00 00
 (399.155545)  can0  421   [2]  00 00
 (399.226475)  can0  421   [2]  00 00
 (399.297399)  can0  421   [2]  00 00
 (399.368335)  can0  421   [2]  00 00
 (399.439272)  can0  421   [2]  00 00
 (399.510192)  can0  421   [2]  00 00
 (399.581123)  can0  421   [2]  00 00
 (399.723004)  can0  421   [2]  00 00
 (399.793931)  can0  421   [2]  00 00
 (399.864867)  can0  421   [2]  00 00
 (399.935809)  can0  421   [2]  00 00
 (400.006730)  can0  421   [2]  00 00
 (400.028065)  can0  460   [4]  00 00 55 00
 (400.028263)  can0  462   [4]  00 00 55 00
 (400.028508)  can0  464   [8]  DD 67 AF 02 52 FE 74 00
 (400.077670)  can0  421   [2]  00 00
 (400.148610)  can0  421   [2]  00 00
 (400.219538)  can0  421   [2]  00 00
 (400.290474)  can0  421   [2]  00 00
 (400.361401)  can0  421   [2]  00 00
 (400.432332)  can0  421   [2]  00 00
 (400.503254)  can0  421   [2]  00 00
 (400.574172)  can0  421   [2]  00 00
 (400.645092)  can0  421   [2]  00 00
 (400.716022)  can0  421   [2]  00 00
 (400.786953)  can0  421   [2]  00 00
 (400.857886)  can0  421   [2]  00 00
 (400.928830)  can0  421   [2]  00 00
 (400.973885)  can0  460   [4]  00 00 55 00
 (400.974086)  can0  462   [4]  00 00 55 00
 (400.974281)  can0  464   [8]  DD 67 AF 02 52 FE 74 00
 (400.999750)  can0  421   [2]  00 00
 (401.070694)  can0  421   [2]  00 00
 (401.141623)  can0  421   [2]  00 00
 (401.212544)  can0  421   [2]  00 00
 (401.283482)  can0  421   [2]  00 00
 (401.354417)  can0  421   [2]  00 00
 (401.425355)  can0  421   [2]  00 00
 (401.496303)  can0  421   [2]  00 00
 (401.567248)  can0  421   [2]  00 00
 (401.638189)  can0  421   [2]  00 00
 (401.709139)  can0  421   [2]  00 00
 (401.780078)  can0  421   [2]  00 00
 (401.851021)  can0  421   [2]  00 00
 (401.921966)  can0  421   [2]  00 00
 (401.992894)  can0  421   [2]  00 00
 (402.019968)  can0  460   [4]  00 00 55 00
 (402.020169)  can0  462   [4]  00 00 55 00
 (402.020361)  can0  464   [8]  DD 67 AF 02 52 FE 74 00
 (402.063848)  can0  421   [2]  00 00
 (402.134780)  can0  421   [2]  00 00
 (402.205713)  can0  421   [2]  00 00
 (402.276654)  can0  421   [2]  00 00
 (402.347581)  can0  421   [2]  00 00
 (402.418523)  can0  421   [2]  00 00
 (402.489465)  can0  421   [2]  00 00
 (402.560395)  can0  421   [2]  00 00
 (402.631323)  can0  421   [2]  00 00
 (402.702260)  can0  421   [2]  00 00
 (402.773193)  can0  421   [2]  00 00
 (402.844135)  can0  421   [2]  00 00
 (402.915084)  can0  421   [2]  00 00
 (402.986014)  can0  421   [2]  00 00
 (403.056946)  can0  421   [2]  00 00
 (403.070651)  can0  460   [4]  00 00 55 00
 (403.070847)  can0  462   [4]  00 00 55 00
 (403.071092)  can0  464   [8]  DD 67 AF 02 52 FE 74 00
 (403.127911)  can0  421   [2]  00 00
 (403.198841)  can0  421   [2]  00 00
 (403.269790)  can0  421   [2]  00 00
 (403.340711)  can0  421   [2]  00 00
 (403.411646)  can0  421   [2]  00 00
 (403.482584)  can0  421   [2]  00 00
 (403.553521)  can0  421   [2]  00 00
 (403.624475)  can0  421   [2]  00 00
 (403.695421)  can0  421   [2]  00 00
 (403.766356)  can0  421   [2]  00 00
 (403.837295)  can0  421   [2]  00 00
 (403.908224)  can0  421   [2]  00 00
 (403.979182)  can0  421   [2]  00 00
 (404.022105)  can0  460   [4]  00 00 55 00
 (404.022299)  can0  462   [4]  00 00 55 00
 (404.022536)  can0  464   [8]  DD 67 AF 02 52 FE 74 00
 (404.050140)  can0  421   [2]  00 00
 (404.121066)  can0  421   [2]  00 00
 (404.191985)  can0  421   [2]  00 00
 (404.262930)  can0  421   [2]  00 00
 (404.333865)  can0  421   [2]  00 00
 (404.404780)  can0  421   [2]  00 00
 (404.475718)  can0  421   [2]  00 00
 (404.546651)  can0  421   [2]  00 00
 (404.617584)  can0  421   [2]  00 00
 (404.688523)  can0  421   [2]  00 00
 (404.759458)  can0  421   [2]  00 00
 (404.830401)  can0  421   [2]  00 00
 (404.901341)  can0  421   [2]  00 00
 (404.972288)  can0  421   [2]  00 00
 (405.043216)  can0  421   [2]  00 00
 (405.069802)  can0  460   [4]  00 00 55 00
 (405.070008)  can0  462   [4]  00 00 55 00
 (405.070252)  can0  464   [8]  DD 67 AF 02 52 FE 74 00
 (405.114165)  can0  421   [2]  00 00
 (405.185092)  can0  421   [2]  00 00
 (405.256023)  can0  421   [2]  00 00
 (405.326934)  can0  421   [2]  00 00
 (405.397862)  can0  421   [2]  00 00
 (405.468806)  can0  421   [2]  00 00
 (405.539724)  can0  421   [2]  00 00
 (405.610657)  can0  421   [2]  00 00
 (405.681596)  can0  421   [2]  00 00
 (405.752525)  can0  421   [2]  00 00
 (405.823450)  can0  421   [2]  00 00
 (405.894377)  can0  421   [2]  00 00
 (405.965321)  can0  421   [2]  00 00
 (406.022645)  can0  460   [4]  00 00 55 00
 (406.022845)  can0  462   [4]  00 00 55 00
 (406.023091)  can0  464   [8]  DD 67 AF 02 52 FE 74 00
 (406.036244)  can0  421   [2]  00 00
 (406.107202)  can0  421   [2]  00 00
 (406.178130)  can0  421   [2]  00 00
 (406.249070)  can0  421   [2]  00 00
 (406.319994)  can0  421   [2]  00 00
 (406.390918)  can0  421   [2]  00 00
 (406.461854)  can0  421   [2]  00 00
 (406.532785)  can0  421   [2]  00 00
 (406.603716)  can0  421   [2]  00 00
 (406.674656)  can0  421   [2]  00 00
 (406.745590)  can0  421   [2]  00 00
 (406.816533)  can0  421   [2]  00 00
 (406.887481)  can0  421   [2]  00 00
 (406.958433)  can0  421   [2]  00 00
 (407.029367)  can0  421   [2]  00 00
 (407.070098)  can0  460   [4]  00 00 55 00
 (407.070300)  can0  462   [4]  00 00 55 00
 (407.070494)  can0  464   [8]  DD 67 AF 02 52 FE 74 00
 (407.100329)  can0  421   [2]  00 00
 (407.171242)  can0  421   [2]  00 00
 (407.242168)  can0  421   [2]  00 00
 (407.313102)  can0  421   [2]  00 00
 (407.384014)  can0  421   [2]  00 00
 (407.454951)  can0  421   [2]  00 00
 (407.525874)  can0  421   [2]  00 00
 (407.596797)  can0  421   [2]  00 00
 (407.667714)  can0  421   [2]  00 00
 (407.738640)  can0  421   [2]  00 00
 (407.809572)  can0  421   [2]  00 00
 (407.880506)  can0  421   [2]  00 00
 (407.951426)  can0  421   [2]  00 00
 (408.019907)  can0  460   [4]  00 00 55 00
 (408.020118)  can0  462   [4]  00 00 55 00
 (408.020312)  can0  464   [8]  DD 67 AF 02 52 FE 74 00
 (408.022354)  can0  421   [2]  00 00
 (408.093326)  can0  421   [2]  00 00
 (408.164246)  can0  421   [2]  00 00
 (408.235168)  can0  421   [2]  00 00
 (408.306112)  can0  421   [2]  00 00
 (408.377042)  can0  421   [2]  00 00
 (408.447982)  can0  421   [2]  00 00
 (408.518925)  can0  421   [2]  00 00
 (408.589866)  can0  421   [2]  00 00
 (408.660803)  can0  421   [2]  00 00
 (408.731750)  can0  421   [2]  00 00
 (408.802674)  can0  421   [2]  00 00
 (408.873586)  can0  421   [2]  00 00
 (408.944501)  can0  421   [2]  00 00
 (409.015438)  can0  421   [2]  00 00
 (409.065080)  can0  460   [4]  00 00 55 00
 (409.065287)  can0  462   [4]  00 00 55 00
 (409.065479)  can0  464   [8]  DD 67 AF 02 52 FE 74 00
 (409.086359)  can0  421   [2]  00 00
 (409.157284)  can0  421   [2]  00 00
 (409.228188)  can0  421   [2]  00 00
 (409.370026)  can0  421   [2]  00 00
 (409.440926)  can0  421   [2]  00 00
 (409.511841)  can0  421   [2]  00 00
 (409.582742)  can0  421   [2]  00 00
 (409.653658)  can0  421   [2]  00 00
 (409.724570)  can0  421   [2]  00 00
 (409.795480)  can0  421   [2]  00 00
 (409.866391)  can0  421   [2]  00 00
 (409.937316)  can0  421   [2]  00 00
 (410.008240)  can0  421   [2]  00 00
 (410.014557)  can0  460   [4]  00 00 55 00
 (410.014751)  can0  462   [4]  00 00 55 00
 (410.014996)  can0  464   [8]  DD 67 AF 02 52 FE 74 00
 (410.079172)  can0  421   [2]  00 00
 (410.150075)  can0  421   [2]  00 00
 (410.220972)  can0  421   [2]  00 00
 (410.291885)  can0  421   [2]  00 00
 (410.362791)  can0  421   [2]  00 00
 (410.433705)  can0  421   [2]  00 00
 (410.504624)  can0  421   [2]  00 00
 (410.575532)  can0  421   [2]  00 00
 (410.646448)  can0  421   [2]  00 00
 (410.717358)  can0  421   [2]  00 00
 (410.788261)  can0  421   [2]  00 00
