 (000.000000)  can0  422   [1]  00 ::
GbData(
    GbGear: 0
)
 (000.523249)  can0  460   [4]  00 00 B0 0D ::
whereamiData(
    Speed: 0.0 km/h,
    Distance: 3504 m
)
 (000.523527)  can0  462   [4]  00 00 B0 0D ::
whereamiRawData(
    RawSpeed: 0.0 km/h,
    RawDistance: 3504 m
)
 (000.523768)  can0  464   [8]  FD 67 AF 02 4D 02 75 00 ::
whereamiCoords(
    Latitude: 45.049853 °,
    Longitude: 7.668301 °
)
 (001.000012)  can0  422   [1]  00 ::
GbData(
    GbGear: 0
)
 (001.531242)  can0  460   [4]  00 00 B0 0D ::
whereamiData(
    Speed: 0.0 km/h,
    Distance: 3504 m
)
 (001.531459)  can0  462   [4]  00 00 B0 0D ::
whereamiRawData(
    RawSpeed: 0.0 km/h,
    RawDistance: 3504 m
)
 (001.531658)  can0  464   [8]  FD 67 AF 02 4D 02 75 00 ::
whereamiCoords(
    Latitude: 45.049853 °,
    Longitude: 7.668301 °
)
 (002.000041)  can0  422   [1]  00 ::
GbData(
    GbGear: 0
)
 (002.537305)  can0  460   [4]  00 00 B0 0D ::
whereamiData(
    Speed: 0.0 km/h,
    Distance: 3504 m
)
 (002.537524)  can0  462   [4]  00 00 B0 0D ::
whereamiRawData(
    RawSpeed: 0.0 km/h,
    RawDistance: 3504 m
)
 (002.537719)  can0  464   [8]  FD 67 AF 02 4D 02 75 00 ::
whereamiCoords(
    Latitude: 45.049853 °,
    Longitude: 7.668301 °
)
 (003.000037)  can0  422   [1]  00 ::
GbData(
    GbGear: 0
)
 (003.543375)  can0  460   [4]  16 00 B0 0D ::
whereamiData(
    Speed: 0.22 km/h,
    Distance: 3504 m
)
 (003.543598)  can0  462   [4]  37 00 B0 0D ::
whereamiRawData(
    RawSpeed: 0.55 km/h,
    RawDistance: 3504 m
)
 (003.543797)  can0  464   [8]  FD 67 AF 02 50 02 75 00 ::
whereamiCoords(
    Latitude: 45.049853 °,
    Longitude: 7.668304 °
)
 (004.000044)  can0  422   [1]  00 ::
GbData(
    GbGear: 0
)
 (004.547427)  can0  460   [4]  1D 00 B0 0D ::
whereamiData(
    Speed: 0.29 km/h,
    Distance: 3504 m
)
 (004.547649)  can0  462   [4]  4A 00 B0 0D ::
whereamiRawData(
    RawSpeed: 0.74 km/h,
    RawDistance: 3504 m
)
 (004.547854)  can0  464   [8]  FD 67 AF 02 52 02 75 00 ::
whereamiCoords(
    Latitude: 45.049853 °,
    Longitude: 7.668305999999999 °
)
 (005.000057)  can0  422   [1]  00 ::
GbData(
    GbGear: 0
)
 (005.553486)  can0  460   [4]  0E 00 B0 0D ::
whereamiData(
    Speed: 0.14 km/h,
    Distance: 3504 m
)
 (005.553705)  can0  462   [4]  25 00 B0 0D ::
whereamiRawData(
    RawSpeed: 0.37 km/h,
    RawDistance: 3504 m
)
 (005.553910)  can0  464   [8]  FE 67 AF 02 51 02 75 00 ::
whereamiCoords(
    Latitude: 45.049853999999996 °,
    Longitude: 7.668304999999999 °
)
 (006.000064)  can0  422   [1]  00 ::
GbData(
    GbGear: 0
)
 (006.555547)  can0  460   [4]  07 00 B0 0D ::
whereamiData(
    Speed: 0.07 km/h,
    Distance: 3504 m
)
 (006.555770)  can0  462   [4]  12 00 B0 0D ::
whereamiRawData(
    RawSpeed: 0.18 km/h,
    RawDistance: 3504 m
)
 (006.555971)  can0  464   [8]  FE 67 AF 02 50 02 75 00 ::
whereamiCoords(
    Latitude: 45.049853999999996 °,
    Longitude: 7.668304 °
)
 (007.000075)  can0  422   [1]  00 ::
GbData(
    GbGear: 0
)
 (007.557601)  can0  460   [4]  00 00 B0 0D ::
whereamiData(
    Speed: 0.0 km/h,
    Distance: 3504 m
)
 (007.557825)  can0  462   [4]  00 00 B0 0D ::
whereamiRawData(
    RawSpeed: 0.0 km/h,
    RawDistance: 3504 m
)
 (007.558030)  can0  464   [8]  FF 67 AF 02 50 02 75 00 ::
whereamiCoords(
    Latitude: 45.049855 °,
    Longitude: 7.668304 °
)
 (008.000089)  can0  422   [1]  00 ::
GbData(
    GbGear: 0
)
 (008.561756)  can0  460   [4]  0E 00 B0 0D ::
whereamiData(
    Speed: 0.14 km/h,
    Distance: 3504 m
)
 (008.561976)  can0  462   [4]  25 00 B0 0D ::
whereamiRawData(
    RawSpeed: 0.37 km/h,
    RawDistance: 3504 m
)
 (008.562177)  can0  464   [8]  FE 67 AF 02 51 02 75 00 ::
whereamiCoords(
    Latitude: 45.049853999999996 °,
    Longitude: 7.668304999999999 °
)
 (009.000109)  can0  422   [1]  00 ::
GbData(
    GbGear: 0
)
 (009.563815)  can0  460   [4]  07 00 B0 0D ::
whereamiData(
    Speed: 0.07 km/h,
    Distance: 3504 m
)
 (009.564035)  can0  462   [4]  12 00 B0 0D ::
whereamiRawData(
    RawSpeed: 0.18 km/h,
    RawDistance: 3504 m
)
 (009.564237)  can0  464   [8]  FF 67 AF 02 50 02 75 00 ::
whereamiCoords(
    Latitude: 45.049855 °,
    Longitude: 7.668304 °
)
 (010.000115)  can0  422   [1]  00 ::
GbData(
    GbGear: 0
)
 (010.565880)  can0  460   [4]  16 00 B0 0D ::
whereamiData(
    Speed: 0.22 km/h,
    Distance: 3504 m
)
 (010.566103)  can0  462   [4]  37 00 B0 0D ::
whereamiRawData(
    RawSpeed: 0.55 km/h,
    RawDistance: 3504 m
)
 (010.566309)  can0  464   [8]  FE 67 AF 02 51 02 75 00 ::
whereamiCoords(
    Latitude: 45.049853999999996 °,
    Longitude: 7.668304999999999 °
)
 (011.000121)  can0  422   [1]  00 ::
GbData(
    GbGear: 0
)
 (011.571840)  can0  460   [4]  07 00 B0 0D ::
whereamiData(
    Speed: 0.07 km/h,
    Distance: 3504 m
)
 (011.572061)  can0  462   [4]  12 00 B0 0D ::
whereamiRawData(
    RawSpeed: 0.18 km/h,
    RawDistance: 3504 m
)
 (011.572262)  can0  464   [8]  FE 67 AF 02 51 02 75 00 ::
whereamiCoords(
    Latitude: 45.049853999999996 °,
    Longitude: 7.668304999999999 °
)
 (012.000136)  can0  422   [1]  00 ::
GbData(
    GbGear: 0
)
 (012.577893)  can0  460   [4]  00 00 B0 0D ::
whereamiData(
    Speed: 0.0 km/h,
    Distance: 3504 m
)
 (012.578113)  can0  462   [4]  00 00 B0 0D ::
whereamiRawData(
    RawSpeed: 0.0 km/h,
    RawDistance: 3504 m
)
 (012.578315)  can0  464   [8]  FF 67 AF 02 50 02 75 00 ::
whereamiCoords(
    Latitude: 45.049855 °,
    Longitude: 7.668304 °
)
 (013.000143)  can0  422   [1]  00 ::
GbData(
    GbGear: 0
)
 (013.585961)  can0  460   [4]  00 00 B0 0D ::
whereamiData(
    Speed: 0.0 km/h,
    Distance: 3504 m
)
 (013.586191)  can0  462   [4]  00 00 B0 0D ::
whereamiRawData(
    RawSpeed: 0.0 km/h,
    RawDistance: 3504 m
)
 (013.586394)  can0  464   [8]  FF 67 AF 02 50 02 75 00 ::
whereamiCoords(
    Latitude: 45.049855 °,
    Longitude: 7.668304 °
)
 (014.000153)  can0  422   [1]  00 ::
GbData(
    GbGear: 0
)
 (014.590018)  can0  460   [4]  00 00 B0 0D ::
whereamiData(
    Speed: 0.0 km/h,
    Distance: 3504 m
)
 (014.590247)  can0  462   [4]  00 00 B0 0D ::
whereamiRawData(
    RawSpeed: 0.0 km/h,
    RawDistance: 3504 m
)
 (014.590449)  can0  464   [8]  FF 67 AF 02 4F 02 75 00 ::
whereamiCoords(
    Latitude: 45.049855 °,
    Longitude: 7.668303 °
)
 (015.000150)  can0  422   [1]  00 ::
GbData(
    GbGear: 0
)
 (015.596066)  can0  460   [4]  00 00 B0 0D ::
whereamiData(
    Speed: 0.0 km/h,
    Distance: 3504 m
)
 (015.596293)  can0  462   [4]  00 00 B0 0D ::
whereamiRawData(
    RawSpeed: 0.0 km/h,
    RawDistance: 3504 m
)
 (015.596492)  can0  464   [8]  FF 67 AF 02 4F 02 75 00 ::
whereamiCoords(
    Latitude: 45.049855 °,
    Longitude: 7.668303 °
)
 (016.000160)  can0  422   [1]  00 ::
GbData(
    GbGear: 0
)
 (016.500561)  can0  460   [4]  00 00 B0 0D ::
whereamiData(
    Speed: 0.0 km/h,
    Distance: 3504 m
)
 (016.500785)  can0  462   [4]  00 00 B0 0D ::
whereamiRawData(
    RawSpeed: 0.0 km/h,
    RawDistance: 3504 m
)
 (016.500986)  can0  464   [8]  00 68 AF 02 4F 02 75 00 ::
whereamiCoords(
    Latitude: 45.049856 °,
    Longitude: 7.668303 °
)
 (017.000172)  can0  422   [1]  00 ::
GbData(
    GbGear: 0
)
 (017.506631)  can0  460   [4]  00 00 B0 0D ::
whereamiData(
    Speed: 0.0 km/h,
    Distance: 3504 m
)
 (017.506864)  can0  462   [4]  00 00 B0 0D ::
whereamiRawData(
    RawSpeed: 0.0 km/h,
    RawDistance: 3504 m
)
 (017.507064)  can0  464   [8]  00 68 AF 02 4F 02 75 00 ::
whereamiCoords(
    Latitude: 45.049856 °,
    Longitude: 7.668303 °
)
 (018.000168)  can0  422   [1]  00 ::
GbData(
    GbGear: 0
)
 (018.510678)  can0  460   [4]  00 00 B0 0D ::
whereamiData(
    Speed: 0.0 km/h,
    Distance: 3504 m
)
 (018.510905)  can0  462   [4]  00 00 B0 0D ::
whereamiRawData(
    RawSpeed: 0.0 km/h,
    RawDistance: 3504 m
)
 (018.511105)  can0  464   [8]  00 68 AF 02 4F 02 75 00 ::
whereamiCoords(
    Latitude: 45.049856 °,
    Longitude: 7.668303 °
)
 (019.000177)  can0  422   [1]  00 ::
GbData(
    GbGear: 0
)
 (019.514299)  can0  460   [4]  00 00 B0 0D ::
whereamiData(
    Speed: 0.0 km/h,
    Distance: 3504 m
)
 (019.514527)  can0  462   [4]  00 00 B0 0D ::
whereamiRawData(
    RawSpeed: 0.0 km/h,
    RawDistance: 3504 m
)
 (019.514727)  can0  464   [8]  00 68 AF 02 4F 02 75 00 ::
whereamiCoords(
    Latitude: 45.049856 °,
    Longitude: 7.668303 °
)
 (020.000186)  can0  422   [1]  00 ::
GbData(
    GbGear: 0
)
 (020.520345)  can0  460   [4]  00 00 B0 0D ::
whereamiData(
    Speed: 0.0 km/h,
    Distance: 3504 m
)
 (020.520567)  can0  462   [4]  00 00 B0 0D ::
whereamiRawData(
    RawSpeed: 0.0 km/h,
    RawDistance: 3504 m
)
 (020.520771)  can0  464   [8]  00 68 AF 02 4F 02 75 00 ::
whereamiCoords(
    Latitude: 45.049856 °,
    Longitude: 7.668303 °
)
 (021.000192)  can0  422   [1]  00 ::
GbData(
    GbGear: 0
)
 (021.524399)  can0  460   [4]  00 00 B0 0D ::
whereamiData(
    Speed: 0.0 km/h,
    Distance: 3504 m
)
 (021.524621)  can0  462   [4]  00 00 B0 0D ::
whereamiRawData(
    RawSpeed: 0.0 km/h,
    RawDistance: 3504 m
)
 (021.524818)  can0  464   [8]  00 68 AF 02 4F 02 75 00 ::
whereamiCoords(
    Latitude: 45.049856 °,
    Longitude: 7.668303 °
)
 (022.000199)  can0  422   [1]  00 ::
GbData(
    GbGear: 0
)
 (022.528470)  can0  460   [4]  00 00 B0 0D ::
whereamiData(
    Speed: 0.0 km/h,
    Distance: 3504 m
)
 (022.528686)  can0  462   [4]  00 00 B0 0D ::
whereamiRawData(
    RawSpeed: 0.0 km/h,
    RawDistance: 3504 m
)
 (022.528887)  can0  464   [8]  00 68 AF 02 4F 02 75 00 ::
whereamiCoords(
    Latitude: 45.049856 °,
    Longitude: 7.668303 °
)
 (023.000202)  can0  422   [1]  00 ::
GbData(
    GbGear: 0
)
 (023.534524)  can0  460   [4]  00 00 B0 0D ::
whereamiData(
    Speed: 0.0 km/h,
    Distance: 3504 m
)
 (023.534750)  can0  462   [4]  00 00 B0 0D ::
whereamiRawData(
    RawSpeed: 0.0 km/h,
    RawDistance: 3504 m
)
 (023.534953)  can0  464   [8]  00 68 AF 02 4F 02 75 00 ::
whereamiCoords(
    Latitude: 45.049856 °,
    Longitude: 7.668303 °
)
 (024.000213)  can0  422   [1]  00 ::
GbData(
    GbGear: 0
)
 (024.540571)  can0  460   [4]  00 00 B0 0D ::
whereamiData(
    Speed: 0.0 km/h,
    Distance: 3504 m
)
 (024.540797)  can0  462   [4]  00 00 B0 0D ::
whereamiRawData(
    RawSpeed: 0.0 km/h,
    RawDistance: 3504 m
)
 (024.541006)  can0  464   [8]  00 68 AF 02 4F 02 75 00 ::
whereamiCoords(
    Latitude: 45.049856 °,
    Longitude: 7.668303 °
)
 (025.000209)  can0  422   [1]  00 ::
GbData(
    GbGear: 0
)
 (025.544619)  can0  460   [4]  00 00 B0 0D ::
whereamiData(
    Speed: 0.0 km/h,
    Distance: 3504 m
)
 (025.544842)  can0  462   [4]  00 00 B0 0D ::
whereamiRawData(
    RawSpeed: 0.0 km/h,
    RawDistance: 3504 m
)
 (025.545041)  can0  464   [8]  00 68 AF 02 4F 02 75 00 ::
whereamiCoords(
    Latitude: 45.049856 °,
    Longitude: 7.668303 °
)
 (026.000221)  can0  422   [1]  00 ::
GbData(
    GbGear: 0
)
 (026.550729)  can0  460   [4]  00 00 B0 0D ::
whereamiData(
    Speed: 0.0 km/h,
    Distance: 3504 m
)
 (026.551022)  can0  462   [4]  00 00 B0 0D ::
whereamiRawData(
    RawSpeed: 0.0 km/h,
    RawDistance: 3504 m
)
 (026.551264)  can0  464   [8]  00 68 AF 02 4F 02 75 00 ::
whereamiCoords(
    Latitude: 45.049856 °,
    Longitude: 7.668303 °
)
 (027.000233)  can0  422   [1]  00 ::
GbData(
    GbGear: 0
)
 (027.554735)  can0  460   [4]  00 00 B0 0D ::
whereamiData(
    Speed: 0.0 km/h,
    Distance: 3504 m
)
 (027.554958)  can0  462   [4]  00 00 B0 0D ::
whereamiRawData(
    RawSpeed: 0.0 km/h,
    RawDistance: 3504 m
)
 (027.555163)  can0  464   [8]  00 68 AF 02 4F 02 75 00 ::
whereamiCoords(
    Latitude: 45.049856 °,
    Longitude: 7.668303 °
)
 (028.000233)  can0  422   [1]  00 ::
GbData(
    GbGear: 0
)
 (028.560788)  can0  460   [4]  00 00 B0 0D ::
whereamiData(
    Speed: 0.0 km/h,
    Distance: 3504 m
)
 (028.561016)  can0  462   [4]  00 00 B0 0D ::
whereamiRawData(
    RawSpeed: 0.0 km/h,
    RawDistance: 3504 m
)
 (028.561221)  can0  464   [8]  00 68 AF 02 4F 02 75 00 ::
whereamiCoords(
    Latitude: 45.049856 °,
    Longitude: 7.668303 °
)
 (029.000240)  can0  422   [1]  00 ::
GbData(
    GbGear: 0
)
 (029.566892)  can0  460   [4]  00 00 B0 0D ::
whereamiData(
    Speed: 0.0 km/h,
    Distance: 3504 m
)
 (029.567171)  can0  462   [4]  00 00 B0 0D ::
whereamiRawData(
    RawSpeed: 0.0 km/h,
    RawDistance: 3504 m
)
 (029.567416)  can0  464   [8]  00 68 AF 02 4F 02 75 00 ::
whereamiCoords(
    Latitude: 45.049856 °,
    Longitude: 7.668303 °
)
 (030.000252)  can0  422   [1]  00 ::
GbData(
    GbGear: 0
)
 (030.570890)  can0  460   [4]  00 00 B0 0D ::
whereamiData(
    Speed: 0.0 km/h,
    Distance: 3504 m
)
 (030.571116)  can0  462   [4]  00 00 B0 0D ::
whereamiRawData(
    RawSpeed: 0.0 km/h,
    RawDistance: 3504 m
)
 (030.571323)  can0  464   [8]  00 68 AF 02 4F 02 75 00 ::
whereamiCoords(
    Latitude: 45.049856 °,
    Longitude: 7.668303 °
)
 (031.000248)  can0  422   [1]  00 ::
GbData(
    GbGear: 0
)
 (031.572949)  can0  460   [4]  00 00 B0 0D ::
whereamiData(
    Speed: 0.0 km/h,
    Distance: 3504 m
)
 (031.573172)  can0  462   [4]  00 00 B0 0D ::
whereamiRawData(
    RawSpeed: 0.0 km/h,
    RawDistance: 3504 m
)
 (031.573373)  can0  464   [8]  00 68 AF 02 4F 02 75 00 ::
whereamiCoords(
    Latitude: 45.049856 °,
    Longitude: 7.668303 °
)
 (032.000250)  can0  422   [1]  00 ::
GbData(
    GbGear: 0
)
 (032.574996)  can0  460   [4]  00 00 B0 0D ::
whereamiData(
    Speed: 0.0 km/h,
    Distance: 3504 m
)
 (032.575221)  can0  462   [4]  00 00 B0 0D ::
whereamiRawData(
    RawSpeed: 0.0 km/h,
    RawDistance: 3504 m
)
 (032.575419)  can0  464   [8]  00 68 AF 02 4F 02 75 00 ::
whereamiCoords(
    Latitude: 45.049856 °,
    Longitude: 7.668303 °
)
 (033.000255)  can0  422   [1]  00 ::
GbData(
    GbGear: 0
)
 (033.579050)  can0  460   [4]  00 00 B0 0D ::
whereamiData(
    Speed: 0.0 km/h,
    Distance: 3504 m
)
 (033.579272)  can0  462   [4]  00 00 B0 0D ::
whereamiRawData(
    RawSpeed: 0.0 km/h,
    RawDistance: 3504 m
)
 (033.579474)  can0  464   [8]  00 68 AF 02 4F 02 75 00 ::
whereamiCoords(
    Latitude: 45.049856 °,
    Longitude: 7.668303 °
)
 (034.000257)  can0  422   [1]  00 ::
GbData(
    GbGear: 0
)
 (034.577100)  can0  460   [4]  00 00 B0 0D ::
whereamiData(
    Speed: 0.0 km/h,
    Distance: 3504 m
)
 (034.577328)  can0  462   [4]  00 00 B0 0D ::
whereamiRawData(
    RawSpeed: 0.0 km/h,
    RawDistance: 3504 m
)
 (034.577530)  can0  464   [8]  00 68 AF 02 4F 02 75 00 ::
whereamiCoords(
    Latitude: 45.049856 °,
    Longitude: 7.668303 °
)
 (035.000258)  can0  422   [1]  00 ::
GbData(
    GbGear: 0
)
 (035.579156)  can0  460   [4]  00 00 B0 0D ::
whereamiData(
    Speed: 0.0 km/h,
    Distance: 3504 m
)
 (035.579382)  can0  462   [4]  00 00 B0 0D ::
whereamiRawData(
    RawSpeed: 0.0 km/h,
    RawDistance: 3504 m
)
 (035.579582)  can0  464   [8]  00 68 AF 02 4F 02 75 00 ::
whereamiCoords(
    Latitude: 45.049856 °,
    Longitude: 7.668303 °
)
 (036.000264)  can0  422   [1]  00 ::
GbData(
    GbGear: 0
)
 (036.577206)  can0  460   [4]  00 00 B0 0D ::
whereamiData(
    Speed: 0.0 km/h,
    Distance: 3504 m
)
 (036.577434)  can0  462   [4]  00 00 B0 0D ::
whereamiRawData(
    RawSpeed: 0.0 km/h,
    RawDistance: 3504 m
)
 (036.577632)  can0  464   [8]  00 68 AF 02 4F 02 75 00 ::
whereamiCoords(
    Latitude: 45.049856 °,
    Longitude: 7.668303 °
)
 (037.000267)  can0  422   [1]  00 ::
GbData(
    GbGear: 0
)
 (037.579265)  can0  460   [4]  00 00 B0 0D ::
whereamiData(
    Speed: 0.0 km/h,
    Distance: 3504 m
)
 (037.579487)  can0  462   [4]  00 00 B0 0D ::
whereamiRawData(
    RawSpeed: 0.0 km/h,
    RawDistance: 3504 m
)
 (037.579693)  can0  464   [8]  00 68 AF 02 4F 02 75 00 ::
whereamiCoords(
    Latitude: 45.049856 °,
    Longitude: 7.668303 °
)
 (038.000267)  can0  422   [1]  00 ::
GbData(
    GbGear: 0
)
 (038.581309)  can0  460   [4]  00 00 B0 0D ::
whereamiData(
    Speed: 0.0 km/h,
    Distance: 3504 m
)
 (038.581536)  can0  462   [4]  00 00 B0 0D ::
whereamiRawData(
    RawSpeed: 0.0 km/h,
    RawDistance: 3504 m
)
 (038.581734)  can0  464   [8]  00 68 AF 02 4F 02 75 00 ::
whereamiCoords(
    Latitude: 45.049856 °,
    Longitude: 7.668303 °
)
 (039.000273)  can0  422   [1]  00 ::
GbData(
    GbGear: 0
)
 (039.585456)  can0  460   [4]  09 00 B0 0D ::
whereamiData(
    Speed: 0.09 km/h,
    Distance: 3504 m
)
 (039.585686)  can0  462   [4]  12 00 B0 0D ::
whereamiRawData(
    RawSpeed: 0.18 km/h,
    RawDistance: 3504 m
)
 (039.585879)  can0  464   [8]  FF 67 AF 02 50 02 75 00 ::
whereamiCoords(
    Latitude: 45.049855 °,
    Longitude: 7.668304 °
)
 (040.000269)  can0  422   [1]  00 ::
GbData(
    GbGear: 0
)
 (040.585516)  can0  460   [4]  12 00 B0 0D ::
whereamiData(
    Speed: 0.18 km/h,
    Distance: 3504 m
)
 (040.585743)  can0  462   [4]  25 00 B0 0D ::
whereamiRawData(
    RawSpeed: 0.37 km/h,
    RawDistance: 3504 m
)
 (040.585941)  can0  464   [8]  FF 67 AF 02 50 02 75 00 ::
whereamiCoords(
    Latitude: 45.049855 °,
    Longitude: 7.668304 °
)
 (041.000266)  can0  422   [1]  00 ::
GbData(
    GbGear: 0
)
 (041.593477)  can0  460   [4]  09 00 B0 0D ::
whereamiData(
    Speed: 0.09 km/h,
    Distance: 3504 m
)
 (041.593705)  can0  462   [4]  12 00 B0 0D ::
whereamiRawData(
    RawSpeed: 0.18 km/h,
    RawDistance: 3504 m
)
 (041.593905)  can0  464   [8]  FF 67 AF 02 50 02 75 00 ::
whereamiCoords(
    Latitude: 45.049855 °,
    Longitude: 7.668304 °
)
 (042.000273)  can0  422   [1]  00 ::
GbData(
    GbGear: 0
)
 (042.599535)  can0  460   [4]  12 00 B0 0D ::
whereamiData(
    Speed: 0.18 km/h,
    Distance: 3504 m
)
 (042.599763)  can0  462   [4]  25 00 B0 0D ::
whereamiRawData(
    RawSpeed: 0.37 km/h,
    RawDistance: 3504 m
)
 (042.599969)  can0  464   [8]  FE 67 AF 02 51 02 75 00 ::
whereamiCoords(
    Latitude: 45.049853999999996 °,
    Longitude: 7.668304999999999 °
)
 (043.000276)  can0  422   [1]  00 ::
GbData(
    GbGear: 0
)
 (043.504182)  can0  460   [4]  1B 00 B0 0D ::
whereamiData(
    Speed: 0.27 km/h,
    Distance: 3504 m
)
 (043.504406)  can0  462   [4]  37 00 B0 0D ::
whereamiRawData(
    RawSpeed: 0.55 km/h,
    RawDistance: 3504 m
)
 (043.504609)  can0  464   [8]  FE 67 AF 02 55 02 75 00 ::
whereamiCoords(
    Latitude: 45.049853999999996 °,
    Longitude: 7.668309 °
)
 (044.000276)  can0  422   [1]  00 ::
GbData(
    GbGear: 0
)
 (044.514224)  can0  460   [4]  1B 00 B0 0D ::
whereamiData(
    Speed: 0.27 km/h,
    Distance: 3504 m
)
 (044.514447)  can0  462   [4]  37 00 B0 0D ::
whereamiRawData(
    RawSpeed: 0.55 km/h,
    RawDistance: 3504 m
)
 (044.514641)  can0  464   [8]  FE 67 AF 02 58 02 75 00 ::
whereamiCoords(
    Latitude: 45.049853999999996 °,
    Longitude: 7.668311999999999 °
)
 (045.000280)  can0  422   [1]  00 ::
GbData(
    GbGear: 0
)
 (045.521753)  can0  460   [4]  1D 00 B1 0D ::
whereamiData(
    Speed: 0.29 km/h,
    Distance: 3505 m
)
 (045.521976)  can0  462   [4]  4A 00 B1 0D ::
whereamiRawData(
    RawSpeed: 0.74 km/h,
    RawDistance: 3505 m
)
 (045.522179)  can0  464   [8]  FE 67 AF 02 5A 02 75 00 ::
whereamiCoords(
    Latitude: 45.049853999999996 °,
    Longitude: 7.668314 °
)
 (046.000331)  can0  422   [1]  00 ::
GbData(
    GbGear: 0
)
 (046.527813)  can0  460   [4]  1D 00 B1 0D ::
whereamiData(
    Speed: 0.29 km/h,
    Distance: 3505 m
)
 (046.528033)  can0  462   [4]  4A 00 B1 0D ::
whereamiRawData(
    RawSpeed: 0.74 km/h,
    RawDistance: 3505 m
)
 (046.528237)  can0  464   [8]  FE 67 AF 02 5A 02 75 00 ::
whereamiCoords(
    Latitude: 45.049853999999996 °,
    Longitude: 7.668314 °
)
 (047.000275)  can0  422   [1]  00 ::
GbData(
    GbGear: 0
)
 (047.535766)  can0  460   [4]  07 00 B1 0D ::
whereamiData(
    Speed: 0.07 km/h,
    Distance: 3505 m
)
 (047.535988)  can0  462   [4]  12 00 B1 0D ::
whereamiRawData(
    RawSpeed: 0.18 km/h,
    RawDistance: 3505 m
)
 (047.536187)  can0  464   [8]  FE 67 AF 02 5A 02 75 00 ::
whereamiCoords(
    Latitude: 45.049853999999996 °,
    Longitude: 7.668314 °
)
 (048.000281)  can0  422   [1]  00 ::
GbData(
    GbGear: 0
)
 (048.545906)  can0  460   [4]  07 00 B0 0D ::
whereamiData(
    Speed: 0.07 km/h,
    Distance: 3504 m
)
 (048.546125)  can0  462   [4]  12 00 B0 0D ::
whereamiRawData(
    RawSpeed: 0.18 km/h,
    RawDistance: 3504 m
)
 (048.546326)  can0  464   [8]  FF 67 AF 02 59 02 75 00 ::
whereamiCoords(
    Latitude: 45.049855 °,
    Longitude: 7.6683129999999995 °
)
 (049.000280)  can0  422   [1]  00 ::
GbData(
    GbGear: 0
)
 (049.555858)  can0  460   [4]  00 00 B0 0D ::
whereamiData(
    Speed: 0.0 km/h,
    Distance: 3504 m
)
 (049.556078)  can0  462   [4]  00 00 B0 0D ::
whereamiRawData(
    RawSpeed: 0.0 km/h,
    RawDistance: 3504 m
)
 (049.556280)  can0  464   [8]  FF 67 AF 02 58 02 75 00 ::
whereamiCoords(
    Latitude: 45.049855 °,
    Longitude: 7.668311999999999 °
)
 (050.000283)  can0  422   [1]  00 ::
GbData(
    GbGear: 0
)
 (050.563907)  can0  460   [4]  00 00 B0 0D ::
whereamiData(
    Speed: 0.0 km/h,
    Distance: 3504 m
)
 (050.564132)  can0  462   [4]  00 00 B0 0D ::
whereamiRawData(
    RawSpeed: 0.0 km/h,
    RawDistance: 3504 m
)
 (050.564343)  can0  464   [8]  00 68 AF 02 58 02 75 00 ::
whereamiCoords(
    Latitude: 45.049856 °,
    Longitude: 7.668311999999999 °
)
 (051.000284)  can0  422   [1]  00 ::
GbData(
    GbGear: 0
)
 (051.571954)  can0  460   [4]  00 00 B0 0D ::
whereamiData(
    Speed: 0.0 km/h,
    Distance: 3504 m
)
 (051.572177)  can0  462   [4]  00 00 B0 0D ::
whereamiRawData(
    RawSpeed: 0.0 km/h,
    RawDistance: 3504 m
)
 (051.572376)  can0  464   [8]  00 68 AF 02 57 02 75 00 ::
whereamiCoords(
    Latitude: 45.049856 °,
    Longitude: 7.668310999999999 °
)
 (052.000268)  can0  422   [1]  00 ::
GbData(
    GbGear: 0
)
 (052.578007)  can0  460   [4]  00 00 B0 0D ::
whereamiData(
    Speed: 0.0 km/h,
    Distance: 3504 m
)
 (052.578236)  can0  462   [4]  00 00 B0 0D ::
whereamiRawData(
    RawSpeed: 0.0 km/h,
    RawDistance: 3504 m
)
 (052.578434)  can0  464   [8]  00 68 AF 02 57 02 75 00 ::
whereamiCoords(
    Latitude: 45.049856 °,
    Longitude: 7.668310999999999 °
)
 (053.000279)  can0  422   [1]  00 ::
GbData(
    GbGear: 0
)
 (053.586060)  can0  460   [4]  00 00 B0 0D ::
whereamiData(
    Speed: 0.0 km/h,
    Distance: 3504 m
)
 (053.586286)  can0  462   [4]  00 00 B0 0D ::
whereamiRawData(
    RawSpeed: 0.0 km/h,
    RawDistance: 3504 m
)
 (053.586488)  can0  464   [8]  00 68 AF 02 57 02 75 00 ::
whereamiCoords(
    Latitude: 45.049856 °,
    Longitude: 7.668310999999999 °
)
 (054.000271)  can0  422   [1]  00 ::
GbData(
    GbGear: 0
)
 (054.596096)  can0  460   [4]  00 00 B0 0D ::
whereamiData(
    Speed: 0.0 km/h,
    Distance: 3504 m
)
 (054.596319)  can0  462   [4]  00 00 B0 0D ::
whereamiRawData(
    RawSpeed: 0.0 km/h,
    RawDistance: 3504 m
)
 (054.596540)  can0  464   [8]  00 68 AF 02 57 02 75 00 ::
whereamiCoords(
    Latitude: 45.049856 °,
    Longitude: 7.668310999999999 °
)
 (055.000273)  can0  422   [1]  00 ::
GbData(
    GbGear: 0
)
 (055.506585)  can0  460   [4]  00 00 B0 0D ::
whereamiData(
    Speed: 0.0 km/h,
    Distance: 3504 m
)
 (055.506812)  can0  462   [4]  00 00 B0 0D ::
whereamiRawData(
    RawSpeed: 0.0 km/h,
    RawDistance: 3504 m
)
 (055.507020)  can0  464   [8]  00 68 AF 02 57 02 75 00 ::
whereamiCoords(
    Latitude: 45.049856 °,
    Longitude: 7.668310999999999 °
)
 (056.000266)  can0  422   [1]  00 ::
GbData(
    GbGear: 0
)
 (056.516630)  can0  460   [4]  00 00 B0 0D ::
whereamiData(
    Speed: 0.0 km/h,
    Distance: 3504 m
)
 (056.516855)  can0  462   [4]  00 00 B0 0D ::
whereamiRawData(
    RawSpeed: 0.0 km/h,
    RawDistance: 3504 m
)
 (056.517053)  can0  464   [8]  00 68 AF 02 57 02 75 00 ::
whereamiCoords(
    Latitude: 45.049856 °,
    Longitude: 7.668310999999999 °
)
 (057.000267)  can0  422   [1]  00 ::
GbData(
    GbGear: 0
)
 (057.524244)  can0  460   [4]  00 00 B0 0D ::
whereamiData(
    Speed: 0.0 km/h,
    Distance: 3504 m
)
 (057.524479)  can0  462   [4]  00 00 B0 0D ::
whereamiRawData(
    RawSpeed: 0.0 km/h,
    RawDistance: 3504 m
)
 (057.524677)  can0  464   [8]  00 68 AF 02 57 02 75 00 ::
whereamiCoords(
    Latitude: 45.049856 °,
    Longitude: 7.668310999999999 °
)
 (058.000267)  can0  422   [1]  00 ::
GbData(
    GbGear: 0
)
 (058.530287)  can0  460   [4]  00 00 B0 0D ::
whereamiData(
    Speed: 0.0 km/h,
    Distance: 3504 m
)
 (058.530507)  can0  462   [4]  00 00 B0 0D ::
whereamiRawData(
    RawSpeed: 0.0 km/h,
    RawDistance: 3504 m
)
 (058.530704)  can0  464   [8]  00 68 AF 02 57 02 75 00 ::
whereamiCoords(
    Latitude: 45.049856 °,
    Longitude: 7.668310999999999 °
)
 (059.000262)  can0  422   [1]  00 ::
GbData(
    GbGear: 0
)
 (059.536336)  can0  460   [4]  00 00 B0 0D ::
whereamiData(
    Speed: 0.0 km/h,
    Distance: 3504 m
)
 (059.536563)  can0  462   [4]  00 00 B0 0D ::
whereamiRawData(
    RawSpeed: 0.0 km/h,
    RawDistance: 3504 m
)
 (059.536767)  can0  464   [8]  00 68 AF 02 57 02 75 00 ::
whereamiCoords(
    Latitude: 45.049856 °,
    Longitude: 7.668310999999999 °
)
