 (000.000000)  can0  460   [4]  00 00 CC 53 ::
whereamiData(
    Speed: 0.0 km/h,
    Distance: 21452 m
)
 (000.000206)  can0  462   [4]  00 00 CC 53 ::
whereamiRawData(
    RawSpeed: 0.0 km/h,
    RawDistance: 21452 m
)
 (000.000395)  can0  464   [8]  12 1A 6C 02 1A A2 07 F9 ::
whereamiCoords(
    Latitude: 40.638994 °,
    Longitude: -116.94026199999999 °
)
 (001.065763)  can0  460   [4]  00 00 CC 53 ::
whereamiData(
    Speed: 0.0 km/h,
    Distance: 21452 m
)
 (001.065969)  can0  462   [4]  00 00 CC 53 ::
whereamiRawData(
    RawSpeed: 0.0 km/h,
    RawDistance: 21452 m
)
 (001.066159)  can0  464   [8]  12 1A 6C 02 1A A2 07 F9 ::
whereamiCoords(
    Latitude: 40.638994 °,
    Longitude: -116.94026199999999 °
)
 (002.034044)  can0  460   [4]  00 00 CC 53 ::
whereamiData(
    Speed: 0.0 km/h,
    Distance: 21452 m
)
 (002.034253)  can0  462   [4]  00 00 CC 53 ::
whereamiRawData(
    RawSpeed: 0.0 km/h,
    RawDistance: 21452 m
)
 (002.034442)  can0  464   [8]  12 1A 6C 02 1A A2 07 F9 ::
whereamiCoords(
    Latitude: 40.638994 °,
    Longitude: -116.94026199999999 °
)
 (002.999812)  can0  460   [4]  00 00 CC 53 ::
whereamiData(
    Speed: 0.0 km/h,
    Distance: 21452 m
)
 (003.000022)  can0  462   [4]  00 00 CC 53 ::
whereamiRawData(
    RawSpeed: 0.0 km/h,
    RawDistance: 21452 m
)
 (003.000212)  can0  464   [8]  12 1A 6C 02 19 A2 07 F9 ::
whereamiCoords(
    Latitude: 40.638994 °,
    Longitude: -116.940263 °
)
 (004.072037)  can0  460   [4]  00 00 CC 53 ::
whereamiData(
    Speed: 0.0 km/h,
    Distance: 21452 m
)
 (004.072249)  can0  462   [4]  00 00 CC 53 ::
whereamiRawData(
    RawSpeed: 0.0 km/h,
    RawDistance: 21452 m
)
 (004.072439)  can0  464   [8]  12 1A 6C 02 19 A2 07 F9 ::
whereamiCoords(
    Latitude: 40.638994 °,
    Longitude: -116.940263 °
)
 (005.042041)  can0  460   [4]  0C 00 CC 53 ::
whereamiData(
    Speed: 0.12 km/h,
    Distance: 21452 m
)
 (005.042254)  can0  462   [4]  12 00 CC 53 ::
whereamiRawData(
    RawSpeed: 0.18 km/h,
    RawDistance: 21452 m
)
 (005.042446)  can0  464   [8]  13 1A 6C 02 19 A2 07 F9 ::
whereamiCoords(
    Latitude: 40.638995 °,
    Longitude: -116.940263 °
)
 (006.014144)  can0  460   [4]  00 00 CC 53 ::
whereamiData(
    Speed: 0.0 km/h,
    Distance: 21452 m
)
 (006.014356)  can0  462   [4]  00 00 CC 53 ::
whereamiRawData(
    RawSpeed: 0.0 km/h,
    RawDistance: 21452 m
)
 (006.014553)  can0  464   [8]  13 1A 6C 02 19 A2 07 F9 ::
whereamiCoords(
    Latitude: 40.638995 °,
    Longitude: -116.940263 °
)
 (006.986165)  can0  460   [4]  00 00 CD 53 ::
whereamiData(
    Speed: 0.0 km/h,
    Distance: 21453 m
)
 (006.986380)  can0  462   [4]  00 00 CD 53 ::
whereamiRawData(
    RawSpeed: 0.0 km/h,
    RawDistance: 21453 m
)
 (006.986571)  can0  464   [8]  13 1A 6C 02 19 A2 07 F9 ::
whereamiCoords(
    Latitude: 40.638995 °,
    Longitude: -116.940263 °
)
 (008.060193)  can0  460   [4]  0C 00 CD 53 ::
whereamiData(
    Speed: 0.12 km/h,
    Distance: 21453 m
)
 (008.060396)  can0  462   [4]  12 00 CD 53 ::
whereamiRawData(
    RawSpeed: 0.18 km/h,
    RawDistance: 21453 m
)
 (008.060589)  can0  464   [8]  13 1A 6C 02 19 A2 07 F9 ::
whereamiCoords(
    Latitude: 40.638995 °,
    Longitude: -116.940263 °
)
 (009.030189)  can0  460   [4]  00 00 CD 53 ::
whereamiData(
    Speed: 0.0 km/h,
    Distance: 21453 m
)
 (009.030402)  can0  462   [4]  00 00 CD 53 ::
whereamiRawData(
    RawSpeed: 0.0 km/h,
    RawDistance: 21453 m
)
 (009.030589)  can0  464   [8]  14 1A 6C 02 1A A2 07 F9 ::
whereamiCoords(
    Latitude: 40.638996 °,
    Longitude: -116.94026199999999 °
)
 (010.006149)  can0  460   [4]  0C 00 CD 53 ::
whereamiData(
    Speed: 0.12 km/h,
    Distance: 21453 m
)
 (010.006364)  can0  462   [4]  12 00 CD 53 ::
whereamiRawData(
    RawSpeed: 0.18 km/h,
    RawDistance: 21453 m
)
 (010.006552)  can0  464   [8]  14 1A 6C 02 1A A2 07 F9 ::
whereamiCoords(
    Latitude: 40.638996 °,
    Longitude: -116.94026199999999 °
)
 (010.976253)  can0  460   [4]  00 00 CD 53 ::
whereamiData(
    Speed: 0.0 km/h,
    Distance: 21453 m
)
 (010.976466)  can0  462   [4]  00 00 CD 53 ::
whereamiRawData(
    RawSpeed: 0.0 km/h,
    RawDistance: 21453 m
)
 (010.976655)  can0  464   [8]  15 1A 6C 02 1A A2 07 F9 ::
whereamiCoords(
    Latitude: 40.638996999999996 °,
    Longitude: -116.94026199999999 °
)
 (012.050010)  can0  460   [4]  00 00 CD 53 ::
whereamiData(
    Speed: 0.0 km/h,
    Distance: 21453 m
)
 (012.050215)  can0  462   [4]  00 00 CD 53 ::
whereamiRawData(
    RawSpeed: 0.0 km/h,
    RawDistance: 21453 m
)
 (012.050408)  can0  464   [8]  15 1A 6C 02 1A A2 07 F9 ::
whereamiCoords(
    Latitude: 40.638996999999996 °,
    Longitude: -116.94026199999999 °
)
 (013.024375)  can0  460   [4]  00 00 CD 53 ::
whereamiData(
    Speed: 0.0 km/h,
    Distance: 21453 m
)
 (013.024578)  can0  462   [4]  00 00 CD 53 ::
whereamiRawData(
    RawSpeed: 0.0 km/h,
    RawDistance: 21453 m
)
 (013.024768)  can0  464   [8]  15 1A 6C 02 1B A2 07 F9 ::
whereamiCoords(
    Latitude: 40.638996999999996 °,
    Longitude: -116.94026099999999 °
)
 (014.000223)  can0  460   [4]  00 00 CD 53 ::
whereamiData(
    Speed: 0.0 km/h,
    Distance: 21453 m
)
 (014.000441)  can0  462   [4]  00 00 CD 53 ::
whereamiRawData(
    RawSpeed: 0.0 km/h,
    RawDistance: 21453 m
)
 (014.000631)  can0  464   [8]  16 1A 6C 02 1B A2 07 F9 ::
whereamiCoords(
    Latitude: 40.638998 °,
    Longitude: -116.94026099999999 °
)
 (015.072512)  can0  460   [4]  0C 00 CD 53 ::
whereamiData(
    Speed: 0.12 km/h,
    Distance: 21453 m
)
 (015.072721)  can0  462   [4]  12 00 CD 53 ::
whereamiRawData(
    RawSpeed: 0.18 km/h,
    RawDistance: 21453 m
)
 (015.072907)  can0  464   [8]  16 1A 6C 02 1B A2 07 F9 ::
whereamiCoords(
    Latitude: 40.638998 °,
    Longitude: -116.94026099999999 °
)
 (016.046263)  can0  460   [4]  0D 00 CD 53 ::
whereamiData(
    Speed: 0.13 km/h,
    Distance: 21453 m
)
 (016.046470)  can0  462   [4]  12 00 CD 53 ::
whereamiRawData(
    RawSpeed: 0.18 km/h,
    RawDistance: 21453 m
)
 (016.046659)  can0  464   [8]  17 1A 6C 02 1A A2 07 F9 ::
whereamiCoords(
    Latitude: 40.638999 °,
    Longitude: -116.94026199999999 °
)
 (017.030306)  can0  460   [4]  0D 00 CD 53 ::
whereamiData(
    Speed: 0.13 km/h,
    Distance: 21453 m
)
 (017.030517)  can0  462   [4]  12 00 CD 53 ::
whereamiRawData(
    RawSpeed: 0.18 km/h,
    RawDistance: 21453 m
)
 (017.030705)  can0  464   [8]  18 1A 6C 02 1A A2 07 F9 ::
whereamiCoords(
    Latitude: 40.638999999999996 °,
    Longitude: -116.94026199999999 °
)
 (018.012307)  can0  460   [4]  0D 00 CD 53 ::
whereamiData(
    Speed: 0.13 km/h,
    Distance: 21453 m
)
 (018.012517)  can0  462   [4]  12 00 CD 53 ::
whereamiRawData(
    RawSpeed: 0.18 km/h,
    RawDistance: 21453 m
)
 (018.012707)  can0  464   [8]  18 1A 6C 02 1A A2 07 F9 ::
whereamiCoords(
    Latitude: 40.638999999999996 °,
    Longitude: -116.94026199999999 °
)
 (019.000169)  can0  460   [4]  00 00 CD 53 ::
whereamiData(
    Speed: 0.0 km/h,
    Distance: 21453 m
)
 (019.000382)  can0  462   [4]  00 00 CD 53 ::
whereamiRawData(
    RawSpeed: 0.0 km/h,
    RawDistance: 21453 m
)
 (019.000570)  can0  464   [8]  19 1A 6C 02 1A A2 07 F9 ::
whereamiCoords(
    Latitude: 40.639001 °,
    Longitude: -116.94026199999999 °
)
 (019.983923)  can0  460   [4]  0D 00 CD 53 ::
whereamiData(
    Speed: 0.13 km/h,
    Distance: 21453 m
)
 (019.984128)  can0  462   [4]  12 00 CD 53 ::
whereamiRawData(
    RawSpeed: 0.18 km/h,
    RawDistance: 21453 m
)
 (019.984319)  can0  464   [8]  19 1A 6C 02 1A A2 07 F9 ::
whereamiCoords(
    Latitude: 40.639001 °,
    Longitude: -116.94026199999999 °
)
 (021.068645)  can0  460   [4]  0D 00 CD 53 ::
whereamiData(
    Speed: 0.13 km/h,
    Distance: 21453 m
)
 (021.068852)  can0  462   [4]  12 00 CD 53 ::
whereamiRawData(
    RawSpeed: 0.18 km/h,
    RawDistance: 21453 m
)
 (021.069040)  can0  464   [8]  1A 1A 6C 02 1A A2 07 F9 ::
whereamiCoords(
    Latitude: 40.639002 °,
    Longitude: -116.94026199999999 °
)
 (022.054522)  can0  460   [4]  0D 00 CD 53 ::
whereamiData(
    Speed: 0.13 km/h,
    Distance: 21453 m
)
 (022.054738)  can0  462   [4]  12 00 CD 53 ::
whereamiRawData(
    RawSpeed: 0.18 km/h,
    RawDistance: 21453 m
)
 (022.054927)  can0  464   [8]  1B 1A 6C 02 1A A2 07 F9 ::
whereamiCoords(
    Latitude: 40.639002999999995 °,
    Longitude: -116.94026199999999 °
)
 (023.038596)  can0  460   [4]  0D 00 CD 53 ::
whereamiData(
    Speed: 0.13 km/h,
    Distance: 21453 m
)
 (023.038829)  can0  462   [4]  12 00 CD 53 ::
whereamiRawData(
    RawSpeed: 0.18 km/h,
    RawDistance: 21453 m
)
 (023.039016)  can0  464   [8]  1B 1A 6C 02 1A A2 07 F9 ::
whereamiCoords(
    Latitude: 40.639002999999995 °,
    Longitude: -116.94026199999999 °
)
 (024.024638)  can0  460   [4]  0D 00 CD 53 ::
whereamiData(
    Speed: 0.13 km/h,
    Distance: 21453 m
)
 (024.024847)  can0  462   [4]  12 00 CD 53 ::
whereamiRawData(
    RawSpeed: 0.18 km/h,
    RawDistance: 21453 m
)
 (024.025045)  can0  464   [8]  1C 1A 6C 02 1A A2 07 F9 ::
whereamiCoords(
    Latitude: 40.639004 °,
    Longitude: -116.94026199999999 °
)
 (025.010640)  can0  460   [4]  00 00 CD 53 ::
whereamiData(
    Speed: 0.0 km/h,
    Distance: 21453 m
)
 (025.010842)  can0  462   [4]  00 00 CD 53 ::
whereamiRawData(
    RawSpeed: 0.0 km/h,
    RawDistance: 21453 m
)
 (025.011037)  can0  464   [8]  1C 1A 6C 02 1A A2 07 F9 ::
whereamiCoords(
    Latitude: 40.639004 °,
    Longitude: -116.94026199999999 °
)
 (026.002498)  can0  460   [4]  00 00 CD 53 ::
whereamiData(
    Speed: 0.0 km/h,
    Distance: 21453 m
)
 (026.002706)  can0  462   [4]  00 00 CD 53 ::
whereamiRawData(
    RawSpeed: 0.0 km/h,
    RawDistance: 21453 m
)
 (026.002898)  can0  464   [8]  1D 1A 6C 02 1B A2 07 F9 ::
whereamiCoords(
    Latitude: 40.639005 °,
    Longitude: -116.94026099999999 °
)
 (026.994691)  can0  460   [4]  0D 00 CE 53 ::
whereamiData(
    Speed: 0.13 km/h,
    Distance: 21454 m
)
 (026.994898)  can0  462   [4]  12 00 CE 53 ::
whereamiRawData(
    RawSpeed: 0.18 km/h,
    RawDistance: 21454 m
)
 (026.995085)  can0  464   [8]  1D 1A 6C 02 1B A2 07 F9 ::
whereamiCoords(
    Latitude: 40.639005 °,
    Longitude: -116.94026099999999 °
)
 (027.986805)  can0  460   [4]  1B 00 CE 53 ::
whereamiData(
    Speed: 0.27 km/h,
    Distance: 21454 m
)
 (027.987014)  can0  462   [4]  25 00 CE 53 ::
whereamiRawData(
    RawSpeed: 0.37 km/h,
    RawDistance: 21454 m
)
 (027.987204)  can0  464   [8]  1E 1A 6C 02 1A A2 07 F9 ::
whereamiCoords(
    Latitude: 40.639005999999995 °,
    Longitude: -116.94026199999999 °
)
 (028.978822)  can0  460   [4]  1B 00 CE 53 ::
whereamiData(
    Speed: 0.27 km/h,
    Distance: 21454 m
)
 (028.979027)  can0  462   [4]  25 00 CE 53 ::
whereamiRawData(
    RawSpeed: 0.37 km/h,
    RawDistance: 21454 m
)
 (028.979215)  can0  464   [8]  1F 1A 6C 02 1A A2 07 F9 ::
whereamiCoords(
    Latitude: 40.639007 °,
    Longitude: -116.94026199999999 °
)
 (030.072936)  can0  460   [4]  1B 00 CE 53 ::
whereamiData(
    Speed: 0.27 km/h,
    Distance: 21454 m
)
 (030.073142)  can0  462   [4]  25 00 CE 53 ::
whereamiRawData(
    RawSpeed: 0.37 km/h,
    RawDistance: 21454 m
)
 (030.073331)  can0  464   [8]  1F 1A 6C 02 19 A2 07 F9 ::
whereamiCoords(
    Latitude: 40.639007 °,
    Longitude: -116.940263 °
)
 (031.066960)  can0  460   [4]  0D 00 CE 53 ::
whereamiData(
    Speed: 0.13 km/h,
    Distance: 21454 m
)
 (031.067170)  can0  462   [4]  12 00 CE 53 ::
whereamiRawData(
    RawSpeed: 0.18 km/h,
    RawDistance: 21454 m
)
 (031.067355)  can0  464   [8]  1F 1A 6C 02 19 A2 07 F9 ::
whereamiCoords(
    Latitude: 40.639007 °,
    Longitude: -116.940263 °
)
 (032.056895)  can0  460   [4]  0D 00 CE 53 ::
whereamiData(
    Speed: 0.13 km/h,
    Distance: 21454 m
)
 (032.057098)  can0  462   [4]  12 00 CE 53 ::
whereamiRawData(
    RawSpeed: 0.18 km/h,
    RawDistance: 21454 m
)
 (032.057282)  can0  464   [8]  20 1A 6C 02 19 A2 07 F9 ::
whereamiCoords(
    Latitude: 40.639008 °,
    Longitude: -116.940263 °
)
 (033.046922)  can0  460   [4]  0D 00 CE 53 ::
whereamiData(
    Speed: 0.13 km/h,
    Distance: 21454 m
)
 (033.047141)  can0  462   [4]  12 00 CE 53 ::
whereamiRawData(
    RawSpeed: 0.18 km/h,
    RawDistance: 21454 m
)
 (033.047326)  can0  464   [8]  20 1A 6C 02 19 A2 07 F9 ::
whereamiCoords(
    Latitude: 40.639008 °,
    Longitude: -116.940263 °
)
 (034.040757)  can0  460   [4]  0D 00 CE 53 ::
whereamiData(
    Speed: 0.13 km/h,
    Distance: 21454 m
)
 (034.040961)  can0  462   [4]  12 00 CE 53 ::
whereamiRawData(
    RawSpeed: 0.18 km/h,
    RawDistance: 21454 m
)
 (034.041152)  can0  464   [8]  21 1A 6C 02 1A A2 07 F9 ::
whereamiCoords(
    Latitude: 40.639009 °,
    Longitude: -116.94026199999999 °
)
 (035.030873)  can0  460   [4]  0D 00 CE 53 ::
whereamiData(
    Speed: 0.13 km/h,
    Distance: 21454 m
)
 (035.031077)  can0  462   [4]  12 00 CE 53 ::
whereamiRawData(
    RawSpeed: 0.18 km/h,
    RawDistance: 21454 m
)
 (035.031263)  can0  464   [8]  21 1A 6C 02 1B A2 07 F9 ::
whereamiCoords(
    Latitude: 40.639009 °,
    Longitude: -116.94026099999999 °
)
 (036.020893)  can0  460   [4]  0D 00 CE 53 ::
whereamiData(
    Speed: 0.13 km/h,
    Distance: 21454 m
)
 (036.021102)  can0  462   [4]  12 00 CE 53 ::
whereamiRawData(
    RawSpeed: 0.18 km/h,
    RawDistance: 21454 m
)
 (036.021294)  can0  464   [8]  22 1A 6C 02 1D A2 07 F9 ::
whereamiCoords(
    Latitude: 40.63901 °,
    Longitude: -116.940259 °
)
 (037.014833)  can0  460   [4]  00 00 CE 53 ::
whereamiData(
    Speed: 0.0 km/h,
    Distance: 21454 m
)
 (037.015043)  can0  462   [4]  00 00 CE 53 ::
whereamiRawData(
    RawSpeed: 0.0 km/h,
    RawDistance: 21454 m
)
 (037.015229)  can0  464   [8]  22 1A 6C 02 20 A2 07 F9 ::
whereamiCoords(
    Latitude: 40.63901 °,
    Longitude: -116.94025599999999 °
)
 (038.008850)  can0  460   [4]  00 00 CE 53 ::
whereamiData(
    Speed: 0.0 km/h,
    Distance: 21454 m
)
 (038.009057)  can0  462   [4]  00 00 CE 53 ::
whereamiRawData(
    RawSpeed: 0.0 km/h,
    RawDistance: 21454 m
)
 (038.009244)  can0  464   [8]  22 1A 6C 02 21 A2 07 F9 ::
whereamiCoords(
    Latitude: 40.63901 °,
    Longitude: -116.940255 °
)
 (039.000864)  can0  460   [4]  00 00 CE 53 ::
whereamiData(
    Speed: 0.0 km/h,
    Distance: 21454 m
)
 (039.001071)  can0  462   [4]  00 00 CE 53 ::
whereamiRawData(
    RawSpeed: 0.0 km/h,
    RawDistance: 21454 m
)
 (039.001260)  can0  464   [8]  22 1A 6C 02 24 A2 07 F9 ::
whereamiCoords(
    Latitude: 40.63901 °,
    Longitude: -116.940252 °
)
 (039.993156)  can0  460   [4]  00 00 D3 53 ::
whereamiData(
    Speed: 0.0 km/h,
    Distance: 21459 m
)
 (039.993359)  can0  462   [4]  00 00 D3 53 ::
whereamiRawData(
    RawSpeed: 0.0 km/h,
    RawDistance: 21459 m
)
 (039.993542)  can0  464   [8]  2C 1A 6C 02 7C A2 07 F9 ::
whereamiCoords(
    Latitude: 40.639019999999995 °,
    Longitude: -116.940164 °
)
 (040.988834)  can0  460   [4]  00 00 D3 53 ::
whereamiData(
    Speed: 0.0 km/h,
    Distance: 21459 m
)
 (040.989038)  can0  462   [4]  00 00 D3 53 ::
whereamiRawData(
    RawSpeed: 0.0 km/h,
    RawDistance: 21459 m
)
 (040.989222)  can0  464   [8]  2C 1A 6C 02 7C A2 07 F9 ::
whereamiCoords(
    Latitude: 40.639019999999995 °,
    Longitude: -116.940164 °
)
 (041.986852)  can0  460   [4]  00 00 D3 53 ::
whereamiData(
    Speed: 0.0 km/h,
    Distance: 21459 m
)
 (041.987062)  can0  462   [4]  00 00 D3 53 ::
whereamiRawData(
    RawSpeed: 0.0 km/h,
    RawDistance: 21459 m
)
 (041.987254)  can0  464   [8]  2C 1A 6C 02 7B A2 07 F9 ::
whereamiCoords(
    Latitude: 40.639019999999995 °,
    Longitude: -116.940165 °
)
 (042.982905)  can0  460   [4]  00 00 D3 53 ::
whereamiData(
    Speed: 0.0 km/h,
    Distance: 21459 m
)
 (042.983122)  can0  462   [4]  00 00 D3 53 ::
whereamiRawData(
    RawSpeed: 0.0 km/h,
    RawDistance: 21459 m
)
 (042.983312)  can0  464   [8]  2C 1A 6C 02 79 A2 07 F9 ::
whereamiCoords(
    Latitude: 40.639019999999995 °,
    Longitude: -116.94016699999999 °
)
 (044.076908)  can0  460   [4]  2D 00 D3 53 ::
whereamiData(
    Speed: 0.45 km/h,
    Distance: 21459 m
)
 (044.077116)  can0  462   [4]  37 00 D3 53 ::
whereamiRawData(
    RawSpeed: 0.55 km/h,
    RawDistance: 21459 m
)
 (044.077304)  can0  464   [8]  2E 1A 6C 02 75 A2 07 F9 ::
whereamiCoords(
    Latitude: 40.639022 °,
    Longitude: -116.94017099999999 °
)
 (045.071056)  can0  460   [4]  1E 00 D3 53 ::
whereamiData(
    Speed: 0.3 km/h,
    Distance: 21459 m
)
 (045.071263)  can0  462   [4]  25 00 D3 53 ::
whereamiRawData(
    RawSpeed: 0.37 km/h,
    RawDistance: 21459 m
)
 (045.071451)  can0  464   [8]  30 1A 6C 02 72 A2 07 F9 ::
whereamiCoords(
    Latitude: 40.639024 °,
    Longitude: -116.940174 °
)
 (046.068786)  can0  460   [4]  3C 00 D3 53 ::
whereamiData(
    Speed: 0.6 km/h,
    Distance: 21459 m
)
 (046.069001)  can0  462   [4]  4A 00 D3 53 ::
whereamiRawData(
    RawSpeed: 0.74 km/h,
    RawDistance: 21459 m
)
 (046.069191)  can0  464   [8]  30 1A 6C 02 6D A2 07 F9 ::
whereamiCoords(
    Latitude: 40.639024 °,
    Longitude: -116.940179 °
)
 (047.070897)  can0  460   [4]  1E 00 D2 53 ::
whereamiData(
    Speed: 0.3 km/h,
    Distance: 21458 m
)
 (047.071104)  can0  462   [4]  25 00 D2 53 ::
whereamiRawData(
    RawSpeed: 0.37 km/h,
    RawDistance: 21458 m
)
 (047.071291)  can0  464   [8]  28 1A 6C 02 64 A2 07 F9 ::
whereamiCoords(
    Latitude: 40.639016 °,
    Longitude: -116.94018799999999 °
)
 (048.074988)  can0  460   [4]  4B 00 D1 53 ::
whereamiData(
    Speed: 0.75 km/h,
    Distance: 21457 m
)
 (048.075196)  can0  462   [4]  5C 00 D1 53 ::
whereamiRawData(
    RawSpeed: 0.92 km/h,
    RawDistance: 21457 m
)
 (048.075385)  can0  464   [8]  21 1A 6C 02 5B A2 07 F9 ::
whereamiCoords(
    Latitude: 40.639009 °,
    Longitude: -116.940197 °
)
 (048.977544)  can0  460   [4]  4B 00 D0 53 ::
whereamiData(
    Speed: 0.75 km/h,
    Distance: 21456 m
)
 (048.977808)  can0  464   [8]  1C 1A 6C 02 56 A2 07 F9 ::
whereamiCoords(
    Latitude: 40.639004 °,
    Longitude: -116.940202 °
)
 (048.978532)  can0  462   [4]  5C 00 D0 53 ::
whereamiRawData(
    RawSpeed: 0.92 km/h,
    RawDistance: 21456 m
)
 (048.978719)  can0  468   [2]  64 00 ::
whereamiPosUncert(
    PosUncertainty: 1.0 m
)
 (049.985202)  can0  460   [4]  5A 00 D0 53 ::
whereamiData(
    Speed: 0.9 km/h,
    Distance: 21456 m
)
 (049.985405)  can0  462   [4]  6F 00 D0 53 ::
whereamiRawData(
    RawSpeed: 1.11 km/h,
    RawDistance: 21456 m
)
 (049.985596)  can0  464   [8]  19 1A 6C 02 55 A2 07 F9 ::
whereamiCoords(
    Latitude: 40.639001 °,
    Longitude: -116.940203 °
)
 (050.989575)  can0  460   [4]  3C 00 CF 53 ::
whereamiData(
    Speed: 0.6 km/h,
    Distance: 21455 m
)
 (050.989833)  can0  464   [8]  16 1A 6C 02 56 A2 07 F9 ::
whereamiCoords(
    Latitude: 40.638998 °,
    Longitude: -116.940202 °
)
 (050.990572)  can0  462   [4]  4A 00 CF 53 ::
whereamiRawData(
    RawSpeed: 0.74 km/h,
    RawDistance: 21455 m
)
 (050.990763)  can0  468   [2]  64 00 ::
whereamiPosUncert(
    PosUncertainty: 1.0 m
)
 (051.993601)  can0  460   [4]  2D 00 CF 53 ::
whereamiData(
    Speed: 0.45 km/h,
    Distance: 21455 m
)
 (051.993856)  can0  464   [8]  15 1A 6C 02 58 A2 07 F9 ::
whereamiCoords(
    Latitude: 40.638996999999996 °,
    Longitude: -116.94019999999999 °
)
 (051.994605)  can0  462   [4]  37 00 CF 53 ::
whereamiRawData(
    RawSpeed: 0.55 km/h,
    RawDistance: 21455 m
)
 (051.994799)  can0  468   [2]  64 00 ::
whereamiPosUncert(
    PosUncertainty: 1.0 m
)
 (052.999285)  can0  460   [4]  1E 00 CF 53 ::
whereamiData(
    Speed: 0.3 km/h,
    Distance: 21455 m
)
 (052.999493)  can0  462   [4]  25 00 CF 53 ::
whereamiRawData(
    RawSpeed: 0.37 km/h,
    RawDistance: 21455 m
)
 (052.999678)  can0  464   [8]  13 1A 6C 02 59 A2 07 F9 ::
whereamiCoords(
    Latitude: 40.638995 °,
    Longitude: -116.94019899999999 °
)
 (054.003317)  can0  460   [4]  1E 00 CF 53 ::
whereamiData(
    Speed: 0.3 km/h,
    Distance: 21455 m
)
 (054.003531)  can0  462   [4]  25 00 CF 53 ::
whereamiRawData(
    RawSpeed: 0.37 km/h,
    RawDistance: 21455 m
)
 (054.003725)  can0  464   [8]  12 1A 6C 02 5A A2 07 F9 ::
whereamiCoords(
    Latitude: 40.638994 °,
    Longitude: -116.940198 °
)
 (055.011157)  can0  460   [4]  0F 00 CF 53 ::
whereamiData(
    Speed: 0.15 km/h,
    Distance: 21455 m
)
 (055.011360)  can0  462   [4]  12 00 CF 53 ::
whereamiRawData(
    RawSpeed: 0.18 km/h,
    RawDistance: 21455 m
)
 (055.011550)  can0  464   [8]  11 1A 6C 02 5A A2 07 F9 ::
whereamiCoords(
    Latitude: 40.638993 °,
    Longitude: -116.940198 °
)
 (056.015167)  can0  460   [4]  0F 00 CF 53 ::
whereamiData(
    Speed: 0.15 km/h,
    Distance: 21455 m
)
 (056.015373)  can0  462   [4]  12 00 CF 53 ::
whereamiRawData(
    RawSpeed: 0.18 km/h,
    RawDistance: 21455 m
)
 (056.015559)  can0  464   [8]  0F 1A 6C 02 5A A2 07 F9 ::
whereamiCoords(
    Latitude: 40.638991 °,
    Longitude: -116.940198 °
)
 (057.023373)  can0  460   [4]  0F 00 CF 53 ::
whereamiData(
    Speed: 0.15 km/h,
    Distance: 21455 m
)
 (057.023592)  can0  462   [4]  12 00 CF 53 ::
whereamiRawData(
    RawSpeed: 0.18 km/h,
    RawDistance: 21455 m
)
 (057.023783)  can0  464   [8]  0E 1A 6C 02 59 A2 07 F9 ::
whereamiCoords(
    Latitude: 40.63899 °,
    Longitude: -116.94019899999999 °
)
 (058.029313)  can0  460   [4]  0F 00 CE 53 ::
whereamiData(
    Speed: 0.15 km/h,
    Distance: 21454 m
)
 (058.029525)  can0  462   [4]  12 00 CE 53 ::
whereamiRawData(
    RawSpeed: 0.18 km/h,
    RawDistance: 21454 m
)
 (058.029716)  can0  464   [8]  0C 1A 6C 02 57 A2 07 F9 ::
whereamiCoords(
    Latitude: 40.638988 °,
    Longitude: -116.94020099999999 °
)
 (059.039324)  can0  460   [4]  00 00 CE 53 ::
whereamiData(
    Speed: 0.0 km/h,
    Distance: 21454 m
)
 (059.039533)  can0  462   [4]  00 00 CE 53 ::
whereamiRawData(
    RawSpeed: 0.0 km/h,
    RawDistance: 21454 m
)
 (059.039728)  can0  464   [8]  0B 1A 6C 02 56 A2 07 F9 ::
whereamiCoords(
    Latitude: 40.638987 °,
    Longitude: -116.940202 °
)
 (060.047262)  can0  460   [4]  10 00 CE 53 ::
whereamiData(
    Speed: 0.16 km/h,
    Distance: 21454 m
)
 (060.047474)  can0  462   [4]  12 00 CE 53 ::
whereamiRawData(
    RawSpeed: 0.18 km/h,
    RawDistance: 21454 m
)
 (060.047664)  can0  464   [8]  09 1A 6C 02 54 A2 07 F9 ::
whereamiCoords(
    Latitude: 40.638985 °,
    Longitude: -116.940204 °
)
 (061.057296)  can0  460   [4]  10 00 CE 53 ::
whereamiData(
    Speed: 0.16 km/h,
    Distance: 21454 m
)
 (061.057526)  can0  462   [4]  12 00 CE 53 ::
whereamiRawData(
    RawSpeed: 0.18 km/h,
    RawDistance: 21454 m
)
 (061.057715)  can0  464   [8]  08 1A 6C 02 51 A2 07 F9 ::
whereamiCoords(
    Latitude: 40.638984 °,
    Longitude: -116.940207 °
)
 (062.063133)  can0  460   [4]  00 00 CE 53 ::
whereamiData(
    Speed: 0.0 km/h,
    Distance: 21454 m
)
 (062.063343)  can0  462   [4]  00 00 CE 53 ::
whereamiRawData(
    RawSpeed: 0.0 km/h,
    RawDistance: 21454 m
)
 (062.063529)  can0  464   [8]  07 1A 6C 02 50 A2 07 F9 ::
whereamiCoords(
    Latitude: 40.638982999999996 °,
    Longitude: -116.940208 °
)
 (063.071329)  can0  460   [4]  00 00 CD 53 ::
whereamiData(
    Speed: 0.0 km/h,
    Distance: 21453 m
)
 (063.071540)  can0  462   [4]  00 00 CD 53 ::
whereamiRawData(
    RawSpeed: 0.0 km/h,
    RawDistance: 21453 m
)
 (063.071731)  can0  464   [8]  06 1A 6C 02 50 A2 07 F9 ::
whereamiCoords(
    Latitude: 40.638982 °,
    Longitude: -116.940208 °
)
 (063.979879)  can0  460   [4]  10 00 CD 53 ::
whereamiData(
    Speed: 0.16 km/h,
    Distance: 21453 m
)
 (063.980126)  can0  464   [8]  05 1A 6C 02 51 A2 07 F9 ::
whereamiCoords(
    Latitude: 40.638981 °,
    Longitude: -116.940207 °
)
 (063.980867)  can0  462   [4]  12 00 CD 53 ::
whereamiRawData(
    RawSpeed: 0.18 km/h,
    RawDistance: 21453 m
)
 (063.981051)  can0  468   [2]  64 00 ::
whereamiPosUncert(
    PosUncertainty: 1.0 m
)
 (064.989910)  can0  460   [4]  10 00 CD 53 ::
whereamiData(
    Speed: 0.16 km/h,
    Distance: 21453 m
)
 (064.990137)  can0  464   [8]  03 1A 6C 02 53 A2 07 F9 ::
whereamiCoords(
    Latitude: 40.638979 °,
    Longitude: -116.94020499999999 °
)
 (064.990889)  can0  462   [4]  12 00 CD 53 ::
whereamiRawData(
    RawSpeed: 0.18 km/h,
    RawDistance: 21453 m
)
 (064.991077)  can0  468   [2]  64 00 ::
whereamiPosUncert(
    PosUncertainty: 1.0 m
)
 (066.001392)  can0  460   [4]  00 00 CD 53 ::
whereamiData(
    Speed: 0.0 km/h,
    Distance: 21453 m
)
 (066.001600)  can0  462   [4]  00 00 CD 53 ::
whereamiRawData(
    RawSpeed: 0.0 km/h,
    RawDistance: 21453 m
)
 (066.001795)  can0  464   [8]  02 1A 6C 02 57 A2 07 F9 ::
whereamiCoords(
    Latitude: 40.638978 °,
    Longitude: -116.94020099999999 °
)
 (067.015260)  can0  460   [4]  10 00 CD 53 ::
whereamiData(
    Speed: 0.16 km/h,
    Distance: 21453 m
)
 (067.015473)  can0  462   [4]  12 00 CD 53 ::
whereamiRawData(
    RawSpeed: 0.18 km/h,
    RawDistance: 21453 m
)
 (067.015661)  can0  464   [8]  00 1A 6C 02 5A A2 07 F9 ::
whereamiCoords(
    Latitude: 40.638976 °,
    Longitude: -116.940198 °
)
 (068.029536)  can0  460   [4]  10 00 CD 53 ::
whereamiData(
    Speed: 0.16 km/h,
    Distance: 21453 m
)
 (068.029745)  can0  462   [4]  12 00 CD 53 ::
whereamiRawData(
    RawSpeed: 0.18 km/h,
    RawDistance: 21453 m
)
 (068.029932)  can0  464   [8]  FE 19 6C 02 5E A2 07 F9 ::
whereamiCoords(
    Latitude: 40.638974 °,
    Longitude: -116.94019399999999 °
)
 (069.043295)  can0  460   [4]  00 00 CD 53 ::
whereamiData(
    Speed: 0.0 km/h,
    Distance: 21453 m
)
 (069.043509)  can0  462   [4]  00 00 CD 53 ::
whereamiRawData(
    RawSpeed: 0.0 km/h,
    RawDistance: 21453 m
)
 (069.043707)  can0  464   [8]  FC 19 6C 02 62 A2 07 F9 ::
whereamiCoords(
    Latitude: 40.638971999999995 °,
    Longitude: -116.94019 °
)
 (070.053496)  can0  460   [4]  10 00 CD 53 ::
whereamiData(
    Speed: 0.16 km/h,
    Distance: 21453 m
)
 (070.053706)  can0  462   [4]  12 00 CD 53 ::
whereamiRawData(
    RawSpeed: 0.18 km/h,
    RawDistance: 21453 m
)
 (070.053896)  can0  464   [8]  FB 19 6C 02 63 A2 07 F9 ::
whereamiCoords(
    Latitude: 40.638971 °,
    Longitude: -116.94018899999999 °
)
 (071.061163)  can0  460   [4]  00 00 CD 53 ::
whereamiData(
    Speed: 0.0 km/h,
    Distance: 21453 m
)
 (071.061372)  can0  462   [4]  00 00 CD 53 ::
whereamiRawData(
    RawSpeed: 0.0 km/h,
    RawDistance: 21453 m
)
 (071.061561)  can0  464   [8]  FA 19 6C 02 65 A2 07 F9 ::
whereamiCoords(
    Latitude: 40.63897 °,
    Longitude: -116.940187 °
)
 (072.071533)  can0  460   [4]  00 00 CD 53 ::
whereamiData(
    Speed: 0.0 km/h,
    Distance: 21453 m
)
 (072.071738)  can0  462   [4]  00 00 CD 53 ::
whereamiRawData(
    RawSpeed: 0.0 km/h,
    RawDistance: 21453 m
)
 (072.071924)  can0  464   [8]  F9 19 6C 02 66 A2 07 F9 ::
whereamiCoords(
    Latitude: 40.638968999999996 °,
    Longitude: -116.940186 °
)
 (072.979936)  can0  460   [4]  00 00 CD 53 ::
whereamiData(
    Speed: 0.0 km/h,
    Distance: 21453 m
)
 (072.980153)  can0  462   [4]  00 00 CD 53 ::
whereamiRawData(
    RawSpeed: 0.0 km/h,
    RawDistance: 21453 m
)
 (072.980337)  can0  464   [8]  F7 19 6C 02 67 A2 07 F9 ::
whereamiCoords(
    Latitude: 40.638967 °,
    Longitude: -116.940185 °
)
 (073.991923)  can0  460   [4]  00 00 CD 53 ::
whereamiData(
    Speed: 0.0 km/h,
    Distance: 21453 m
)
 (073.992135)  can0  462   [4]  00 00 CD 53 ::
whereamiRawData(
    RawSpeed: 0.0 km/h,
    RawDistance: 21453 m
)
 (073.992321)  can0  464   [8]  F6 19 6C 02 68 A2 07 F9 ::
whereamiCoords(
    Latitude: 40.638965999999996 °,
    Longitude: -116.94018399999999 °
)
 (075.003599)  can0  460   [4]  00 00 CD 53 ::
whereamiData(
    Speed: 0.0 km/h,
    Distance: 21453 m
)
 (075.003805)  can0  462   [4]  00 00 CD 53 ::
whereamiRawData(
    RawSpeed: 0.0 km/h,
    RawDistance: 21453 m
)
 (075.003992)  can0  464   [8]  F6 19 6C 02 69 A2 07 F9 ::
whereamiCoords(
    Latitude: 40.638965999999996 °,
    Longitude: -116.94018299999999 °
)
 (076.013633)  can0  460   [4]  10 00 CD 53 ::
whereamiData(
    Speed: 0.16 km/h,
    Distance: 21453 m
)
 (076.013858)  can0  462   [4]  12 00 CD 53 ::
whereamiRawData(
    RawSpeed: 0.18 km/h,
    RawDistance: 21453 m
)
 (076.014045)  can0  464   [8]  F5 19 6C 02 69 A2 07 F9 ::
whereamiCoords(
    Latitude: 40.638965 °,
    Longitude: -116.94018299999999 °
)
 (077.027832)  can0  460   [4]  10 00 CD 53 ::
whereamiData(
    Speed: 0.16 km/h,
    Distance: 21453 m
)
 (077.028038)  can0  462   [4]  12 00 CD 53 ::
whereamiRawData(
    RawSpeed: 0.18 km/h,
    RawDistance: 21453 m
)
 (077.028226)  can0  464   [8]  F4 19 6C 02 6A A2 07 F9 ::
whereamiCoords(
    Latitude: 40.638964 °,
    Longitude: -116.940182 °
)
 (078.037505)  can0  460   [4]  00 00 CD 53 ::
whereamiData(
    Speed: 0.0 km/h,
    Distance: 21453 m
)
 (078.037722)  can0  462   [4]  00 00 CD 53 ::
whereamiRawData(
    RawSpeed: 0.0 km/h,
    RawDistance: 21453 m
)
 (078.037912)  can0  464   [8]  F4 19 6C 02 6A A2 07 F9 ::
whereamiCoords(
    Latitude: 40.638964 °,
    Longitude: -116.940182 °
)
 (079.049523)  can0  460   [4]  30 00 CD 53 ::
whereamiData(
    Speed: 0.48 km/h,
    Distance: 21453 m
)
 (079.049728)  can0  462   [4]  37 00 CD 53 ::
whereamiRawData(
    RawSpeed: 0.55 km/h,
    RawDistance: 21453 m
)
 (079.049917)  can0  464   [8]  F4 19 6C 02 69 A2 07 F9 ::
whereamiCoords(
    Latitude: 40.638964 °,
    Longitude: -116.94018299999999 °
)
 (080.059715)  can0  460   [4]  40 00 CD 53 ::
whereamiData(
    Speed: 0.64 km/h,
    Distance: 21453 m
)
 (080.059921)  can0  462   [4]  4A 00 CD 53 ::
whereamiRawData(
    RawSpeed: 0.74 km/h,
    RawDistance: 21453 m
)
 (080.060108)  can0  464   [8]  F4 19 6C 02 67 A2 07 F9 ::
whereamiCoords(
    Latitude: 40.638964 °,
    Longitude: -116.940185 °
)
 (081.071572)  can0  460   [4]  50 00 CD 53 ::
whereamiData(
    Speed: 0.8 km/h,
    Distance: 21453 m
)
 (081.071777)  can0  462   [4]  5C 00 CD 53 ::
whereamiRawData(
    RawSpeed: 0.92 km/h,
    RawDistance: 21453 m
)
 (081.071964)  can0  464   [8]  F5 19 6C 02 65 A2 07 F9 ::
whereamiCoords(
    Latitude: 40.638965 °,
    Longitude: -116.940187 °
)
 (081.981858)  can0  460   [4]  20 00 CD 53 ::
whereamiData(
    Speed: 0.32 km/h,
    Distance: 21453 m
)
 (081.982069)  can0  462   [4]  25 00 CD 53 ::
whereamiRawData(
    RawSpeed: 0.37 km/h,
    RawDistance: 21453 m
)
 (081.982257)  can0  464   [8]  F5 19 6C 02 63 A2 07 F9 ::
whereamiCoords(
    Latitude: 40.638965 °,
    Longitude: -116.94018899999999 °
)
 (082.990310)  can0  460   [4]  20 00 CD 53 ::
whereamiData(
    Speed: 0.32 km/h,
    Distance: 21453 m
)
 (082.990563)  can0  464   [8]  F5 19 6C 02 62 A2 07 F9 ::
whereamiCoords(
    Latitude: 40.638965 °,
    Longitude: -116.94019 °
)
 (082.991314)  can0  462   [4]  25 00 CD 53 ::
whereamiRawData(
    RawSpeed: 0.37 km/h,
    RawDistance: 21453 m
)
 (082.991508)  can0  468   [2]  64 00 ::
whereamiPosUncert(
    PosUncertainty: 1.0 m
)
 (084.002008)  can0  460   [4]  20 00 CD 53 ::
whereamiData(
    Speed: 0.32 km/h,
    Distance: 21453 m
)
 (084.002224)  can0  462   [4]  25 00 CD 53 ::
whereamiRawData(
    RawSpeed: 0.37 km/h,
    RawDistance: 21453 m
)
 (084.002412)  can0  464   [8]  F5 19 6C 02 62 A2 07 F9 ::
whereamiCoords(
    Latitude: 40.638965 °,
    Longitude: -116.94019 °
)
 (085.015654)  can0  460   [4]  10 00 CD 53 ::
whereamiData(
    Speed: 0.16 km/h,
    Distance: 21453 m
)
 (085.015861)  can0  462   [4]  12 00 CD 53 ::
whereamiRawData(
    RawSpeed: 0.18 km/h,
    RawDistance: 21453 m
)
 (085.016051)  can0  464   [8]  F5 19 6C 02 62 A2 07 F9 ::
whereamiCoords(
    Latitude: 40.638965 °,
    Longitude: -116.94019 °
)
 (086.027944)  can0  460   [4]  10 00 CD 53 ::
whereamiData(
    Speed: 0.16 km/h,
    Distance: 21453 m
)
 (086.028154)  can0  462   [4]  12 00 CD 53 ::
whereamiRawData(
    RawSpeed: 0.18 km/h,
    RawDistance: 21453 m
)
 (086.028341)  can0  464   [8]  F6 19 6C 02 60 A2 07 F9 ::
whereamiCoords(
    Latitude: 40.638965999999996 °,
    Longitude: -116.940192 °
)
 (087.036145)  can0  460   [4]  10 00 CD 53 ::
whereamiData(
    Speed: 0.16 km/h,
    Distance: 21453 m
)
 (087.036348)  can0  462   [4]  12 00 CD 53 ::
whereamiRawData(
    RawSpeed: 0.18 km/h,
    RawDistance: 21453 m
)
 (087.036534)  can0  464   [8]  F7 19 6C 02 5E A2 07 F9 ::
whereamiCoords(
    Latitude: 40.638967 °,
    Longitude: -116.94019399999999 °
)
 (088.045898)  can0  460   [4]  30 00 CD 53 ::
whereamiData(
    Speed: 0.48 km/h,
    Distance: 21453 m
)
 (088.046106)  can0  462   [4]  37 00 CD 53 ::
whereamiRawData(
    RawSpeed: 0.55 km/h,
    RawDistance: 21453 m
)
 (088.046294)  can0  464   [8]  F8 19 6C 02 59 A2 07 F9 ::
whereamiCoords(
    Latitude: 40.638968 °,
    Longitude: -116.94019899999999 °
)
 (089.053763)  can0  460   [4]  10 00 CC 53 ::
whereamiData(
    Speed: 0.16 km/h,
    Distance: 21452 m
)
 (089.053972)  can0  462   [4]  12 00 CC 53 ::
whereamiRawData(
    RawSpeed: 0.18 km/h,
    RawDistance: 21452 m
)
 (089.054161)  can0  464   [8]  F9 19 6C 02 57 A2 07 F9 ::
whereamiCoords(
    Latitude: 40.638968999999996 °,
    Longitude: -116.94020099999999 °
)
 (090.065951)  can0  460   [4]  00 00 CC 53 ::
whereamiData(
    Speed: 0.0 km/h,
    Distance: 21452 m
)
 (090.066161)  can0  462   [4]  00 00 CC 53 ::
whereamiRawData(
    RawSpeed: 0.0 km/h,
    RawDistance: 21452 m
)
 (090.066353)  can0  464   [8]  F9 19 6C 02 55 A2 07 F9 ::
whereamiCoords(
    Latitude: 40.638968999999996 °,
    Longitude: -116.940203 °
)
 (091.077803)  can0  460   [4]  00 00 CC 53 ::
whereamiData(
    Speed: 0.0 km/h,
    Distance: 21452 m
)
 (091.078012)  can0  462   [4]  00 00 CC 53 ::
whereamiRawData(
    RawSpeed: 0.0 km/h,
    RawDistance: 21452 m
)
 (091.078200)  can0  464   [8]  FB 19 6C 02 52 A2 07 F9 ::
whereamiCoords(
    Latitude: 40.638971 °,
    Longitude: -116.94020599999999 °
)
 (091.988503)  can0  460   [4]  21 00 CD 53 ::
whereamiData(
    Speed: 0.33 km/h,
    Distance: 21453 m
)
 (091.988750)  can0  464   [8]  FE 19 6C 02 4E A2 07 F9 ::
whereamiCoords(
    Latitude: 40.638974 °,
    Longitude: -116.94021 °
)
 (091.989516)  can0  462   [4]  25 00 CD 53 ::
whereamiRawData(
    RawSpeed: 0.37 km/h,
    RawDistance: 21453 m
)
 (091.989715)  can0  468   [2]  64 00 ::
whereamiPosUncert(
    PosUncertainty: 1.0 m
)
 (092.998114)  can0  460   [4]  21 00 CD 53 ::
whereamiData(
    Speed: 0.33 km/h,
    Distance: 21453 m
)
 (092.998336)  can0  462   [4]  25 00 CD 53 ::
whereamiRawData(
    RawSpeed: 0.37 km/h,
    RawDistance: 21453 m
)
 (092.998530)  can0  464   [8]  00 1A 6C 02 4D A2 07 F9 ::
whereamiCoords(
    Latitude: 40.638976 °,
    Longitude: -116.94021099999999 °
)
 (094.008039)  can0  460   [4]  10 00 CD 53 ::
whereamiData(
    Speed: 0.16 km/h,
    Distance: 21453 m
)
 (094.008245)  can0  462   [4]  12 00 CD 53 ::
whereamiRawData(
    RawSpeed: 0.18 km/h,
    RawDistance: 21453 m
)
 (094.008434)  can0  464   [8]  01 1A 6C 02 4C A2 07 F9 ::
whereamiCoords(
    Latitude: 40.638977 °,
    Longitude: -116.94021199999999 °
)
 (095.016057)  can0  460   [4]  21 00 CD 53 ::
whereamiData(
    Speed: 0.33 km/h,
    Distance: 21453 m
)
 (095.016265)  can0  462   [4]  25 00 CD 53 ::
whereamiRawData(
    RawSpeed: 0.37 km/h,
    RawDistance: 21453 m
)
 (095.016453)  can0  464   [8]  02 1A 6C 02 4A A2 07 F9 ::
whereamiCoords(
    Latitude: 40.638978 °,
    Longitude: -116.940214 °
)
 (096.025922)  can0  460   [4]  10 00 CD 53 ::
whereamiData(
    Speed: 0.16 km/h,
    Distance: 21453 m
)
 (096.026140)  can0  462   [4]  12 00 CD 53 ::
whereamiRawData(
    RawSpeed: 0.18 km/h,
    RawDistance: 21453 m
)
 (096.026331)  can0  464   [8]  01 1A 6C 02 47 A2 07 F9 ::
whereamiCoords(
    Latitude: 40.638977 °,
    Longitude: -116.94021699999999 °
)
 (097.042102)  can0  460   [4]  10 00 CD 53 ::
whereamiData(
    Speed: 0.16 km/h,
    Distance: 21453 m
)
 (097.042306)  can0  462   [4]  12 00 CD 53 ::
whereamiRawData(
    RawSpeed: 0.18 km/h,
    RawDistance: 21453 m
)
 (097.042493)  can0  464   [8]  03 1A 6C 02 45 A2 07 F9 ::
whereamiCoords(
    Latitude: 40.638979 °,
    Longitude: -116.940219 °
)
 (098.051984)  can0  460   [4]  10 00 CD 53 ::
whereamiData(
    Speed: 0.16 km/h,
    Distance: 21453 m
)
 (098.052197)  can0  462   [4]  12 00 CD 53 ::
whereamiRawData(
    RawSpeed: 0.18 km/h,
    RawDistance: 21453 m
)
 (098.052388)  can0  464   [8]  06 1A 6C 02 43 A2 07 F9 ::
whereamiCoords(
    Latitude: 40.638982 °,
    Longitude: -116.940221 °
)
 (099.063973)  can0  460   [4]  00 00 CD 53 ::
whereamiData(
    Speed: 0.0 km/h,
    Distance: 21453 m
)
 (099.064180)  can0  462   [4]  00 00 CD 53 ::
whereamiRawData(
    RawSpeed: 0.0 km/h,
    RawDistance: 21453 m
)
 (099.064368)  can0  464   [8]  0A 1A 6C 02 3E A2 07 F9 ::
whereamiCoords(
    Latitude: 40.638985999999996 °,
    Longitude: -116.940226 °
)
 (100.072261)  can0  460   [4]  00 00 CD 53 ::
whereamiData(
    Speed: 0.0 km/h,
    Distance: 21453 m
)
 (100.072471)  can0  462   [4]  00 00 CD 53 ::
whereamiRawData(
    RawSpeed: 0.0 km/h,
    RawDistance: 21453 m
)
 (100.072659)  can0  464   [8]  0D 1A 6C 02 3B A2 07 F9 ::
whereamiCoords(
    Latitude: 40.638988999999995 °,
    Longitude: -116.94022899999999 °
)
 (100.986562)  can0  460   [4]  21 00 CD 53 ::
whereamiData(
    Speed: 0.33 km/h,
    Distance: 21453 m
)
 (100.986792)  can0  462   [4]  25 00 CD 53 ::
whereamiRawData(
    RawSpeed: 0.37 km/h,
    RawDistance: 21453 m
)
 (100.986980)  can0  464   [8]  10 1A 6C 02 39 A2 07 F9 ::
whereamiCoords(
    Latitude: 40.638991999999995 °,
    Longitude: -116.940231 °
)
 (102.000213)  can0  460   [4]  21 00 CE 53 ::
whereamiData(
    Speed: 0.33 km/h,
    Distance: 21454 m
)
 (102.000417)  can0  462   [4]  25 00 CE 53 ::
whereamiRawData(
    RawSpeed: 0.37 km/h,
    RawDistance: 21454 m
)
 (102.000607)  can0  464   [8]  11 1A 6C 02 37 A2 07 F9 ::
whereamiCoords(
    Latitude: 40.638993 °,
    Longitude: -116.94023299999999 °
)
 (103.014425)  can0  460   [4]  21 00 CE 53 ::
whereamiData(
    Speed: 0.33 km/h,
    Distance: 21454 m
)
 (103.014636)  can0  462   [4]  25 00 CE 53 ::
whereamiRawData(
    RawSpeed: 0.37 km/h,
    RawDistance: 21454 m
)
 (103.014823)  can0  464   [8]  12 1A 6C 02 37 A2 07 F9 ::
whereamiCoords(
    Latitude: 40.638994 °,
    Longitude: -116.94023299999999 °
)
 (104.026089)  can0  460   [4]  21 00 CE 53 ::
whereamiData(
    Speed: 0.33 km/h,
    Distance: 21454 m
)
 (104.026295)  can0  462   [4]  25 00 CE 53 ::
whereamiRawData(
    RawSpeed: 0.37 km/h,
    RawDistance: 21454 m
)
 (104.026492)  can0  464   [8]  12 1A 6C 02 36 A2 07 F9 ::
whereamiCoords(
    Latitude: 40.638994 °,
    Longitude: -116.94023399999999 °
)
 (105.036291)  can0  460   [4]  10 00 CE 53 ::
whereamiData(
    Speed: 0.16 km/h,
    Distance: 21454 m
)
 (105.036494)  can0  462   [4]  12 00 CE 53 ::
whereamiRawData(
    RawSpeed: 0.18 km/h,
    RawDistance: 21454 m
)
 (105.036677)  can0  464   [8]  12 1A 6C 02 36 A2 07 F9 ::
whereamiCoords(
    Latitude: 40.638994 °,
    Longitude: -116.94023399999999 °
)
 (106.046330)  can0  460   [4]  10 00 CE 53 ::
whereamiData(
    Speed: 0.16 km/h,
    Distance: 21454 m
)
 (106.046546)  can0  462   [4]  12 00 CE 53 ::
whereamiRawData(
    RawSpeed: 0.18 km/h,
    RawDistance: 21454 m
)
 (106.046735)  can0  464   [8]  12 1A 6C 02 37 A2 07 F9 ::
whereamiCoords(
    Latitude: 40.638994 °,
    Longitude: -116.94023299999999 °
)
 (107.056159)  can0  460   [4]  10 00 CE 53 ::
whereamiData(
    Speed: 0.16 km/h,
    Distance: 21454 m
)
 (107.056371)  can0  462   [4]  12 00 CE 53 ::
whereamiRawData(
    RawSpeed: 0.18 km/h,
    RawDistance: 21454 m
)
 (107.056558)  can0  464   [8]  12 1A 6C 02 37 A2 07 F9 ::
whereamiCoords(
    Latitude: 40.638994 °,
    Longitude: -116.94023299999999 °
)
 (108.068547)  can0  460   [4]  21 00 CE 53 ::
whereamiData(
    Speed: 0.33 km/h,
    Distance: 21454 m
)
 (108.068757)  can0  462   [4]  25 00 CE 53 ::
whereamiRawData(
    RawSpeed: 0.37 km/h,
    RawDistance: 21454 m
)
 (108.068946)  can0  464   [8]  12 1A 6C 02 37 A2 07 F9 ::
whereamiCoords(
    Latitude: 40.638994 °,
    Longitude: -116.94023299999999 °
)
 (108.980911)  can0  460   [4]  10 00 CE 53 ::
whereamiData(
    Speed: 0.16 km/h,
    Distance: 21454 m
)
 (108.981174)  can0  464   [8]  12 1A 6C 02 37 A2 07 F9 ::
whereamiCoords(
    Latitude: 40.638994 °,
    Longitude: -116.94023299999999 °
)
 (108.981898)  can0  462   [4]  12 00 CE 53 ::
whereamiRawData(
    RawSpeed: 0.18 km/h,
    RawDistance: 21454 m
)
 (108.982083)  can0  468   [2]  64 00 ::
whereamiPosUncert(
    PosUncertainty: 1.0 m
)
 (109.994664)  can0  460   [4]  10 00 CE 53 ::
whereamiData(
    Speed: 0.16 km/h,
    Distance: 21454 m
)
 (109.994869)  can0  462   [4]  12 00 CE 53 ::
whereamiRawData(
    RawSpeed: 0.18 km/h,
    RawDistance: 21454 m
)
 (109.995062)  can0  464   [8]  12 1A 6C 02 37 A2 07 F9 ::
whereamiCoords(
    Latitude: 40.638994 °,
    Longitude: -116.94023299999999 °
)
 (111.010444)  can0  460   [4]  21 00 CE 53 ::
whereamiData(
    Speed: 0.33 km/h,
    Distance: 21454 m
)
 (111.010654)  can0  462   [4]  25 00 CE 53 ::
whereamiRawData(
    RawSpeed: 0.37 km/h,
    RawDistance: 21454 m
)
 (111.010846)  can0  464   [8]  12 1A 6C 02 37 A2 07 F9 ::
whereamiCoords(
    Latitude: 40.638994 °,
    Longitude: -116.94023299999999 °
)
 (112.024545)  can0  460   [4]  10 00 CE 53 ::
whereamiData(
    Speed: 0.16 km/h,
    Distance: 21454 m
)
 (112.024748)  can0  462   [4]  12 00 CE 53 ::
whereamiRawData(
    RawSpeed: 0.18 km/h,
    RawDistance: 21454 m
)
 (112.024936)  can0  464   [8]  12 1A 6C 02 37 A2 07 F9 ::
whereamiCoords(
    Latitude: 40.638994 °,
    Longitude: -116.94023299999999 °
)
 (113.034312)  can0  460   [4]  10 00 CE 53 ::
whereamiData(
    Speed: 0.16 km/h,
    Distance: 21454 m
)
 (113.034522)  can0  462   [4]  12 00 CE 53 ::
whereamiRawData(
    RawSpeed: 0.18 km/h,
    RawDistance: 21454 m
)
 (113.034714)  can0  464   [8]  12 1A 6C 02 37 A2 07 F9 ::
whereamiCoords(
    Latitude: 40.638994 °,
    Longitude: -116.94023299999999 °
)
 (114.046510)  can0  460   [4]  10 00 CE 53 ::
whereamiData(
    Speed: 0.16 km/h,
    Distance: 21454 m
)
 (114.046712)  can0  462   [4]  12 00 CE 53 ::
whereamiRawData(
    RawSpeed: 0.18 km/h,
    RawDistance: 21454 m
)
 (114.046898)  can0  464   [8]  12 1A 6C 02 37 A2 07 F9 ::
whereamiCoords(
    Latitude: 40.638994 °,
    Longitude: -116.94023299999999 °
)
 (115.062532)  can0  460   [4]  10 00 CE 53 ::
whereamiData(
    Speed: 0.16 km/h,
    Distance: 21454 m
)
 (115.062762)  can0  462   [4]  12 00 CE 53 ::
whereamiRawData(
    RawSpeed: 0.18 km/h,
    RawDistance: 21454 m
)
 (115.062950)  can0  464   [8]  12 1A 6C 02 37 A2 07 F9 ::
whereamiCoords(
    Latitude: 40.638994 °,
    Longitude: -116.94023299999999 °
)
 (116.070630)  can0  460   [4]  00 00 CE 53 ::
whereamiData(
    Speed: 0.0 km/h,
    Distance: 21454 m
)
 (116.070834)  can0  462   [4]  00 00 CE 53 ::
whereamiRawData(
    RawSpeed: 0.0 km/h,
    RawDistance: 21454 m
)
 (116.071019)  can0  464   [8]  12 1A 6C 02 37 A2 07 F9 ::
whereamiCoords(
    Latitude: 40.638994 °,
    Longitude: -116.94023299999999 °
)
 (116.982568)  can0  460   [4]  00 00 CE 53 ::
whereamiData(
    Speed: 0.0 km/h,
    Distance: 21454 m
)
 (116.982777)  can0  462   [4]  00 00 CE 53 ::
whereamiRawData(
    RawSpeed: 0.0 km/h,
    RawDistance: 21454 m
)
 (116.982965)  can0  464   [8]  12 1A 6C 02 38 A2 07 F9 ::
whereamiCoords(
    Latitude: 40.638994 °,
    Longitude: -116.940232 °
)
 (117.990939)  can0  460   [4]  00 00 CE 53 ::
whereamiData(
    Speed: 0.0 km/h,
    Distance: 21454 m
)
 (117.991140)  can0  462   [4]  00 00 CE 53 ::
whereamiRawData(
    RawSpeed: 0.0 km/h,
    RawDistance: 21454 m
)
 (117.991323)  can0  464   [8]  12 1A 6C 02 38 A2 07 F9 ::
whereamiCoords(
    Latitude: 40.638994 °,
    Longitude: -116.940232 °
)
 (119.006458)  can0  460   [4]  10 00 CE 53 ::
whereamiData(
    Speed: 0.16 km/h,
    Distance: 21454 m
)
 (119.006681)  can0  462   [4]  12 00 CE 53 ::
whereamiRawData(
    RawSpeed: 0.18 km/h,
    RawDistance: 21454 m
)
 (119.006870)  can0  464   [8]  12 1A 6C 02 37 A2 07 F9 ::
whereamiCoords(
    Latitude: 40.638994 °,
    Longitude: -116.94023299999999 °
)
 (120.014896)  can0  460   [4]  10 00 CE 53 ::
whereamiData(
    Speed: 0.16 km/h,
    Distance: 21454 m
)
 (120.015103)  can0  462   [4]  12 00 CE 53 ::
whereamiRawData(
    RawSpeed: 0.18 km/h,
    RawDistance: 21454 m
)
 (120.015294)  can0  464   [8]  12 1A 6C 02 37 A2 07 F9 ::
whereamiCoords(
    Latitude: 40.638994 °,
    Longitude: -116.94023299999999 °
)
 (121.028678)  can0  460   [4]  10 00 CE 53 ::
whereamiData(
    Speed: 0.16 km/h,
    Distance: 21454 m
)
 (121.028891)  can0  462   [4]  12 00 CE 53 ::
whereamiRawData(
    RawSpeed: 0.18 km/h,
    RawDistance: 21454 m
)
 (121.029080)  can0  464   [8]  12 1A 6C 02 37 A2 07 F9 ::
whereamiCoords(
    Latitude: 40.638994 °,
    Longitude: -116.94023299999999 °
)
 (122.040497)  can0  460   [4]  00 00 CE 53 ::
whereamiData(
    Speed: 0.0 km/h,
    Distance: 21454 m
)
 (122.040706)  can0  462   [4]  00 00 CE 53 ::
whereamiRawData(
    RawSpeed: 0.0 km/h,
    RawDistance: 21454 m
)
 (122.040894)  can0  464   [8]  12 1A 6C 02 37 A2 07 F9 ::
whereamiCoords(
    Latitude: 40.638994 °,
    Longitude: -116.94023299999999 °
)
 (123.050530)  can0  460   [4]  00 00 CE 53 ::
whereamiData(
    Speed: 0.0 km/h,
    Distance: 21454 m
)
 (123.050734)  can0  462   [4]  00 00 CE 53 ::
whereamiRawData(
    RawSpeed: 0.0 km/h,
    RawDistance: 21454 m
)
 (123.050925)  can0  464   [8]  12 1A 6C 02 38 A2 07 F9 ::
whereamiCoords(
    Latitude: 40.638994 °,
    Longitude: -116.940232 °
)
 (124.058820)  can0  460   [4]  00 00 CE 53 ::
whereamiData(
    Speed: 0.0 km/h,
    Distance: 21454 m
)
 (124.059035)  can0  462   [4]  00 00 CE 53 ::
whereamiRawData(
    RawSpeed: 0.0 km/h,
    RawDistance: 21454 m
)
 (124.059222)  can0  464   [8]  12 1A 6C 02 38 A2 07 F9 ::
whereamiCoords(
    Latitude: 40.638994 °,
    Longitude: -116.940232 °
)
 (125.070743)  can0  460   [4]  00 00 CE 53 ::
whereamiData(
    Speed: 0.0 km/h,
    Distance: 21454 m
)
 (125.070950)  can0  462   [4]  00 00 CE 53 ::
whereamiRawData(
    RawSpeed: 0.0 km/h,
    RawDistance: 21454 m
)
 (125.071139)  can0  464   [8]  12 1A 6C 02 38 A2 07 F9 ::
whereamiCoords(
    Latitude: 40.638994 °,
    Longitude: -116.940232 °
)
 (125.983294)  can0  460   [4]  11 00 CE 53 ::
whereamiData(
    Speed: 0.17 km/h,
    Distance: 21454 m
)
 (125.983544)  can0  464   [8]  12 1A 6C 02 37 A2 07 F9 ::
whereamiCoords(
    Latitude: 40.638994 °,
    Longitude: -116.94023299999999 °
)
 (125.984313)  can0  462   [4]  12 00 CE 53 ::
whereamiRawData(
    RawSpeed: 0.18 km/h,
    RawDistance: 21454 m
)
 (125.984516)  can0  468   [2]  64 00 ::
whereamiPosUncert(
    PosUncertainty: 1.0 m
)
 (126.996990)  can0  460   [4]  10 00 CE 53 ::
whereamiData(
    Speed: 0.16 km/h,
    Distance: 21454 m
)
 (126.997200)  can0  462   [4]  12 00 CE 53 ::
whereamiRawData(
    RawSpeed: 0.18 km/h,
    RawDistance: 21454 m
)
 (126.997396)  can0  464   [8]  12 1A 6C 02 37 A2 07 F9 ::
whereamiCoords(
    Latitude: 40.638994 °,
    Longitude: -116.94023299999999 °
)
 (128.010819)  can0  460   [4]  11 00 CE 53 ::
whereamiData(
    Speed: 0.17 km/h,
    Distance: 21454 m
)
 (128.011027)  can0  462   [4]  12 00 CE 53 ::
whereamiRawData(
    RawSpeed: 0.18 km/h,
    RawDistance: 21454 m
)
 (128.011218)  can0  464   [8]  12 1A 6C 02 37 A2 07 F9 ::
whereamiCoords(
    Latitude: 40.638994 °,
    Longitude: -116.94023299999999 °
)
 (129.022856)  can0  460   [4]  10 00 CE 53 ::
whereamiData(
    Speed: 0.16 km/h,
    Distance: 21454 m
)
 (129.023068)  can0  462   [4]  12 00 CE 53 ::
whereamiRawData(
    RawSpeed: 0.18 km/h,
    RawDistance: 21454 m
)
 (129.023259)  can0  464   [8]  12 1A 6C 02 37 A2 07 F9 ::
whereamiCoords(
    Latitude: 40.638994 °,
    Longitude: -116.94023299999999 °
)
 (130.034692)  can0  460   [4]  11 00 CE 53 ::
whereamiData(
    Speed: 0.17 km/h,
    Distance: 21454 m
)
 (130.034902)  can0  462   [4]  12 00 CE 53 ::
whereamiRawData(
    RawSpeed: 0.18 km/h,
    RawDistance: 21454 m
)
 (130.035092)  can0  464   [8]  12 1A 6C 02 37 A2 07 F9 ::
whereamiCoords(
    Latitude: 40.638994 °,
    Longitude: -116.94023299999999 °
)
 (131.044893)  can0  460   [4]  11 00 CE 53 ::
whereamiData(
    Speed: 0.17 km/h,
    Distance: 21454 m
)
 (131.045104)  can0  462   [4]  12 00 CE 53 ::
whereamiRawData(
    RawSpeed: 0.18 km/h,
    RawDistance: 21454 m
)
 (131.045292)  can0  464   [8]  12 1A 6C 02 37 A2 07 F9 ::
whereamiCoords(
    Latitude: 40.638994 °,
    Longitude: -116.94023299999999 °
)
 (132.056568)  can0  460   [4]  00 00 CE 53 ::
whereamiData(
    Speed: 0.0 km/h,
    Distance: 21454 m
)
 (132.056773)  can0  462   [4]  00 00 CE 53 ::
whereamiRawData(
    RawSpeed: 0.0 km/h,
    RawDistance: 21454 m
)
 (132.056957)  can0  464   [8]  12 1A 6C 02 38 A2 07 F9 ::
whereamiCoords(
    Latitude: 40.638994 °,
    Longitude: -116.940232 °
)
 (133.064579)  can0  460   [4]  00 00 CE 53 ::
whereamiData(
    Speed: 0.0 km/h,
    Distance: 21454 m
)
 (133.064788)  can0  462   [4]  00 00 CE 53 ::
whereamiRawData(
    RawSpeed: 0.0 km/h,
    RawDistance: 21454 m
)
 (133.064974)  can0  464   [8]  12 1A 6C 02 38 A2 07 F9 ::
whereamiCoords(
    Latitude: 40.638994 °,
    Longitude: -116.940232 °
)
 (134.075048)  can0  460   [4]  10 00 CE 53 ::
whereamiData(
    Speed: 0.16 km/h,
    Distance: 21454 m
)
 (134.075257)  can0  462   [4]  12 00 CE 53 ::
whereamiRawData(
    RawSpeed: 0.18 km/h,
    RawDistance: 21454 m
)
 (134.075444)  can0  464   [8]  12 1A 6C 02 38 A2 07 F9 ::
whereamiCoords(
    Latitude: 40.638994 °,
    Longitude: -116.940232 °
)
 (134.986982)  can0  460   [4]  00 00 CE 53 ::
whereamiData(
    Speed: 0.0 km/h,
    Distance: 21454 m
)
 (134.987193)  can0  462   [4]  00 00 CE 53 ::
whereamiRawData(
    RawSpeed: 0.0 km/h,
    RawDistance: 21454 m
)
 (134.987384)  can0  464   [8]  12 1A 6C 02 38 A2 07 F9 ::
whereamiCoords(
    Latitude: 40.638994 °,
    Longitude: -116.940232 °
)
 (135.997095)  can0  460   [4]  10 00 CE 53 ::
whereamiData(
    Speed: 0.16 km/h,
    Distance: 21454 m
)
 (135.997302)  can0  462   [4]  12 00 CE 53 ::
whereamiRawData(
    RawSpeed: 0.18 km/h,
    RawDistance: 21454 m
)
 (135.997491)  can0  464   [8]  12 1A 6C 02 38 A2 07 F9 ::
whereamiCoords(
    Latitude: 40.638994 °,
    Longitude: -116.940232 °
)
 (137.011026)  can0  460   [4]  10 00 CE 53 ::
whereamiData(
    Speed: 0.16 km/h,
    Distance: 21454 m
)
 (137.011232)  can0  462   [4]  12 00 CE 53 ::
whereamiRawData(
    RawSpeed: 0.18 km/h,
    RawDistance: 21454 m
)
 (137.011423)  can0  464   [8]  12 1A 6C 02 38 A2 07 F9 ::
whereamiCoords(
    Latitude: 40.638994 °,
    Longitude: -116.940232 °
)
 (138.022881)  can0  460   [4]  10 00 CE 53 ::
whereamiData(
    Speed: 0.16 km/h,
    Distance: 21454 m
)
 (138.023088)  can0  462   [4]  12 00 CE 53 ::
whereamiRawData(
    RawSpeed: 0.18 km/h,
    RawDistance: 21454 m
)
 (138.023287)  can0  464   [8]  12 1A 6C 02 38 A2 07 F9 ::
whereamiCoords(
    Latitude: 40.638994 °,
    Longitude: -116.940232 °
)
 (139.033247)  can0  460   [4]  10 00 CE 53 ::
whereamiData(
    Speed: 0.16 km/h,
    Distance: 21454 m
)
 (139.033451)  can0  462   [4]  12 00 CE 53 ::
whereamiRawData(
    RawSpeed: 0.18 km/h,
    RawDistance: 21454 m
)
 (139.033639)  can0  464   [8]  12 1A 6C 02 37 A2 07 F9 ::
whereamiCoords(
    Latitude: 40.638994 °,
    Longitude: -116.94023299999999 °
)
 (140.045378)  can0  460   [4]  10 00 CD 53 ::
whereamiData(
    Speed: 0.16 km/h,
    Distance: 21453 m
)
 (140.045632)  can0  462   [4]  12 00 CD 53 ::
whereamiRawData(
    RawSpeed: 0.18 km/h,
    RawDistance: 21453 m
)
 (140.045829)  can0  464   [8]  0D 1A 6C 02 40 A2 07 F9 ::
whereamiCoords(
    Latitude: 40.638988999999995 °,
    Longitude: -116.940224 °
)
 (141.057113)  can0  460   [4]  10 00 CD 53 ::
whereamiData(
    Speed: 0.16 km/h,
    Distance: 21453 m
)
 (141.057335)  can0  462   [4]  12 00 CD 53 ::
whereamiRawData(
    RawSpeed: 0.18 km/h,
    RawDistance: 21453 m
)
 (141.057532)  can0  464   [8]  0A 1A 6C 02 45 A2 07 F9 ::
whereamiCoords(
    Latitude: 40.638985999999996 °,
    Longitude: -116.940219 °
)
 (142.067421)  can0  460   [4]  10 00 CD 53 ::
whereamiData(
    Speed: 0.16 km/h,
    Distance: 21453 m
)
 (142.067652)  can0  462   [4]  12 00 CD 53 ::
whereamiRawData(
    RawSpeed: 0.18 km/h,
    RawDistance: 21453 m
)
 (142.067860)  can0  464   [8]  08 1A 6C 02 47 A2 07 F9 ::
whereamiCoords(
    Latitude: 40.638984 °,
    Longitude: -116.94021699999999 °
)
 (143.079361)  can0  460   [4]  10 00 CD 53 ::
whereamiData(
    Speed: 0.16 km/h,
    Distance: 21453 m
)
 (143.079590)  can0  462   [4]  12 00 CD 53 ::
whereamiRawData(
    RawSpeed: 0.18 km/h,
    RawDistance: 21453 m
)
 (143.079798)  can0  464   [8]  07 1A 6C 02 49 A2 07 F9 ::
whereamiCoords(
    Latitude: 40.638982999999996 °,
    Longitude: -116.940215 °
)
 (143.989362)  can0  460   [4]  10 00 CD 53 ::
whereamiData(
    Speed: 0.16 km/h,
    Distance: 21453 m
)
 (143.989583)  can0  462   [4]  12 00 CD 53 ::
whereamiRawData(
    RawSpeed: 0.18 km/h,
    RawDistance: 21453 m
)
 (143.989788)  can0  464   [8]  07 1A 6C 02 4A A2 07 F9 ::
whereamiCoords(
    Latitude: 40.638982999999996 °,
    Longitude: -116.940214 °
)
 (144.997384)  can0  460   [4]  10 00 CD 53 ::
whereamiData(
    Speed: 0.16 km/h,
    Distance: 21453 m
)
 (144.997602)  can0  462   [4]  12 00 CD 53 ::
whereamiRawData(
    RawSpeed: 0.18 km/h,
    RawDistance: 21453 m
)
 (144.997802)  can0  464   [8]  06 1A 6C 02 4A A2 07 F9 ::
whereamiCoords(
    Latitude: 40.638982 °,
    Longitude: -116.940214 °
)
 (146.009105)  can0  460   [4]  00 00 CD 53 ::
whereamiData(
    Speed: 0.0 km/h,
    Distance: 21453 m
)
 (146.009362)  can0  462   [4]  00 00 CD 53 ::
whereamiRawData(
    RawSpeed: 0.0 km/h,
    RawDistance: 21453 m
)
 (146.009570)  can0  464   [8]  06 1A 6C 02 4B A2 07 F9 ::
whereamiCoords(
    Latitude: 40.638982 °,
    Longitude: -116.940213 °
)
 (147.023252)  can0  460   [4]  00 00 CD 53 ::
whereamiData(
    Speed: 0.0 km/h,
    Distance: 21453 m
)
 (147.023479)  can0  462   [4]  00 00 CD 53 ::
whereamiRawData(
    RawSpeed: 0.0 km/h,
    RawDistance: 21453 m
)
 (147.023677)  can0  464   [8]  06 1A 6C 02 4B A2 07 F9 ::
whereamiCoords(
    Latitude: 40.638982 °,
    Longitude: -116.940213 °
)
 (148.037484)  can0  460   [4]  10 00 CD 53 ::
whereamiData(
    Speed: 0.16 km/h,
    Distance: 21453 m
)
 (148.037719)  can0  462   [4]  12 00 CD 53 ::
whereamiRawData(
    RawSpeed: 0.18 km/h,
    RawDistance: 21453 m
)
 (148.037916)  can0  464   [8]  06 1A 6C 02 4B A2 07 F9 ::
whereamiCoords(
    Latitude: 40.638982 °,
    Longitude: -116.940213 °
)
 (149.047315)  can0  460   [4]  10 00 CD 53 ::
whereamiData(
    Speed: 0.16 km/h,
    Distance: 21453 m
)
 (149.047542)  can0  462   [4]  12 00 CD 53 ::
whereamiRawData(
    RawSpeed: 0.18 km/h,
    RawDistance: 21453 m
)
 (149.047745)  can0  464   [8]  06 1A 6C 02 4B A2 07 F9 ::
whereamiCoords(
    Latitude: 40.638982 °,
    Longitude: -116.940213 °
)
 (150.057162)  can0  460   [4]  10 00 CD 53 ::
whereamiData(
    Speed: 0.16 km/h,
    Distance: 21453 m
)
 (150.057383)  can0  462   [4]  12 00 CD 53 ::
whereamiRawData(
    RawSpeed: 0.18 km/h,
    RawDistance: 21453 m
)
 (150.057579)  can0  464   [8]  06 1A 6C 02 4B A2 07 F9 ::
whereamiCoords(
    Latitude: 40.638982 °,
    Longitude: -116.940213 °
)
 (151.067189)  can0  460   [4]  00 00 CD 53 ::
whereamiData(
    Speed: 0.0 km/h,
    Distance: 21453 m
)
 (151.067444)  can0  462   [4]  00 00 CD 53 ::
whereamiRawData(
    RawSpeed: 0.0 km/h,
    RawDistance: 21453 m
)
 (151.067641)  can0  464   [8]  06 1A 6C 02 4B A2 07 F9 ::
whereamiCoords(
    Latitude: 40.638982 °,
    Longitude: -116.940213 °
)
 (152.077200)  can0  460   [4]  00 00 CD 53 ::
whereamiData(
    Speed: 0.0 km/h,
    Distance: 21453 m
)
 (152.077426)  can0  462   [4]  00 00 CD 53 ::
whereamiRawData(
    RawSpeed: 0.0 km/h,
    RawDistance: 21453 m
)
 (152.077623)  can0  464   [8]  06 1A 6C 02 4B A2 07 F9 ::
whereamiCoords(
    Latitude: 40.638982 °,
    Longitude: -116.940213 °
)
 (152.991574)  can0  460   [4]  11 00 CD 53 ::
whereamiData(
    Speed: 0.17 km/h,
    Distance: 21453 m
)
 (152.991790)  can0  462   [4]  12 00 CD 53 ::
whereamiRawData(
    RawSpeed: 0.18 km/h,
    RawDistance: 21453 m
)
 (152.991987)  can0  464   [8]  06 1A 6C 02 4B A2 07 F9 ::
whereamiCoords(
    Latitude: 40.638982 °,
    Longitude: -116.940213 °
)
 (154.003605)  can0  460   [4]  11 00 CD 53 ::
whereamiData(
    Speed: 0.17 km/h,
    Distance: 21453 m
)
 (154.003854)  can0  462   [4]  12 00 CD 53 ::
whereamiRawData(
    RawSpeed: 0.18 km/h,
    RawDistance: 21453 m
)
 (154.004052)  can0  464   [8]  06 1A 6C 02 4B A2 07 F9 ::
whereamiCoords(
    Latitude: 40.638982 °,
    Longitude: -116.940213 °
)
 (155.013001)  can0  460   [4]  00 00 CD 53 ::
whereamiData(
    Speed: 0.0 km/h,
    Distance: 21453 m
)
 (155.013225)  can0  462   [4]  00 00 CD 53 ::
whereamiRawData(
    RawSpeed: 0.0 km/h,
    RawDistance: 21453 m
)
 (155.013432)  can0  464   [8]  06 1A 6C 02 4B A2 07 F9 ::
whereamiCoords(
    Latitude: 40.638982 °,
    Longitude: -116.940213 °
)
 (156.031483)  can0  460   [4]  00 00 CD 53 ::
whereamiData(
    Speed: 0.0 km/h,
    Distance: 21453 m
)
 (156.031707)  can0  462   [4]  00 00 CD 53 ::
whereamiRawData(
    RawSpeed: 0.0 km/h,
    RawDistance: 21453 m
)
 (156.031898)  can0  464   [8]  06 1A 6C 02 4B A2 07 F9 ::
whereamiCoords(
    Latitude: 40.638982 °,
    Longitude: -116.940213 °
)
 (157.043312)  can0  460   [4]  00 00 CD 53 ::
whereamiData(
    Speed: 0.0 km/h,
    Distance: 21453 m
)
 (157.043520)  can0  462   [4]  00 00 CD 53 ::
whereamiRawData(
    RawSpeed: 0.0 km/h,
    RawDistance: 21453 m
)
 (157.043710)  can0  464   [8]  06 1A 6C 02 4C A2 07 F9 ::
whereamiCoords(
    Latitude: 40.638982 °,
    Longitude: -116.94021199999999 °
)
 (158.057418)  can0  460   [4]  00 00 CD 53 ::
whereamiData(
    Speed: 0.0 km/h,
    Distance: 21453 m
)
 (158.057627)  can0  462   [4]  00 00 CD 53 ::
whereamiRawData(
    RawSpeed: 0.0 km/h,
    RawDistance: 21453 m
)
 (158.057825)  can0  464   [8]  06 1A 6C 02 4C A2 07 F9 ::
whereamiCoords(
    Latitude: 40.638982 °,
    Longitude: -116.94021199999999 °
)
 (159.069363)  can0  460   [4]  00 00 CD 53 ::
whereamiData(
    Speed: 0.0 km/h,
    Distance: 21453 m
)
 (159.069570)  can0  462   [4]  00 00 CD 53 ::
whereamiRawData(
    RawSpeed: 0.0 km/h,
    RawDistance: 21453 m
)
 (159.069762)  can0  464   [8]  06 1A 6C 02 4C A2 07 F9 ::
whereamiCoords(
    Latitude: 40.638982 °,
    Longitude: -116.94021199999999 °
)
 (159.982082)  can0  460   [4]  11 00 CD 53 ::
whereamiData(
    Speed: 0.17 km/h,
    Distance: 21453 m
)
 (159.982328)  can0  464   [8]  06 1A 6C 02 4B A2 07 F9 ::
whereamiCoords(
    Latitude: 40.638982 °,
    Longitude: -116.940213 °
)
 (159.983075)  can0  462   [4]  12 00 CD 53 ::
whereamiRawData(
    RawSpeed: 0.18 km/h,
    RawDistance: 21453 m
)
 (159.983260)  can0  468   [2]  64 00 ::
whereamiPosUncert(
    PosUncertainty: 1.0 m
)
 (160.994115)  can0  460   [4]  12 00 CD 53 ::
whereamiData(
    Speed: 0.18 km/h,
    Distance: 21453 m
)
 (160.994372)  can0  464   [8]  06 1A 6C 02 4B A2 07 F9 ::
whereamiCoords(
    Latitude: 40.638982 °,
    Longitude: -116.940213 °
)
 (160.995104)  can0  462   [4]  12 00 CD 53 ::
whereamiRawData(
    RawSpeed: 0.18 km/h,
    RawDistance: 21453 m
)
 (160.995290)  can0  468   [2]  64 00 ::
whereamiPosUncert(
    PosUncertainty: 1.0 m
)
 (162.005444)  can0  460   [4]  24 00 CD 53 ::
whereamiData(
    Speed: 0.36 km/h,
    Distance: 21453 m
)
 (162.005650)  can0  462   [4]  25 00 CD 53 ::
whereamiRawData(
    RawSpeed: 0.37 km/h,
    RawDistance: 21453 m
)
 (162.005833)  can0  464   [8]  06 1A 6C 02 4A A2 07 F9 ::
whereamiCoords(
    Latitude: 40.638982 °,
    Longitude: -116.940214 °
)
 (163.017634)  can0  460   [4]  23 00 CD 53 ::
whereamiData(
    Speed: 0.35000000000000003 km/h,
    Distance: 21453 m
)
 (163.017843)  can0  462   [4]  25 00 CD 53 ::
whereamiRawData(
    RawSpeed: 0.37 km/h,
    RawDistance: 21453 m
)
 (163.018030)  can0  464   [8]  07 1A 6C 02 4A A2 07 F9 ::
whereamiCoords(
    Latitude: 40.638982999999996 °,
    Longitude: -116.940214 °
)
 (164.027490)  can0  460   [4]  21 00 CD 53 ::
whereamiData(
    Speed: 0.33 km/h,
    Distance: 21453 m
)
 (164.027707)  can0  462   [4]  25 00 CD 53 ::
whereamiRawData(
    RawSpeed: 0.37 km/h,
    RawDistance: 21453 m
)
 (164.027898)  can0  464   [8]  07 1A 6C 02 4A A2 07 F9 ::
whereamiCoords(
    Latitude: 40.638982999999996 °,
    Longitude: -116.940214 °
)
 (165.037682)  can0  460   [4]  10 00 CD 53 ::
whereamiData(
    Speed: 0.16 km/h,
    Distance: 21453 m
)
 (165.037888)  can0  462   [4]  12 00 CD 53 ::
whereamiRawData(
    RawSpeed: 0.18 km/h,
    RawDistance: 21453 m
)
 (165.038076)  can0  464   [8]  07 1A 6C 02 4A A2 07 F9 ::
whereamiCoords(
    Latitude: 40.638982999999996 °,
    Longitude: -116.940214 °
)
 (166.045711)  can0  460   [4]  10 00 CD 53 ::
whereamiData(
    Speed: 0.16 km/h,
    Distance: 21453 m
)
 (166.045918)  can0  462   [4]  12 00 CD 53 ::
whereamiRawData(
    RawSpeed: 0.18 km/h,
    RawDistance: 21453 m
)
 (166.046103)  can0  464   [8]  07 1A 6C 02 4A A2 07 F9 ::
whereamiCoords(
    Latitude: 40.638982999999996 °,
    Longitude: -116.940214 °
)
 (167.055733)  can0  460   [4]  21 00 CD 53 ::
whereamiData(
    Speed: 0.33 km/h,
    Distance: 21453 m
)
 (167.055940)  can0  462   [4]  25 00 CD 53 ::
whereamiRawData(
    RawSpeed: 0.37 km/h,
    RawDistance: 21453 m
)
 (167.056127)  can0  464   [8]  07 1A 6C 02 4A A2 07 F9 ::
whereamiCoords(
    Latitude: 40.638982999999996 °,
    Longitude: -116.940214 °
)
 (168.066008)  can0  460   [4]  21 00 CD 53 ::
whereamiData(
    Speed: 0.33 km/h,
    Distance: 21453 m
)
 (168.066217)  can0  462   [4]  25 00 CD 53 ::
whereamiRawData(
    RawSpeed: 0.37 km/h,
    RawDistance: 21453 m
)
 (168.066403)  can0  464   [8]  07 1A 6C 02 4A A2 07 F9 ::
whereamiCoords(
    Latitude: 40.638982999999996 °,
    Longitude: -116.940214 °
)
 (169.077801)  can0  460   [4]  11 00 CD 53 ::
whereamiData(
    Speed: 0.17 km/h,
    Distance: 21453 m
)
 (169.078016)  can0  462   [4]  12 00 CD 53 ::
whereamiRawData(
    RawSpeed: 0.18 km/h,
    RawDistance: 21453 m
)
 (169.078207)  can0  464   [8]  06 1A 6C 02 4B A2 07 F9 ::
whereamiCoords(
    Latitude: 40.638982 °,
    Longitude: -116.940213 °
)
 (169.985895)  can0  460   [4]  00 00 CD 53 ::
whereamiData(
    Speed: 0.0 km/h,
    Distance: 21453 m
)
 (169.986119)  can0  462   [4]  00 00 CD 53 ::
whereamiRawData(
    RawSpeed: 0.0 km/h,
    RawDistance: 21453 m
)
 (169.986311)  can0  464   [8]  06 1A 6C 02 4B A2 07 F9 ::
whereamiCoords(
    Latitude: 40.638982 °,
    Longitude: -116.940213 °
)
 (170.995851)  can0  460   [4]  00 00 CD 53 ::
whereamiData(
    Speed: 0.0 km/h,
    Distance: 21453 m
)
 (170.996050)  can0  462   [4]  00 00 CD 53 ::
whereamiRawData(
    RawSpeed: 0.0 km/h,
    RawDistance: 21453 m
)
 (170.996235)  can0  464   [8]  06 1A 6C 02 4B A2 07 F9 ::
whereamiCoords(
    Latitude: 40.638982 °,
    Longitude: -116.940213 °
)
 (172.005844)  can0  460   [4]  00 00 CD 53 ::
whereamiData(
    Speed: 0.0 km/h,
    Distance: 21453 m
)
 (172.006053)  can0  462   [4]  00 00 CD 53 ::
whereamiRawData(
    RawSpeed: 0.0 km/h,
    RawDistance: 21453 m
)
 (172.006243)  can0  464   [8]  06 1A 6C 02 4B A2 07 F9 ::
whereamiCoords(
    Latitude: 40.638982 °,
    Longitude: -116.940213 °
)
 (173.019881)  can0  460   [4]  00 00 CD 53 ::
whereamiData(
    Speed: 0.0 km/h,
    Distance: 21453 m
)
 (173.020090)  can0  462   [4]  00 00 CD 53 ::
whereamiRawData(
    RawSpeed: 0.0 km/h,
    RawDistance: 21453 m
)
 (173.020283)  can0  464   [8]  06 1A 6C 02 4C A2 07 F9 ::
whereamiCoords(
    Latitude: 40.638982 °,
    Longitude: -116.94021199999999 °
)
 (174.033712)  can0  460   [4]  00 00 CD 53 ::
whereamiData(
    Speed: 0.0 km/h,
    Distance: 21453 m
)
 (174.033922)  can0  462   [4]  00 00 CD 53 ::
whereamiRawData(
    RawSpeed: 0.0 km/h,
    RawDistance: 21453 m
)
 (174.034109)  can0  464   [8]  06 1A 6C 02 4C A2 07 F9 ::
whereamiCoords(
    Latitude: 40.638982 °,
    Longitude: -116.94021199999999 °
)
 (175.045572)  can0  460   [4]  00 00 CD 53 ::
whereamiData(
    Speed: 0.0 km/h,
    Distance: 21453 m
)
 (175.045783)  can0  462   [4]  00 00 CD 53 ::
whereamiRawData(
    RawSpeed: 0.0 km/h,
    RawDistance: 21453 m
)
 (175.045976)  can0  464   [8]  06 1A 6C 02 4C A2 07 F9 ::
whereamiCoords(
    Latitude: 40.638982 °,
    Longitude: -116.94021199999999 °
)
 (176.055759)  can0  460   [4]  00 00 CD 53 ::
whereamiData(
    Speed: 0.0 km/h,
    Distance: 21453 m
)
 (176.055967)  can0  462   [4]  00 00 CD 53 ::
whereamiRawData(
    RawSpeed: 0.0 km/h,
    RawDistance: 21453 m
)
 (176.056158)  can0  464   [8]  06 1A 6C 02 4C A2 07 F9 ::
whereamiCoords(
    Latitude: 40.638982 °,
    Longitude: -116.94021199999999 °
)
 (177.065970)  can0  460   [4]  00 00 CD 53 ::
whereamiData(
    Speed: 0.0 km/h,
    Distance: 21453 m
)
 (177.066181)  can0  462   [4]  00 00 CD 53 ::
whereamiRawData(
    RawSpeed: 0.0 km/h,
    RawDistance: 21453 m
)
 (177.066365)  can0  464   [8]  06 1A 6C 02 4C A2 07 F9 ::
whereamiCoords(
    Latitude: 40.638982 °,
    Longitude: -116.94021199999999 °
)
 (178.079815)  can0  460   [4]  00 00 CD 53 ::
whereamiData(
    Speed: 0.0 km/h,
    Distance: 21453 m
)
 (178.080025)  can0  462   [4]  00 00 CD 53 ::
whereamiRawData(
    RawSpeed: 0.0 km/h,
    RawDistance: 21453 m
)
 (178.080211)  can0  464   [8]  06 1A 6C 02 4C A2 07 F9 ::
whereamiCoords(
    Latitude: 40.638982 °,
    Longitude: -116.94021199999999 °
)
 (178.994351)  can0  460   [4]  00 00 CD 53 ::
whereamiData(
    Speed: 0.0 km/h,
    Distance: 21453 m
)
 (178.994559)  can0  462   [4]  00 00 CD 53 ::
whereamiRawData(
    RawSpeed: 0.0 km/h,
    RawDistance: 21453 m
)
 (178.994749)  can0  464   [8]  06 1A 6C 02 4C A2 07 F9 ::
whereamiCoords(
    Latitude: 40.638982 °,
    Longitude: -116.94021199999999 °
)
 (180.005865)  can0  460   [4]  00 00 CD 53 ::
whereamiData(
    Speed: 0.0 km/h,
    Distance: 21453 m
)
 (180.006071)  can0  462   [4]  00 00 CD 53 ::
whereamiRawData(
    RawSpeed: 0.0 km/h,
    RawDistance: 21453 m
)
 (180.006259)  can0  464   [8]  06 1A 6C 02 4E A2 07 F9 ::
whereamiCoords(
    Latitude: 40.638982 °,
    Longitude: -116.94021 °
)
 (181.018233)  can0  460   [4]  12 00 CD 53 ::
whereamiData(
    Speed: 0.18 km/h,
    Distance: 21453 m
)
 (181.018439)  can0  462   [4]  12 00 CD 53 ::
whereamiRawData(
    RawSpeed: 0.18 km/h,
    RawDistance: 21453 m
)
 (181.018626)  can0  464   [8]  06 1A 6C 02 50 A2 07 F9 ::
whereamiCoords(
    Latitude: 40.638982 °,
    Longitude: -116.940208 °
)
 (182.030086)  can0  460   [4]  00 00 CD 53 ::
whereamiData(
    Speed: 0.0 km/h,
    Distance: 21453 m
)
 (182.030295)  can0  462   [4]  00 00 CD 53 ::
whereamiRawData(
    RawSpeed: 0.0 km/h,
    RawDistance: 21453 m
)
 (182.030484)  can0  464   [8]  06 1A 6C 02 51 A2 07 F9 ::
whereamiCoords(
    Latitude: 40.638982 °,
    Longitude: -116.940207 °
)
                                                                                                                                                
