 (000.000000)  can0  460   [4]  A9 01 E7 02 ::
whereamiData(
    Speed: 4.25 km/h,
    Distance: 743 m
)
 (000.000213)  can0  462   [4]  F4 01 E7 02 ::
whereamiRawData(
    RawSpeed: 5.0 km/h,
    RawDistance: 743 m
)
 (000.000411)  can0  464   [8]  5E A0 69 02 47 B7 05 F9 ::
whereamiCoords(
    Latitude: 40.476766 °,
    Longitude: -117.065913 °
)
 (000.982281)  can0  460   [4]  F6 01 E7 02 ::
whereamiData(
    Speed: 5.0200000000000005 km/h,
    Distance: 743 m
)
 (000.982501)  can0  462   [4]  06 02 E7 02 ::
whereamiRawData(
    RawSpeed: 5.18 km/h,
    RawDistance: 743 m
)
 (000.982695)  can0  464   [8]  5B A0 69 02 36 B7 05 F9 ::
whereamiCoords(
    Latitude: 40.476763 °,
    Longitude: -117.06593 °
)
 (001.970290)  can0  460   [4]  13 02 E7 02 ::
whereamiData(
    Speed: 5.3100000000000005 km/h,
    Distance: 743 m
)
 (001.970506)  can0  462   [4]  19 02 E7 02 ::
whereamiRawData(
    RawSpeed: 5.37 km/h,
    RawDistance: 743 m
)
 (001.970698)  can0  464   [8]  57 A0 69 02 26 B7 05 F9 ::
whereamiCoords(
    Latitude: 40.476759 °,
    Longitude: -117.065946 °
)
 (002.956566)  can0  460   [4]  E4 01 E7 02 ::
whereamiData(
    Speed: 4.84 km/h,
    Distance: 743 m
)
 (002.956779)  can0  462   [4]  19 02 E7 02 ::
whereamiRawData(
    RawSpeed: 5.37 km/h,
    RawDistance: 743 m
)
 (002.956974)  can0  464   [8]  53 A0 69 02 15 B7 05 F9 ::
whereamiCoords(
    Latitude: 40.476755 °,
    Longitude: -117.065963 °
)
 (003.946837)  can0  460   [4]  A4 01 E7 02 ::
whereamiData(
    Speed: 4.2 km/h,
    Distance: 743 m
)
 (003.947052)  can0  462   [4]  3E 02 E7 02 ::
whereamiRawData(
    RawSpeed: 5.74 km/h,
    RawDistance: 743 m
)
 (003.947246)  can0  464   [8]  50 A0 69 02 03 B7 05 F9 ::
whereamiCoords(
    Latitude: 40.476752 °,
    Longitude: -117.065981 °
)
 (005.034597)  can0  460   [4]  F3 00 E7 02 ::
whereamiData(
    Speed: 2.43 km/h,
    Distance: 743 m
)
 (005.034811)  can0  462   [4]  50 02 E7 02 ::
whereamiRawData(
    RawSpeed: 5.92 km/h,
    RawDistance: 743 m
)
 (005.035008)  can0  464   [8]  4C A0 69 02 F0 B6 05 F9 ::
whereamiCoords(
    Latitude: 40.476748 °,
    Longitude: -117.06599999999999 °
)
 (006.024604)  can0  460   [4]  4B 00 E7 02 ::
whereamiData(
    Speed: 0.75 km/h,
    Distance: 743 m
)
 (006.024819)  can0  462   [4]  63 02 E7 02 ::
whereamiRawData(
    RawSpeed: 6.11 km/h,
    RawDistance: 743 m
)
 (006.025021)  can0  464   [8]  48 A0 69 02 DC B6 05 F9 ::
whereamiCoords(
    Latitude: 40.476744 °,
    Longitude: -117.06602 °
)
 (007.014467)  can0  460   [4]  1D 00 E7 02 ::
whereamiData(
    Speed: 0.29 km/h,
    Distance: 743 m
)
 (007.014705)  can0  462   [4]  25 00 E7 02 ::
whereamiRawData(
    RawSpeed: 0.37 km/h,
    RawDistance: 743 m
)
 (007.014910)  can0  464   [8]  48 A0 69 02 DB B6 05 F9 ::
whereamiCoords(
    Latitude: 40.476744 °,
    Longitude: -117.06602099999999 °
)
 (008.002639)  can0  460   [4]  15 00 E7 02 ::
whereamiData(
    Speed: 0.21 km/h,
    Distance: 743 m
)
 (008.002857)  can0  462   [4]  25 00 E7 02 ::
whereamiRawData(
    RawSpeed: 0.37 km/h,
    RawDistance: 743 m
)
 (008.003061)  can0  464   [8]  48 A0 69 02 DA B6 05 F9 ::
whereamiCoords(
    Latitude: 40.476744 °,
    Longitude: -117.06602199999999 °
)
 (008.992467)  can0  460   [4]  16 00 E7 02 ::
whereamiData(
    Speed: 0.22 km/h,
    Distance: 743 m
)
 (008.992682)  can0  462   [4]  37 00 E7 02 ::
whereamiRawData(
    RawSpeed: 0.55 km/h,
    RawDistance: 743 m
)
 (008.992876)  can0  464   [8]  48 A0 69 02 D9 B6 05 F9 ::
whereamiCoords(
    Latitude: 40.476744 °,
    Longitude: -117.066023 °
)
 (009.988477)  can0  460   [4]  06 00 E7 02 ::
whereamiData(
    Speed: 0.06 km/h,
    Distance: 743 m
)
 (009.988692)  can0  462   [4]  37 00 E7 02 ::
whereamiRawData(
    RawSpeed: 0.55 km/h,
    RawDistance: 743 m
)
 (009.988889)  can0  464   [8]  47 A0 69 02 D7 B6 05 F9 ::
whereamiCoords(
    Latitude: 40.476743 °,
    Longitude: -117.066025 °
)
 (010.982674)  can0  460   [4]  00 00 E7 02 ::
whereamiData(
    Speed: 0.0 km/h,
    Distance: 743 m
)
 (010.982894)  can0  462   [4]  4A 00 E7 02 ::
whereamiRawData(
    RawSpeed: 0.74 km/h,
    RawDistance: 743 m
)
 (010.983098)  can0  464   [8]  47 A0 69 02 D4 B6 05 F9 ::
whereamiCoords(
    Latitude: 40.476743 °,
    Longitude: -117.06602799999999 °
)
 (011.982513)  can0  460   [4]  00 00 E7 02 ::
whereamiData(
    Speed: 0.0 km/h,
    Distance: 743 m
)
 (011.982730)  can0  462   [4]  5C 00 E7 02 ::
whereamiRawData(
    RawSpeed: 0.92 km/h,
    RawDistance: 743 m
)
 (011.982927)  can0  464   [8]  46 A0 69 02 D2 B6 05 F9 ::
whereamiCoords(
    Latitude: 40.476742 °,
    Longitude: -117.06603 °
)
 (012.984525)  can0  460   [4]  00 00 E7 02 ::
whereamiData(
    Speed: 0.0 km/h,
    Distance: 743 m
)
 (012.984740)  can0  462   [4]  6F 00 E7 02 ::
whereamiRawData(
    RawSpeed: 1.11 km/h,
    RawDistance: 743 m
)
 (012.984934)  can0  464   [8]  46 A0 69 02 CE B6 05 F9 ::
whereamiCoords(
    Latitude: 40.476742 °,
    Longitude: -117.06603399999999 °
)
 (013.984709)  can0  460   [4]  00 00 E7 02 ::
whereamiData(
    Speed: 0.0 km/h,
    Distance: 743 m
)
 (013.984922)  can0  462   [4]  81 00 E7 02 ::
whereamiRawData(
    RawSpeed: 1.29 km/h,
    RawDistance: 743 m
)
 (013.985117)  can0  464   [8]  45 A0 69 02 CA B6 05 F9 ::
whereamiCoords(
    Latitude: 40.476741 °,
    Longitude: -117.06603799999999 °
)
 (014.984464)  can0  460   [4]  00 00 E7 02 ::
whereamiData(
    Speed: 0.0 km/h,
    Distance: 743 m
)
 (014.984679)  can0  462   [4]  12 00 E7 02 ::
whereamiRawData(
    RawSpeed: 0.18 km/h,
    RawDistance: 743 m
)
 (014.984880)  can0  464   [8]  45 A0 69 02 CA B6 05 F9 ::
whereamiCoords(
    Latitude: 40.476741 °,
    Longitude: -117.06603799999999 °
)
 (015.980481)  can0  460   [4]  00 00 E7 02 ::
whereamiData(
    Speed: 0.0 km/h,
    Distance: 743 m
)
 (015.980694)  can0  462   [4]  12 00 E7 02 ::
whereamiRawData(
    RawSpeed: 0.18 km/h,
    RawDistance: 743 m
)
 (015.980891)  can0  464   [8]  45 A0 69 02 C9 B6 05 F9 ::
whereamiCoords(
    Latitude: 40.476741 °,
    Longitude: -117.06603899999999 °
)
 (016.980482)  can0  460   [4]  00 00 E7 02 ::
whereamiData(
    Speed: 0.0 km/h,
    Distance: 743 m
)
 (016.980703)  can0  462   [4]  00 00 E7 02 ::
whereamiRawData(
    RawSpeed: 0.0 km/h,
    RawDistance: 743 m
)
 (016.980908)  can0  464   [8]  45 A0 69 02 C9 B6 05 F9 ::
whereamiCoords(
    Latitude: 40.476741 °,
    Longitude: -117.06603899999999 °
)
 (017.978508)  can0  460   [4]  00 00 E7 02 ::
whereamiData(
    Speed: 0.0 km/h,
    Distance: 743 m
)
 (017.978714)  can0  462   [4]  12 00 E7 02 ::
whereamiRawData(
    RawSpeed: 0.18 km/h,
    RawDistance: 743 m
)
 (017.978905)  can0  464   [8]  45 A0 69 02 C9 B6 05 F9 ::
whereamiCoords(
    Latitude: 40.476741 °,
    Longitude: -117.06603899999999 °
)
 (018.976513)  can0  460   [4]  00 00 E7 02 ::
whereamiData(
    Speed: 0.0 km/h,
    Distance: 743 m
)
 (018.976726)  can0  462   [4]  12 00 E7 02 ::
whereamiRawData(
    RawSpeed: 0.18 km/h,
    RawDistance: 743 m
)
 (018.976918)  can0  464   [8]  45 A0 69 02 C8 B6 05 F9 ::
whereamiCoords(
    Latitude: 40.476741 °,
    Longitude: -117.06604 °
)
 (019.980528)  can0  460   [4]  00 00 E7 02 ::
whereamiData(
    Speed: 0.0 km/h,
    Distance: 743 m
)
 (019.980742)  can0  462   [4]  12 00 E7 02 ::
whereamiRawData(
    RawSpeed: 0.18 km/h,
    RawDistance: 743 m
)
 (019.980939)  can0  464   [8]  44 A0 69 02 C7 B6 05 F9 ::
whereamiCoords(
    Latitude: 40.47674 °,
    Longitude: -117.066041 °
)
 (020.982810)  can0  460   [4]  00 00 E7 02 ::
whereamiData(
    Speed: 0.0 km/h,
    Distance: 743 m
)
 (020.983017)  can0  462   [4]  4A 00 E7 02 ::
whereamiRawData(
    RawSpeed: 0.74 km/h,
    RawDistance: 743 m
)
 (020.983206)  can0  464   [8]  44 A0 69 02 C6 B6 05 F9 ::
whereamiCoords(
    Latitude: 40.47674 °,
    Longitude: -117.066042 °
)
 (021.988647)  can0  460   [4]  00 00 E7 02 ::
whereamiData(
    Speed: 0.0 km/h,
    Distance: 743 m
)
 (021.988856)  can0  462   [4]  4A 00 E7 02 ::
whereamiRawData(
    RawSpeed: 0.74 km/h,
    RawDistance: 743 m
)
 (021.989046)  can0  464   [8]  44 A0 69 02 C3 B6 05 F9 ::
whereamiCoords(
    Latitude: 40.47674 °,
    Longitude: -117.06604499999999 °
)
 (022.996664)  can0  460   [4]  00 00 E7 02 ::
whereamiData(
    Speed: 0.0 km/h,
    Distance: 743 m
)
 (022.996893)  can0  462   [4]  5C 00 E7 02 ::
whereamiRawData(
    RawSpeed: 0.92 km/h,
    RawDistance: 743 m
)
 (022.997085)  can0  464   [8]  43 A0 69 02 C1 B6 05 F9 ::
whereamiCoords(
    Latitude: 40.476738999999995 °,
    Longitude: -117.066047 °
)
 (023.986666)  can0  460   [4]  00 00 E7 02 ::
whereamiData(
    Speed: 0.0 km/h,
    Distance: 743 m
)
 (023.986877)  can0  462   [4]  5C 00 E7 02 ::
whereamiRawData(
    RawSpeed: 0.92 km/h,
    RawDistance: 743 m
)
 (023.987069)  can0  464   [8]  43 A0 69 02 BE B6 05 F9 ::
whereamiCoords(
    Latitude: 40.476738999999995 °,
    Longitude: -117.06604999999999 °
)
 (024.974679)  can0  460   [4]  00 00 E7 02 ::
whereamiData(
    Speed: 0.0 km/h,
    Distance: 743 m
)
 (024.974895)  can0  462   [4]  5C 00 E7 02 ::
whereamiRawData(
    RawSpeed: 0.92 km/h,
    RawDistance: 743 m
)
 (024.975094)  can0  464   [8]  42 A0 69 02 BB B6 05 F9 ::
whereamiCoords(
    Latitude: 40.476738 °,
    Longitude: -117.066053 °
)
 (025.968700)  can0  460   [4]  00 00 E7 02 ::
whereamiData(
    Speed: 0.0 km/h,
    Distance: 743 m
)
 (025.968918)  can0  462   [4]  6F 00 E7 02 ::
whereamiRawData(
    RawSpeed: 1.11 km/h,
    RawDistance: 743 m
)
 (025.969107)  can0  464   [8]  41 A0 69 02 B7 B6 05 F9 ::
whereamiCoords(
    Latitude: 40.476737 °,
    Longitude: -117.066057 °
)
 (026.959332)  can0  460   [4]  00 00 E7 02 ::
whereamiData(
    Speed: 0.0 km/h,
    Distance: 743 m
)
 (026.959593)  can0  464   [8]  41 A0 69 02 B3 B6 05 F9 ::
whereamiCoords(
    Latitude: 40.476737 °,
    Longitude: -117.06606099999999 °
)
 (026.960322)  can0  462   [4]  81 00 E7 02 ::
whereamiRawData(
    RawSpeed: 1.29 km/h,
    RawDistance: 743 m
)
 (026.960514)  can0  468   [2]  AC 26 ::
whereamiPosUncert(
    PosUncertainty: 99.0 m
)
 (027.947331)  can0  460   [4]  00 00 E7 02 ::
whereamiData(
    Speed: 0.0 km/h,
    Distance: 743 m
)
 (027.947586)  can0  464   [8]  41 A0 69 02 B2 B6 05 F9 ::
whereamiCoords(
    Latitude: 40.476737 °,
    Longitude: -117.06606199999999 °
)
 (027.948329)  can0  462   [4]  12 00 E7 02 ::
whereamiRawData(
    RawSpeed: 0.18 km/h,
    RawDistance: 743 m
)
 (027.948518)  can0  468   [2]  AC 26 ::
whereamiPosUncert(
    PosUncertainty: 99.0 m
)
 (029.040744)  can0  460   [4]  00 00 E7 02 ::
whereamiData(
    Speed: 0.0 km/h,
    Distance: 743 m
)
 (029.040952)  can0  462   [4]  12 00 E7 02 ::
whereamiRawData(
    RawSpeed: 0.18 km/h,
    RawDistance: 743 m
)
 (029.041145)  can0  464   [8]  41 A0 69 02 B2 B6 05 F9 ::
whereamiCoords(
    Latitude: 40.476737 °,
    Longitude: -117.06606199999999 °
)
 (030.035183)  can0  460   [4]  00 00 E7 02 ::
whereamiData(
    Speed: 0.0 km/h,
    Distance: 743 m
)
 (030.035395)  can0  462   [4]  12 00 E7 02 ::
whereamiRawData(
    RawSpeed: 0.18 km/h,
    RawDistance: 743 m
)
 (030.035595)  can0  464   [8]  40 A0 69 02 B1 B6 05 F9 ::
whereamiCoords(
    Latitude: 40.476735999999995 °,
    Longitude: -117.066063 °
)
 (031.033106)  can0  460   [4]  00 00 E7 02 ::
whereamiData(
    Speed: 0.0 km/h,
    Distance: 743 m
)
 (031.033315)  can0  462   [4]  25 00 E7 02 ::
whereamiRawData(
    RawSpeed: 0.37 km/h,
    RawDistance: 743 m
)
 (031.033504)  can0  464   [8]  40 A0 69 02 B0 B6 05 F9 ::
whereamiCoords(
    Latitude: 40.476735999999995 °,
    Longitude: -117.066064 °
)
 (032.028944)  can0  460   [4]  00 00 E7 02 ::
whereamiData(
    Speed: 0.0 km/h,
    Distance: 743 m
)
 (032.029151)  can0  462   [4]  25 00 E7 02 ::
whereamiRawData(
    RawSpeed: 0.37 km/h,
    RawDistance: 743 m
)
 (032.029361)  can0  464   [8]  40 A0 69 02 AF B6 05 F9 ::
whereamiCoords(
    Latitude: 40.476735999999995 °,
    Longitude: -117.066065 °
)
 (033.029229)  can0  460   [4]  00 00 E7 02 ::
whereamiData(
    Speed: 0.0 km/h,
    Distance: 743 m
)
 (033.029437)  can0  462   [4]  37 00 E7 02 ::
whereamiRawData(
    RawSpeed: 0.55 km/h,
    RawDistance: 743 m
)
 (033.029627)  can0  464   [8]  40 A0 69 02 AD B6 05 F9 ::
whereamiCoords(
    Latitude: 40.476735999999995 °,
    Longitude: -117.06606699999999 °
)
 (034.028976)  can0  460   [4]  00 00 E7 02 ::
whereamiData(
    Speed: 0.0 km/h,
    Distance: 743 m
)
 (034.029188)  can0  462   [4]  37 00 E7 02 ::
whereamiRawData(
    RawSpeed: 0.55 km/h,
    RawDistance: 743 m
)
 (034.029380)  can0  464   [8]  3F A0 69 02 AB B6 05 F9 ::
whereamiCoords(
    Latitude: 40.476735 °,
    Longitude: -117.066069 °
)
 (035.025079)  can0  460   [4]  00 00 E7 02 ::
whereamiData(
    Speed: 0.0 km/h,
    Distance: 743 m
)
 (035.025290)  can0  462   [4]  4A 00 E7 02 ::
whereamiRawData(
    RawSpeed: 0.74 km/h,
    RawDistance: 743 m
)
 (035.025481)  can0  464   [8]  3F A0 69 02 A9 B6 05 F9 ::
whereamiCoords(
    Latitude: 40.476735 °,
    Longitude: -117.066071 °
)
 (036.019107)  can0  460   [4]  00 00 E7 02 ::
whereamiData(
    Speed: 0.0 km/h,
    Distance: 743 m
)
 (036.019336)  can0  462   [4]  5C 00 E7 02 ::
whereamiRawData(
    RawSpeed: 0.92 km/h,
    RawDistance: 743 m
)
 (036.019529)  can0  464   [8]  3F A0 69 02 A6 B6 05 F9 ::
whereamiCoords(
    Latitude: 40.476735 °,
    Longitude: -117.066074 °
)
 (037.015115)  can0  460   [4]  00 00 E7 02 ::
whereamiData(
    Speed: 0.0 km/h,
    Distance: 743 m
)
 (037.015343)  can0  462   [4]  6F 00 E7 02 ::
whereamiRawData(
    RawSpeed: 1.11 km/h,
    RawDistance: 743 m
)
 (037.015538)  can0  464   [8]  3E A0 69 02 A2 B6 05 F9 ::
whereamiCoords(
    Latitude: 40.476734 °,
    Longitude: -117.06607799999999 °
)
 (038.009043)  can0  460   [4]  00 00 E7 02 ::
whereamiData(
    Speed: 0.0 km/h,
    Distance: 743 m
)
 (038.009262)  can0  462   [4]  81 00 E7 02 ::
whereamiRawData(
    RawSpeed: 1.29 km/h,
    RawDistance: 743 m
)
 (038.009456)  can0  464   [8]  3D A0 69 02 9E B6 05 F9 ::
whereamiCoords(
    Latitude: 40.476732999999996 °,
    Longitude: -117.066082 °
)
 (039.005053)  can0  460   [4]  00 00 E7 02 ::
whereamiData(
    Speed: 0.0 km/h,
    Distance: 743 m
)
 (039.005265)  can0  462   [4]  94 00 E7 02 ::
whereamiRawData(
    RawSpeed: 1.48 km/h,
    RawDistance: 743 m
)
 (039.005459)  can0  464   [8]  3C A0 69 02 99 B6 05 F9 ::
whereamiCoords(
    Latitude: 40.476732 °,
    Longitude: -117.066087 °
)
 (040.006991)  can0  460   [4]  00 00 E7 02 ::
whereamiData(
    Speed: 0.0 km/h,
    Distance: 743 m
)
 (040.007205)  can0  462   [4]  A6 00 E7 02 ::
whereamiRawData(
    RawSpeed: 1.6600000000000001 km/h,
    RawDistance: 743 m
)
 (040.007397)  can0  464   [8]  3C A0 69 02 93 B6 05 F9 ::
whereamiCoords(
    Latitude: 40.476732 °,
    Longitude: -117.066093 °
)
 (041.006987)  can0  460   [4]  00 00 E7 02 ::
whereamiData(
    Speed: 0.0 km/h,
    Distance: 743 m
)
 (041.007203)  can0  462   [4]  CB 00 E7 02 ::
whereamiRawData(
    RawSpeed: 2.0300000000000002 km/h,
    RawDistance: 743 m
)
 (041.007399)  can0  464   [8]  3B A0 69 02 8D B6 05 F9 ::
whereamiCoords(
    Latitude: 40.476731 °,
    Longitude: -117.066099 °
)
 (042.012826)  can0  460   [4]  07 00 E7 02 ::
whereamiData(
    Speed: 0.07 km/h,
    Distance: 743 m
)
 (042.013038)  can0  462   [4]  DE 00 E7 02 ::
whereamiRawData(
    RawSpeed: 2.22 km/h,
    RawDistance: 743 m
)
 (042.013229)  can0  464   [8]  3A A0 69 02 85 B6 05 F9 ::
whereamiCoords(
    Latitude: 40.476729999999996 °,
    Longitude: -117.06610699999999 °
)
 (043.013108)  can0  460   [4]  3C 00 E7 02 ::
whereamiData(
    Speed: 0.6 km/h,
    Distance: 743 m
)
 (043.013314)  can0  462   [4]  03 01 E7 02 ::
whereamiRawData(
    RawSpeed: 2.59 km/h,
    RawDistance: 743 m
)
 (043.013502)  can0  464   [8]  38 A0 69 02 7D B6 05 F9 ::
whereamiCoords(
    Latitude: 40.476728 °,
    Longitude: -117.066115 °
)
 (044.018937)  can0  460   [4]  75 00 E7 02 ::
whereamiData(
    Speed: 1.17 km/h,
    Distance: 743 m
)
 (044.019146)  can0  462   [4]  15 01 E7 02 ::
whereamiRawData(
    RawSpeed: 2.77 km/h,
    RawDistance: 743 m
)
 (044.019334)  can0  464   [8]  37 A0 69 02 74 B6 05 F9 ::
whereamiCoords(
    Latitude: 40.476727 °,
    Longitude: -117.06612399999999 °
)
 (045.021120)  can0  460   [4]  AF 00 E8 02 ::
whereamiData(
    Speed: 1.75 km/h,
    Distance: 744 m
)
 (045.021328)  can0  462   [4]  28 01 E8 02 ::
whereamiRawData(
    RawSpeed: 2.96 km/h,
    RawDistance: 744 m
)
 (045.021519)  can0  464   [8]  36 A0 69 02 6A B6 05 F9 ::
whereamiCoords(
    Latitude: 40.476726 °,
    Longitude: -117.06613399999999 °
)
 (046.019136)  can0  460   [4]  F7 00 E8 02 ::
whereamiData(
    Speed: 2.47 km/h,
    Distance: 744 m
)
 (046.019351)  can0  462   [4]  4D 01 E8 02 ::
whereamiRawData(
    RawSpeed: 3.33 km/h,
    RawDistance: 744 m
)
 (046.019543)  can0  464   [8]  34 A0 69 02 5F B6 05 F9 ::
whereamiCoords(
    Latitude: 40.476724 °,
    Longitude: -117.06614499999999 °
)
 (047.017148)  can0  460   [4]  2E 01 E8 02 ::
whereamiData(
    Speed: 3.02 km/h,
    Distance: 744 m
)
 (047.017355)  can0  462   [4]  5F 01 E8 02 ::
whereamiRawData(
    RawSpeed: 3.5100000000000002 km/h,
    RawDistance: 744 m
)
 (047.017546)  can0  464   [8]  33 A0 69 02 54 B6 05 F9 ::
whereamiCoords(
    Latitude: 40.476723 °,
    Longitude: -117.06615599999999 °
)
 (048.015162)  can0  460   [4]  04 00 E8 02 ::
whereamiData(
    Speed: 0.04 km/h,
    Distance: 744 m
)
 (048.015375)  can0  462   [4]  12 00 E8 02 ::
whereamiRawData(
    RawSpeed: 0.18 km/h,
    RawDistance: 744 m
)
 (048.015566)  can0  464   [8]  33 A0 69 02 53 B6 05 F9 ::
whereamiCoords(
    Latitude: 40.476723 °,
    Longitude: -117.06615699999999 °
)
 (049.014919)  can0  460   [4]  06 00 E8 02 ::
whereamiData(
    Speed: 0.06 km/h,
    Distance: 744 m
)
 (049.015128)  can0  462   [4]  12 00 E8 02 ::
whereamiRawData(
    RawSpeed: 0.18 km/h,
    RawDistance: 744 m
)
 (049.015316)  can0  464   [8]  33 A0 69 02 52 B6 05 F9 ::
whereamiCoords(
    Latitude: 40.476723 °,
    Longitude: -117.066158 °
)
 (050.017193)  can0  460   [4]  12 00 E8 02 ::
whereamiData(
    Speed: 0.18 km/h,
    Distance: 744 m
)
 (050.017403)  can0  462   [4]  25 00 E8 02 ::
whereamiRawData(
    RawSpeed: 0.37 km/h,
    RawDistance: 744 m
)
 (050.017596)  can0  464   [8]  32 A0 69 02 51 B6 05 F9 ::
whereamiCoords(
    Latitude: 40.476721999999995 °,
    Longitude: -117.066159 °
)
 (051.012945)  can0  460   [4]  1B 00 E8 02 ::
whereamiData(
    Speed: 0.27 km/h,
    Distance: 744 m
)
 (051.013159)  can0  462   [4]  25 00 E8 02 ::
whereamiRawData(
    RawSpeed: 0.37 km/h,
    RawDistance: 744 m
)
 (051.013350)  can0  464   [8]  32 A0 69 02 50 B6 05 F9 ::
whereamiCoords(
    Latitude: 40.476721999999995 °,
    Longitude: -117.06616 °
)
 (052.008955)  can0  460   [4]  25 00 E8 02 ::
whereamiData(
    Speed: 0.37 km/h,
    Distance: 744 m
)
 (052.009165)  can0  462   [4]  37 00 E8 02 ::
whereamiRawData(
    RawSpeed: 0.55 km/h,
    RawDistance: 744 m
)
 (052.009356)  can0  464   [8]  32 A0 69 02 4E B6 05 F9 ::
whereamiCoords(
    Latitude: 40.476721999999995 °,
    Longitude: -117.06616199999999 °
)
 (053.004807)  can0  460   [4]  2B 00 E8 02 ::
whereamiData(
    Speed: 0.43 km/h,
    Distance: 744 m
)
 (053.005015)  can0  462   [4]  4A 00 E8 02 ::
whereamiRawData(
    RawSpeed: 0.74 km/h,
    RawDistance: 744 m
)
 (053.005210)  can0  464   [8]  32 A0 69 02 4C B6 05 F9 ::
whereamiCoords(
    Latitude: 40.476721999999995 °,
    Longitude: -117.066164 °
)
 (054.004990)  can0  460   [4]  3B 00 E8 02 ::
whereamiData(
    Speed: 0.59 km/h,
    Distance: 744 m
)
 (054.005198)  can0  462   [4]  4A 00 E8 02 ::
whereamiRawData(
    RawSpeed: 0.74 km/h,
    RawDistance: 744 m
)
 (054.005386)  can0  464   [8]  31 A0 69 02 4A B6 05 F9 ::
whereamiCoords(
    Latitude: 40.476721 °,
    Longitude: -117.066166 °
)
 (055.005172)  can0  460   [4]  3F 00 E8 02 ::
whereamiData(
    Speed: 0.63 km/h,
    Distance: 744 m
)
 (055.005379)  can0  462   [4]  4A 00 E8 02 ::
whereamiRawData(
    RawSpeed: 0.74 km/h,
    RawDistance: 744 m
)
 (055.005568)  can0  464   [8]  31 A0 69 02 47 B6 05 F9 ::
whereamiCoords(
    Latitude: 40.476721 °,
    Longitude: -117.06616899999999 °
)
 (056.003191)  can0  460   [4]  3E 00 E8 02 ::
whereamiData(
    Speed: 0.62 km/h,
    Distance: 744 m
)
 (056.003412)  can0  462   [4]  5C 00 E8 02 ::
whereamiRawData(
    RawSpeed: 0.92 km/h,
    RawDistance: 744 m
)
 (056.003606)  can0  464   [8]  31 A0 69 02 44 B6 05 F9 ::
whereamiCoords(
    Latitude: 40.476721 °,
    Longitude: -117.066172 °
)
 (057.001205)  can0  460   [4]  57 00 E8 02 ::
whereamiData(
    Speed: 0.87 km/h,
    Distance: 744 m
)
 (057.001416)  can0  462   [4]  5C 00 E8 02 ::
whereamiRawData(
    RawSpeed: 0.92 km/h,
    RawDistance: 744 m
)
 (057.001614)  can0  464   [8]  30 A0 69 02 41 B6 05 F9 ::
whereamiCoords(
    Latitude: 40.47672 °,
    Longitude: -117.066175 °
)
 (057.999216)  can0  460   [4]  57 00 E8 02 ::
whereamiData(
    Speed: 0.87 km/h,
    Distance: 744 m
)
 (057.999438)  can0  462   [4]  5C 00 E8 02 ::
whereamiRawData(
    RawSpeed: 0.92 km/h,
    RawDistance: 744 m
)
 (057.999629)  can0  464   [8]  30 A0 69 02 3E B6 05 F9 ::
whereamiCoords(
    Latitude: 40.47672 °,
    Longitude: -117.066178 °
)
 (058.997231)  can0  460   [4]  6F 00 E8 02 ::
whereamiData(
    Speed: 1.11 km/h,
    Distance: 744 m
)
 (058.997447)  can0  462   [4]  6F 00 E8 02 ::
whereamiRawData(
    RawSpeed: 1.11 km/h,
    RawDistance: 744 m
)
 (058.997638)  can0  464   [8]  2F A0 69 02 3A B6 05 F9 ::
whereamiCoords(
    Latitude: 40.476718999999996 °,
    Longitude: -117.066182 °
)
 (060.003057)  can0  460   [4]  6E 00 E8 02 ::
whereamiData(
    Speed: 1.1 km/h,
    Distance: 744 m
)
 (060.003277)  can0  462   [4]  6F 00 E8 02 ::
whereamiRawData(
    RawSpeed: 1.11 km/h,
    RawDistance: 744 m
)
 (060.003469)  can0  464   [8]  2F A0 69 02 36 B6 05 F9 ::
whereamiCoords(
    Latitude: 40.476718999999996 °,
    Longitude: -117.06618599999999 °
)
 (061.007250)  can0  460   [4]  6D 00 E8 02 ::
whereamiData(
    Speed: 1.09 km/h,
    Distance: 744 m
)
 (061.007462)  can0  462   [4]  6F 00 E8 02 ::
whereamiRawData(
    RawSpeed: 1.11 km/h,
    RawDistance: 744 m
)
 (061.007653)  can0  464   [8]  2E A0 69 02 32 B6 05 F9 ::
whereamiCoords(
    Latitude: 40.476718 °,
    Longitude: -117.06618999999999 °
)
 (062.011090)  can0  460   [4]  79 00 E8 02 ::
whereamiData(
    Speed: 1.21 km/h,
    Distance: 744 m
)
 (062.011300)  can0  462   [4]  81 00 E8 02 ::
whereamiRawData(
    RawSpeed: 1.29 km/h,
    RawDistance: 744 m
)
 (062.011489)  can0  464   [8]  2E A0 69 02 2D B6 05 F9 ::
whereamiCoords(
    Latitude: 40.476718 °,
    Longitude: -117.066195 °
)
 (063.015284)  can0  460   [4]  60 00 E8 02 ::
whereamiData(
    Speed: 0.96 km/h,
    Distance: 744 m
)
 (063.015498)  can0  462   [4]  94 00 E8 02 ::
whereamiRawData(
    RawSpeed: 1.48 km/h,
    RawDistance: 744 m
)
 (063.015690)  can0  464   [8]  2D A0 69 02 28 B6 05 F9 ::
whereamiCoords(
    Latitude: 40.476717 °,
    Longitude: -117.0662 °
)
 (064.019129)  can0  460   [4]  41 00 E8 02 ::
whereamiData(
    Speed: 0.65 km/h,
    Distance: 744 m
)
 (064.019344)  can0  462   [4]  A6 00 E8 02 ::
whereamiRawData(
    RawSpeed: 1.6600000000000001 km/h,
    RawDistance: 744 m
)
 (064.019542)  can0  464   [8]  2D A0 69 02 23 B6 05 F9 ::
whereamiCoords(
    Latitude: 40.476717 °,
    Longitude: -117.066205 °
)
 (065.021311)  can0  460   [4]  22 00 E8 02 ::
whereamiData(
    Speed: 0.34 km/h,
    Distance: 744 m
)
 (065.021536)  can0  462   [4]  A6 00 E8 02 ::
whereamiRawData(
    RawSpeed: 1.6600000000000001 km/h,
    RawDistance: 744 m
)
 (065.021728)  can0  464   [8]  2C A0 69 02 1D B6 05 F9 ::
whereamiCoords(
    Latitude: 40.476715999999996 °,
    Longitude: -117.066211 °
)
 (066.024981)  can0  460   [4]  01 00 E9 02 ::
whereamiData(
    Speed: 0.01 km/h,
    Distance: 745 m
)
 (066.025191)  can0  462   [4]  B9 00 E9 02 ::
whereamiRawData(
    RawSpeed: 1.85 km/h,
    RawDistance: 745 m
)
 (066.025378)  can0  464   [8]  2B A0 69 02 17 B6 05 F9 ::
whereamiCoords(
    Latitude: 40.476715 °,
    Longitude: -117.066217 °
)
 (067.027332)  can0  460   [4]  00 00 E9 02 ::
whereamiData(
    Speed: 0.0 km/h,
    Distance: 745 m
)
 (067.027543)  can0  462   [4]  CB 00 E9 02 ::
whereamiRawData(
    RawSpeed: 2.0300000000000002 km/h,
    RawDistance: 745 m
)
 (067.027732)  can0  464   [8]  2B A0 69 02 11 B6 05 F9 ::
whereamiCoords(
    Latitude: 40.476715 °,
    Longitude: -117.066223 °
)
 (068.031522)  can0  460   [4]  00 00 E9 02 ::
whereamiData(
    Speed: 0.0 km/h,
    Distance: 745 m
)
 (068.031734)  can0  462   [4]  F0 00 E9 02 ::
whereamiRawData(
    RawSpeed: 2.4 km/h,
    RawDistance: 745 m
)
 (068.031932)  can0  464   [8]  2A A0 69 02 09 B6 05 F9 ::
whereamiCoords(
    Latitude: 40.476714 °,
    Longitude: -117.06623099999999 °
)
 (069.035623)  can0  460   [4]  00 00 E9 02 ::
whereamiData(
    Speed: 0.0 km/h,
    Distance: 745 m
)
 (069.035839)  can0  462   [4]  03 01 E9 02 ::
whereamiRawData(
    RawSpeed: 2.59 km/h,
    RawDistance: 745 m
)
 (069.036032)  can0  464   [8]  29 A0 69 02 01 B6 05 F9 ::
whereamiCoords(
    Latitude: 40.476713 °,
    Longitude: -117.066239 °
)
 (070.045397)  can0  460   [4]  00 00 E9 02 ::
whereamiData(
    Speed: 0.0 km/h,
    Distance: 745 m
)
 (070.045619)  can0  462   [4]  15 01 E9 02 ::
whereamiRawData(
    RawSpeed: 2.77 km/h,
    RawDistance: 745 m
)
 (070.045810)  can0  464   [8]  28 A0 69 02 F7 B5 05 F9 ::
whereamiCoords(
    Latitude: 40.476712 °,
    Longitude: -117.066249 °
)
 (070.952957)  can0  460   [4]  00 00 E9 02 ::
whereamiData(
    Speed: 0.0 km/h,
    Distance: 745 m
)
 (070.953181)  can0  462   [4]  03 01 E9 02 ::
whereamiRawData(
    RawSpeed: 2.59 km/h,
    RawDistance: 745 m
)
 (070.953378)  can0  464   [8]  28 A0 69 02 EF B5 05 F9 ::
whereamiCoords(
    Latitude: 40.476712 °,
    Longitude: -117.066257 °
)
 (071.961664)  can0  460   [4]  00 00 E9 02 ::
whereamiData(
    Speed: 0.0 km/h,
    Distance: 745 m
)
 (071.961874)  can0  462   [4]  28 01 E9 02 ::
whereamiRawData(
    RawSpeed: 2.96 km/h,
    RawDistance: 745 m
)
 (071.962064)  can0  464   [8]  27 A0 69 02 E5 B5 05 F9 ::
whereamiCoords(
    Latitude: 40.476711 °,
    Longitude: -117.066267 °
)
 (072.963419)  can0  460   [4]  00 00 E9 02 ::
whereamiData(
    Speed: 0.0 km/h,
    Distance: 745 m
)
 (072.963628)  can0  462   [4]  3A 01 E9 02 ::
whereamiRawData(
    RawSpeed: 3.14 km/h,
    RawDistance: 745 m
)
 (072.963819)  can0  464   [8]  26 A0 69 02 DB B5 05 F9 ::
whereamiCoords(
    Latitude: 40.47671 °,
    Longitude: -117.066277 °
)
 (073.969521)  can0  460   [4]  00 00 EA 02 ::
whereamiData(
    Speed: 0.0 km/h,
    Distance: 746 m
)
 (073.969730)  can0  462   [4]  4D 01 EA 02 ::
whereamiRawData(
    RawSpeed: 3.33 km/h,
    RawDistance: 746 m
)
 (073.969926)  can0  464   [8]  25 A0 69 02 D0 B5 05 F9 ::
whereamiCoords(
    Latitude: 40.476709 °,
    Longitude: -117.066288 °
)
 (074.979456)  can0  460   [4]  00 00 EA 02 ::
whereamiData(
    Speed: 0.0 km/h,
    Distance: 746 m
)
 (074.979670)  can0  462   [4]  4D 01 EA 02 ::
whereamiRawData(
    RawSpeed: 3.33 km/h,
    RawDistance: 746 m
)
 (074.979862)  can0  464   [8]  24 A0 69 02 C5 B5 05 F9 ::
whereamiCoords(
    Latitude: 40.476707999999995 °,
    Longitude: -117.066299 °
)
 (075.985290)  can0  460   [4]  00 00 EA 02 ::
whereamiData(
    Speed: 0.0 km/h,
    Distance: 746 m
)
 (075.985508)  can0  462   [4]  5F 01 EA 02 ::
whereamiRawData(
    RawSpeed: 3.5100000000000002 km/h,
    RawDistance: 746 m
)
 (075.985701)  can0  464   [8]  23 A0 69 02 B8 B5 05 F9 ::
whereamiCoords(
    Latitude: 40.476707 °,
    Longitude: -117.066312 °
)
 (076.993644)  can0  460   [4]  00 00 EA 02 ::
whereamiData(
    Speed: 0.0 km/h,
    Distance: 746 m
)
 (076.993853)  can0  462   [4]  84 01 EA 02 ::
whereamiRawData(
    RawSpeed: 3.88 km/h,
    RawDistance: 746 m
)
 (076.994048)  can0  464   [8]  21 A0 69 02 AB B5 05 F9 ::
whereamiCoords(
    Latitude: 40.476704999999995 °,
    Longitude: -117.06632499999999 °
)
 (077.999659)  can0  460   [4]  00 00 EB 02 ::
whereamiData(
    Speed: 0.0 km/h,
    Distance: 747 m
)
 (077.999869)  can0  462   [4]  A9 01 EB 02 ::
whereamiRawData(
    RawSpeed: 4.25 km/h,
    RawDistance: 747 m
)
 (078.000061)  can0  464   [8]  20 A0 69 02 9D B5 05 F9 ::
whereamiCoords(
    Latitude: 40.476704 °,
    Longitude: -117.066339 °
)
 (079.007602)  can0  460   [4]  00 00 EB 02 ::
whereamiData(
    Speed: 0.0 km/h,
    Distance: 747 m
)
 (079.007827)  can0  462   [4]  BC 01 EB 02 ::
whereamiRawData(
    RawSpeed: 4.44 km/h,
    RawDistance: 747 m
)
 (079.008019)  can0  464   [8]  1F A0 69 02 8E B5 05 F9 ::
whereamiCoords(
    Latitude: 40.476703 °,
    Longitude: -117.06635399999999 °
)
 (080.013610)  can0  460   [4]  00 00 EB 02 ::
whereamiData(
    Speed: 0.0 km/h,
    Distance: 747 m
)
 (080.013819)  can0  462   [4]  E1 01 EB 02 ::
whereamiRawData(
    RawSpeed: 4.8100000000000005 km/h,
    RawDistance: 747 m
)
 (080.014008)  can0  464   [8]  1E A0 69 02 7E B5 05 F9 ::
whereamiCoords(
    Latitude: 40.476701999999996 °,
    Longitude: -117.06636999999999 °
)
 (081.021355)  can0  460   [4]  00 00 EB 02 ::
whereamiData(
    Speed: 0.0 km/h,
    Distance: 747 m
)
 (081.021567)  can0  462   [4]  F4 01 EB 02 ::
whereamiRawData(
    RawSpeed: 5.0 km/h,
    RawDistance: 747 m
)
 (081.021758)  can0  464   [8]  1D A0 69 02 6E B5 05 F9 ::
whereamiCoords(
    Latitude: 40.476701 °,
    Longitude: -117.066386 °
)
 (082.031812)  can0  460   [4]  00 00 EC 02 ::
whereamiData(
    Speed: 0.0 km/h,
    Distance: 748 m
)
 (082.032030)  can0  462   [4]  19 02 EC 02 ::
whereamiRawData(
    RawSpeed: 5.37 km/h,
    RawDistance: 748 m
)
 (082.032236)  can0  464   [8]  1C A0 69 02 5C B5 05 F9 ::
whereamiCoords(
    Latitude: 40.4767 °,
    Longitude: -117.06640399999999 °
)
 (083.041562)  can0  460   [4]  00 00 EC 02 ::
whereamiData(
    Speed: 0.0 km/h,
    Distance: 748 m
)
 (083.041767)  can0  462   [4]  3E 02 EC 02 ::
whereamiRawData(
    RawSpeed: 5.74 km/h,
    RawDistance: 748 m
)
 (083.041953)  can0  464   [8]  1A A0 69 02 49 B5 05 F9 ::
whereamiCoords(
    Latitude: 40.476698 °,
    Longitude: -117.066423 °
)
 (083.951659)  can0  460   [4]  00 00 ED 02 ::
whereamiData(
    Speed: 0.0 km/h,
    Distance: 749 m
)
 (083.951875)  can0  462   [4]  50 02 ED 02 ::
whereamiRawData(
    RawSpeed: 5.92 km/h,
    RawDistance: 749 m
)
 (083.952069)  can0  464   [8]  19 A0 69 02 36 B5 05 F9 ::
whereamiCoords(
    Latitude: 40.476697 °,
    Longitude: -117.066442 °
)
 (084.963938)  can0  460   [4]  00 00 ED 02 ::
whereamiData(
    Speed: 0.0 km/h,
    Distance: 749 m
)
 (084.964149)  can0  462   [4]  63 02 ED 02 ::
whereamiRawData(
    RawSpeed: 6.11 km/h,
    RawDistance: 749 m
)
 (084.964342)  can0  464   [8]  18 A0 69 02 22 B5 05 F9 ::
whereamiCoords(
    Latitude: 40.476696 °,
    Longitude: -117.066462 °
)
 (085.971602)  can0  460   [4]  D9 00 ED 02 ::
whereamiData(
    Speed: 2.17 km/h,
    Distance: 749 m
)
 (085.971818)  can0  462   [4]  75 02 ED 02 ::
whereamiRawData(
    RawSpeed: 6.29 km/h,
    RawDistance: 749 m
)
 (085.972007)  can0  464   [8]  16 A0 69 02 0D B5 05 F9 ::
whereamiCoords(
    Latitude: 40.476693999999995 °,
    Longitude: -117.06648299999999 °
)
 (086.979428)  can0  460   [4]  21 00 EE 02 ::
whereamiData(
    Speed: 0.33 km/h,
    Distance: 750 m
)
 (086.979638)  can0  462   [4]  88 02 EE 02 ::
whereamiRawData(
    RawSpeed: 6.48 km/h,
    RawDistance: 750 m
)
 (086.979828)  can0  464   [8]  15 A0 69 02 F7 B4 05 F9 ::
whereamiCoords(
    Latitude: 40.476693 °,
    Longitude: -117.06650499999999 °
)
 (087.985442)  can0  460   [4]  23 01 EE 02 ::
whereamiData(
    Speed: 2.91 km/h,
    Distance: 750 m
)
 (087.985653)  can0  462   [4]  9A 02 EE 02 ::
whereamiRawData(
    RawSpeed: 6.66 km/h,
    RawDistance: 750 m
)
 (087.985845)  can0  464   [8]  14 A0 69 02 E1 B4 05 F9 ::
whereamiCoords(
    Latitude: 40.476692 °,
    Longitude: -117.066527 °
)
 (088.991634)  can0  460   [4]  5D 01 EF 02 ::
whereamiData(
    Speed: 3.49 km/h,
    Distance: 751 m
)
 (088.991848)  can0  462   [4]  9A 02 EF 02 ::
whereamiRawData(
    RawSpeed: 6.66 km/h,
    RawDistance: 751 m
)
 (088.992058)  can0  464   [8]  13 A0 69 02 CC B4 05 F9 ::
whereamiCoords(
    Latitude: 40.476690999999995 °,
    Longitude: -117.066548 °
)
 (090.001480)  can0  460   [4]  C7 01 EF 02 ::
whereamiData(
    Speed: 4.55 km/h,
    Distance: 751 m
)
 (090.001695)  can0  462   [4]  9A 02 EF 02 ::
whereamiRawData(
    RawSpeed: 6.66 km/h,
    RawDistance: 751 m
)
 (090.001913)  can0  464   [8]  12 A0 69 02 B5 B4 05 F9 ::
whereamiCoords(
    Latitude: 40.47669 °,
    Longitude: -117.066571 °
)
 (091.013489)  can0  460   [4]  1F 02 F0 02 ::
whereamiData(
    Speed: 5.43 km/h,
    Distance: 752 m
)
 (091.013704)  can0  462   [4]  9A 02 F0 02 ::
whereamiRawData(
    RawSpeed: 6.66 km/h,
    RawDistance: 752 m
)
 (091.013905)  can0  464   [8]  11 A0 69 02 9F B4 05 F9 ::
whereamiCoords(
    Latitude: 40.476689 °,
    Longitude: -117.066593 °
)
 (092.019505)  can0  460   [4]  53 02 F1 02 ::
whereamiData(
    Speed: 5.95 km/h,
    Distance: 753 m
)
 (092.019733)  can0  462   [4]  AD 02 F1 02 ::
whereamiRawData(
    RawSpeed: 6.8500000000000005 km/h,
    RawDistance: 753 m
)
 (092.019928)  can0  464   [8]  0F A0 69 02 88 B4 05 F9 ::
whereamiCoords(
    Latitude: 40.476687 °,
    Longitude: -117.066616 °
)
 (093.029521)  can0  460   [4]  82 02 F1 02 ::
whereamiData(
    Speed: 6.42 km/h,
    Distance: 753 m
)
 (093.029738)  can0  462   [4]  BF 02 F1 02 ::
whereamiRawData(
    RawSpeed: 7.03 km/h,
    RawDistance: 753 m
)
 (093.029937)  can0  464   [8]  0E A0 69 02 71 B4 05 F9 ::
whereamiCoords(
    Latitude: 40.476686 °,
    Longitude: -117.066639 °
)
 (094.039529)  can0  460   [4]  83 02 F2 02 ::
whereamiData(
    Speed: 6.43 km/h,
    Distance: 754 m
)
 (094.039747)  can0  462   [4]  E4 02 F2 02 ::
whereamiRawData(
    RawSpeed: 7.4 km/h,
    RawDistance: 754 m
)
 (094.039939)  can0  464   [8]  0D A0 69 02 59 B4 05 F9 ::
whereamiCoords(
    Latitude: 40.476684999999996 °,
    Longitude: -117.06666299999999 °
)
 (094.948056)  can0  460   [4]  F7 02 F2 02 ::
whereamiData(
    Speed: 7.59 km/h,
    Distance: 754 m
)
 (094.948275)  can0  462   [4]  F7 02 F2 02 ::
whereamiRawData(
    RawSpeed: 7.59 km/h,
    RawDistance: 754 m
)
 (094.948476)  can0  464   [8]  0C A0 69 02 40 B4 05 F9 ::
whereamiCoords(
    Latitude: 40.476684 °,
    Longitude: -117.066688 °
)
 (095.957733)  can0  460   [4]  04 03 F3 02 ::
whereamiData(
    Speed: 7.72 km/h,
    Distance: 755 m
)
 (095.957952)  can0  462   [4]  09 03 F3 02 ::
whereamiRawData(
    RawSpeed: 7.7700000000000005 km/h,
    RawDistance: 755 m
)
 (095.958146)  can0  464   [8]  0B A0 69 02 26 B4 05 F9 ::
whereamiCoords(
    Latitude: 40.476683 °,
    Longitude: -117.06671399999999 °
)
 (096.967582)  can0  460   [4]  E5 02 F4 02 ::
whereamiData(
    Speed: 7.41 km/h,
    Distance: 756 m
)
 (096.967801)  can0  462   [4]  F7 02 F4 02 ::
whereamiRawData(
    RawSpeed: 7.59 km/h,
    RawDistance: 756 m
)
 (096.968003)  can0  464   [8]  0A A0 69 02 0D B4 05 F9 ::
whereamiCoords(
    Latitude: 40.476682 °,
    Longitude: -117.066739 °
)
 (097.971755)  can0  460   [4]  07 03 F4 02 ::
whereamiData(
    Speed: 7.75 km/h,
    Distance: 756 m
)
 (097.971971)  can0  462   [4]  09 03 F4 02 ::
whereamiRawData(
    RawSpeed: 7.7700000000000005 km/h,
    RawDistance: 756 m
)
 (097.972165)  can0  464   [8]  09 A0 69 02 F3 B3 05 F9 ::
whereamiCoords(
    Latitude: 40.476681 °,
    Longitude: -117.06676499999999 °
)
 (098.977597)  can0  460   [4]  0E 03 F5 02 ::
whereamiData(
    Speed: 7.82 km/h,
    Distance: 757 m
)
 (098.977813)  can0  462   [4]  2E 03 F5 02 ::
whereamiRawData(
    RawSpeed: 8.14 km/h,
    RawDistance: 757 m
)
 (098.978010)  can0  464   [8]  08 A0 69 02 D8 B3 05 F9 ::
whereamiCoords(
    Latitude: 40.476679999999995 °,
    Longitude: -117.06679199999999 °
)
 (099.983609)  can0  460   [4]  6A 02 F6 02 ::
whereamiData(
    Speed: 6.18 km/h,
    Distance: 758 m
)
 (099.983835)  can0  462   [4]  1C 03 F6 02 ::
whereamiRawData(
    RawSpeed: 7.96 km/h,
    RawDistance: 758 m
)
 (099.984032)  can0  464   [8]  07 A0 69 02 BD B3 05 F9 ::
whereamiCoords(
    Latitude: 40.476679 °,
    Longitude: -117.066819 °
)
 (100.993627)  can0  460   [4]  87 01 F7 02 ::
whereamiData(
    Speed: 3.91 km/h,
    Distance: 759 m
)
 (100.993840)  can0  462   [4]  41 03 F7 02 ::
whereamiRawData(
    RawSpeed: 8.33 km/h,
    RawDistance: 759 m
)
 (100.994038)  can0  464   [8]  07 A0 69 02 A1 B3 05 F9 ::
whereamiCoords(
    Latitude: 40.476679 °,
    Longitude: -117.066847 °
)
 (101.999640)  can0  460   [4]  43 01 F7 02 ::
whereamiData(
    Speed: 3.23 km/h,
    Distance: 759 m
)
 (101.999857)  can0  462   [4]  53 03 F7 02 ::
whereamiRawData(
    RawSpeed: 8.51 km/h,
    RawDistance: 759 m
)
 (102.000049)  can0  464   [8]  06 A0 69 02 85 B3 05 F9 ::
whereamiCoords(
    Latitude: 40.476678 °,
    Longitude: -117.066875 °
)
 (103.005828)  can0  460   [4]  FD 00 F8 02 ::
whereamiData(
    Speed: 2.5300000000000002 km/h,
    Distance: 760 m
)
 (103.006046)  can0  462   [4]  78 03 F8 02 ::
whereamiRawData(
    RawSpeed: 8.88 km/h,
    RawDistance: 760 m
)
 (103.006245)  can0  464   [8]  05 A0 69 02 68 B3 05 F9 ::
whereamiCoords(
    Latitude: 40.476676999999995 °,
    Longitude: -117.066904 °
)
 (104.015685)  can0  460   [4]  AE 00 F9 02 ::
whereamiData(
    Speed: 1.74 km/h,
    Distance: 761 m
)
 (104.015912)  can0  462   [4]  9E 03 F9 02 ::
whereamiRawData(
    RawSpeed: 9.26 km/h,
    RawDistance: 761 m
)
 (104.016109)  can0  464   [8]  05 A0 69 02 49 B3 05 F9 ::
whereamiCoords(
    Latitude: 40.476676999999995 °,
    Longitude: -117.066935 °
)
 (105.021682)  can0  460   [4]  00 00 FA 02 ::
whereamiData(
    Speed: 0.0 km/h,
    Distance: 762 m
)
 (105.021900)  can0  462   [4]  B0 03 FA 02 ::
whereamiRawData(
    RawSpeed: 9.44 km/h,
    RawDistance: 762 m
)
 (105.022092)  can0  464   [8]  04 A0 69 02 2A B3 05 F9 ::
whereamiCoords(
    Latitude: 40.476676 °,
    Longitude: -117.066966 °
)
 (106.025871)  can0  460   [4]  00 00 FB 02 ::
whereamiData(
    Speed: 0.0 km/h,
    Distance: 763 m
)
 (106.026089)  can0  462   [4]  C3 03 FB 02 ::
whereamiRawData(
    RawSpeed: 9.63 km/h,
    RawDistance: 763 m
)
 (106.026282)  can0  464   [8]  03 A0 69 02 0A B3 05 F9 ::
whereamiCoords(
    Latitude: 40.476675 °,
    Longitude: -117.066998 °
)
 (107.030060)  can0  460   [4]  00 00 FC 02 ::
whereamiData(
    Speed: 0.0 km/h,
    Distance: 764 m
)
 (107.030283)  can0  462   [4]  D5 03 FC 02 ::
whereamiRawData(
    RawSpeed: 9.81 km/h,
    RawDistance: 764 m
)
 (107.030484)  can0  464   [8]  03 A0 69 02 EA B2 05 F9 ::
whereamiCoords(
    Latitude: 40.476675 °,
    Longitude: -117.06702999999999 °
)
 (108.038172)  can0  460   [4]  00 00 FD 02 ::
whereamiData(
    Speed: 0.0 km/h,
    Distance: 765 m
)
 (108.038389)  can0  462   [4]  C3 03 FD 02 ::
whereamiRawData(
    RawSpeed: 9.63 km/h,
    RawDistance: 765 m
)
 (108.038586)  can0  464   [8]  03 A0 69 02 CA B2 05 F9 ::
whereamiCoords(
    Latitude: 40.476675 °,
    Longitude: -117.06706199999999 °
)
 (109.047915)  can0  460   [4]  00 00 FE 02 ::
whereamiData(
    Speed: 0.0 km/h,
    Distance: 766 m
)
 (109.048132)  can0  462   [4]  E8 03 FE 02 ::
whereamiRawData(
    RawSpeed: 10.0 km/h,
    RawDistance: 766 m
)
 (109.048330)  can0  464   [8]  02 A0 69 02 A9 B2 05 F9 ::
whereamiCoords(
    Latitude: 40.476673999999996 °,
    Longitude: -117.067095 °
)
 (109.958443)  can0  460   [4]  00 00 FF 02 ::
whereamiData(
    Speed: 0.0 km/h,
    Distance: 767 m
)
 (109.958707)  can0  464   [8]  02 A0 69 02 88 B2 05 F9 ::
whereamiCoords(
    Latitude: 40.476673999999996 °,
    Longitude: -117.067128 °
)
 (109.959444)  can0  462   [4]  D5 03 FF 02 ::
whereamiRawData(
    RawSpeed: 9.81 km/h,
    RawDistance: 767 m
)
 (109.959640)  can0  468   [2]  6E 00 ::
whereamiPosUncert(
    PosUncertainty: 1.1 m
)
 (110.963499)  can0  460   [4]  00 00 00 03 ::
whereamiData(
    Speed: 0.0 km/h,
    Distance: 768 m
)
 (110.963719)  can0  462   [4]  D5 03 00 03 ::
whereamiRawData(
    RawSpeed: 9.81 km/h,
    RawDistance: 768 m
)
 (110.963918)  can0  464   [8]  02 A0 69 02 67 B2 05 F9 ::
whereamiCoords(
    Latitude: 40.476673999999996 °,
    Longitude: -117.067161 °
)
 (111.969955)  can0  460   [4]  00 00 01 03 ::
whereamiData(
    Speed: 0.0 km/h,
    Distance: 769 m
)
 (111.970181)  can0  462   [4]  D5 03 01 03 ::
whereamiRawData(
    RawSpeed: 9.81 km/h,
    RawDistance: 769 m
)
 (111.970386)  can0  464   [8]  02 A0 69 02 47 B2 05 F9 ::
whereamiCoords(
    Latitude: 40.476673999999996 °,
    Longitude: -117.06719299999999 °
)
 (112.976164)  can0  460   [4]  00 00 02 03 ::
whereamiData(
    Speed: 0.0 km/h,
    Distance: 770 m
)
 (112.976388)  can0  462   [4]  D5 03 02 03 ::
whereamiRawData(
    RawSpeed: 9.81 km/h,
    RawDistance: 770 m
)
 (112.976581)  can0  464   [8]  02 A0 69 02 27 B2 05 F9 ::
whereamiCoords(
    Latitude: 40.476673999999996 °,
    Longitude: -117.067225 °
)
 (113.981978)  can0  460   [4]  00 00 03 03 ::
whereamiData(
    Speed: 0.0 km/h,
    Distance: 771 m
)
 (113.982196)  can0  462   [4]  C3 03 03 03 ::
whereamiRawData(
    RawSpeed: 9.63 km/h,
    RawDistance: 771 m
)
 (113.982389)  can0  464   [8]  02 A0 69 02 07 B2 05 F9 ::
whereamiCoords(
    Latitude: 40.476673999999996 °,
    Longitude: -117.067257 °
)
 (114.988163)  can0  460   [4]  00 00 05 03 ::
whereamiData(
    Speed: 0.0 km/h,
    Distance: 773 m
)
 (114.988383)  can0  462   [4]  B0 03 05 03 ::
whereamiRawData(
    RawSpeed: 9.44 km/h,
    RawDistance: 773 m
)
 (114.988576)  can0  464   [8]  02 A0 69 02 E8 B1 05 F9 ::
whereamiCoords(
    Latitude: 40.476673999999996 °,
    Longitude: -117.06728799999999 °
)
 (115.998005)  can0  460   [4]  00 00 3A 22 ::
whereamiData(
    Speed: 0.0 km/h,
    Distance: 8762 m
)
 (115.998226)  can0  462   [4]  25 00 3A 22 ::
whereamiRawData(
    RawSpeed: 0.37 km/h,
    RawDistance: 8762 m
)
 (115.998428)  can0  464   [8]  C1 59 68 02 39 12 06 F9 ::
whereamiCoords(
    Latitude: 40.393153 °,
    Longitude: -117.042631 °
)
 (117.004031)  can0  460   [4]  00 00 3A 22 ::
whereamiData(
    Speed: 0.0 km/h,
    Distance: 8762 m
)
 (117.004253)  can0  462   [4]  25 00 3A 22 ::
whereamiRawData(
    RawSpeed: 0.37 km/h,
    RawDistance: 8762 m
)
 (117.004450)  can0  464   [8]  C2 59 68 02 39 12 06 F9 ::
whereamiCoords(
    Latitude: 40.393153999999996 °,
    Longitude: -117.042631 °
)
 (118.012119)  can0  460   [4]  00 00 3A 22 ::
whereamiData(
    Speed: 0.0 km/h,
    Distance: 8762 m
)
 (118.012338)  can0  462   [4]  25 00 3A 22 ::
whereamiRawData(
    RawSpeed: 0.37 km/h,
    RawDistance: 8762 m
)
 (118.012531)  can0  464   [8]  C3 59 68 02 39 12 06 F9 ::
whereamiCoords(
    Latitude: 40.393155 °,
    Longitude: -117.042631 °
)
 (119.022124)  can0  460   [4]  00 00 39 22 ::
whereamiData(
    Speed: 0.0 km/h,
    Distance: 8761 m
)
 (119.022340)  can0  462   [4]  37 00 39 22 ::
whereamiRawData(
    RawSpeed: 0.55 km/h,
    RawDistance: 8761 m
)
 (119.022533)  can0  464   [8]  C5 59 68 02 39 12 06 F9 ::
whereamiCoords(
    Latitude: 40.393156999999995 °,
    Longitude: -117.042631 °
)
 (120.028071)  can0  460   [4]  00 00 3A 22 ::
whereamiData(
    Speed: 0.0 km/h,
    Distance: 8762 m
)
 (120.028302)  can0  462   [4]  25 00 3A 22 ::
whereamiRawData(
    RawSpeed: 0.37 km/h,
    RawDistance: 8762 m
)
 (120.028501)  can0  464   [8]  C2 59 68 02 39 12 06 F9 ::
whereamiCoords(
    Latitude: 40.393153999999996 °,
    Longitude: -117.042631 °
)
 (121.036074)  can0  460   [4]  00 00 3A 22 ::
whereamiData(
    Speed: 0.0 km/h,
    Distance: 8762 m
)
 (121.036296)  can0  462   [4]  00 00 3A 22 ::
whereamiRawData(
    RawSpeed: 0.0 km/h,
    RawDistance: 8762 m
)
 (121.036495)  can0  464   [8]  C1 59 68 02 39 12 06 F9 ::
whereamiCoords(
    Latitude: 40.393153 °,
    Longitude: -117.042631 °
)
 (122.043733)  can0  460   [4]  00 00 3A 22 ::
whereamiData(
    Speed: 0.0 km/h,
    Distance: 8762 m
)
 (122.043951)  can0  462   [4]  00 00 3A 22 ::
whereamiRawData(
    RawSpeed: 0.0 km/h,
    RawDistance: 8762 m
)
 (122.044145)  can0  464   [8]  C1 59 68 02 39 12 06 F9 ::
whereamiCoords(
    Latitude: 40.393153 °,
    Longitude: -117.042631 °
)
 (122.949923)  can0  460   [4]  00 00 3A 22 ::
whereamiData(
    Speed: 0.0 km/h,
    Distance: 8762 m
)
 (122.950139)  can0  462   [4]  12 00 3A 22 ::
whereamiRawData(
    RawSpeed: 0.18 km/h,
    RawDistance: 8762 m
)
 (122.950342)  can0  464   [8]  C1 59 68 02 39 12 06 F9 ::
whereamiCoords(
    Latitude: 40.393153 °,
    Longitude: -117.042631 °
)
 (123.953762)  can0  460   [4]  00 00 3A 22 ::
whereamiData(
    Speed: 0.0 km/h,
    Distance: 8762 m
)
 (123.953981)  can0  462   [4]  00 00 3A 22 ::
whereamiRawData(
    RawSpeed: 0.0 km/h,
    RawDistance: 8762 m
)
 (123.954183)  can0  464   [8]  C1 59 68 02 39 12 06 F9 ::
whereamiCoords(
    Latitude: 40.393153 °,
    Longitude: -117.042631 °
)
 (124.959962)  can0  460   [4]  02 00 3A 22 ::
whereamiData(
    Speed: 0.02 km/h,
    Distance: 8762 m
)
 (124.960183)  can0  462   [4]  12 00 3A 22 ::
whereamiRawData(
    RawSpeed: 0.18 km/h,
    RawDistance: 8762 m
)
 (124.960396)  can0  464   [8]  C0 59 68 02 39 12 06 F9 ::
whereamiCoords(
    Latitude: 40.393152 °,
    Longitude: -117.042631 °
)
 (125.966156)  can0  460   [4]  09 00 3A 22 ::
whereamiData(
    Speed: 0.09 km/h,
    Distance: 8762 m
)
 (125.966379)  can0  462   [4]  12 00 3A 22 ::
whereamiRawData(
    RawSpeed: 0.18 km/h,
    RawDistance: 8762 m
)
 (125.966575)  can0  464   [8]  C1 59 68 02 39 12 06 F9 ::
whereamiCoords(
    Latitude: 40.393153 °,
    Longitude: -117.042631 °
)
 (126.974146)  can0  460   [4]  00 00 3A 22 ::
whereamiData(
    Speed: 0.0 km/h,
    Distance: 8762 m
)
 (126.974359)  can0  462   [4]  00 00 3A 22 ::
whereamiRawData(
    RawSpeed: 0.0 km/h,
    RawDistance: 8762 m
)
 (126.974552)  can0  464   [8]  C0 59 68 02 39 12 06 F9 ::
whereamiCoords(
    Latitude: 40.393152 °,
    Longitude: -117.042631 °
)
 (127.980159)  can0  460   [4]  00 00 3A 22 ::
whereamiData(
    Speed: 0.0 km/h,
    Distance: 8762 m
)
 (127.980378)  can0  462   [4]  00 00 3A 22 ::
whereamiRawData(
    RawSpeed: 0.0 km/h,
    RawDistance: 8762 m
)
 (127.980574)  can0  464   [8]  C0 59 68 02 39 12 06 F9 ::
whereamiCoords(
    Latitude: 40.393152 °,
    Longitude: -117.042631 °
)
 (128.986001)  can0  460   [4]  00 00 3A 22 ::
whereamiData(
    Speed: 0.0 km/h,
    Distance: 8762 m
)
 (128.986216)  can0  462   [4]  00 00 3A 22 ::
whereamiRawData(
    RawSpeed: 0.0 km/h,
    RawDistance: 8762 m
)
 (128.986408)  can0  464   [8]  C0 59 68 02 39 12 06 F9 ::
whereamiCoords(
    Latitude: 40.393152 °,
    Longitude: -117.042631 °
)
 (129.992031)  can0  460   [4]  00 00 3A 22 ::
whereamiData(
    Speed: 0.0 km/h,
    Distance: 8762 m
)
 (129.992251)  can0  462   [4]  00 00 3A 22 ::
whereamiRawData(
    RawSpeed: 0.0 km/h,
    RawDistance: 8762 m
)
 (129.992456)  can0  464   [8]  C0 59 68 02 39 12 06 F9 ::
whereamiCoords(
    Latitude: 40.393152 °,
    Longitude: -117.042631 °
)
 (130.996047)  can0  460   [4]  00 00 3A 22 ::
whereamiData(
    Speed: 0.0 km/h,
    Distance: 8762 m
)
 (130.996268)  can0  462   [4]  00 00 3A 22 ::
whereamiRawData(
    RawSpeed: 0.0 km/h,
    RawDistance: 8762 m
)
 (130.996464)  can0  464   [8]  C0 59 68 02 39 12 06 F9 ::
whereamiCoords(
    Latitude: 40.393152 °,
    Longitude: -117.042631 °
)
 (132.002307)  can0  460   [4]  10 00 3A 22 ::
whereamiData(
    Speed: 0.16 km/h,
    Distance: 8762 m
)
 (132.002523)  can0  462   [4]  12 00 3A 22 ::
whereamiRawData(
    RawSpeed: 0.18 km/h,
    RawDistance: 8762 m
)
 (132.002719)  can0  464   [8]  C0 59 68 02 39 12 06 F9 ::
whereamiCoords(
    Latitude: 40.393152 °,
    Longitude: -117.042631 °
)
 (133.006229)  can0  460   [4]  00 00 3A 22 ::
whereamiData(
    Speed: 0.0 km/h,
    Distance: 8762 m
)
 (133.006446)  can0  462   [4]  00 00 3A 22 ::
whereamiRawData(
    RawSpeed: 0.0 km/h,
    RawDistance: 8762 m
)
 (133.006649)  can0  464   [8]  C0 59 68 02 39 12 06 F9 ::
whereamiCoords(
    Latitude: 40.393152 °,
    Longitude: -117.042631 °
)
 (134.012084)  can0  460   [4]  12 00 3A 22 ::
whereamiData(
    Speed: 0.18 km/h,
    Distance: 8762 m
)
 (134.012314)  can0  462   [4]  12 00 3A 22 ::
whereamiRawData(
    RawSpeed: 0.18 km/h,
    RawDistance: 8762 m
)
 (134.012509)  can0  464   [8]  C0 59 68 02 39 12 06 F9 ::
whereamiCoords(
    Latitude: 40.393152 °,
    Longitude: -117.042631 °
)
 (135.022093)  can0  460   [4]  00 00 3A 22 ::
whereamiData(
    Speed: 0.0 km/h,
    Distance: 8762 m
)
 (135.022305)  can0  462   [4]  00 00 3A 22 ::
whereamiRawData(
    RawSpeed: 0.0 km/h,
    RawDistance: 8762 m
)
 (135.022495)  can0  464   [8]  C0 59 68 02 39 12 06 F9 ::
whereamiCoords(
    Latitude: 40.393152 °,
    Longitude: -117.042631 °
)
 (136.031924)  can0  460   [4]  00 00 3A 22 ::
whereamiData(
    Speed: 0.0 km/h,
    Distance: 8762 m
)
 (136.032135)  can0  462   [4]  00 00 3A 22 ::
whereamiRawData(
    RawSpeed: 0.0 km/h,
    RawDistance: 8762 m
)
 (136.032327)  can0  464   [8]  C0 59 68 02 39 12 06 F9 ::
whereamiCoords(
    Latitude: 40.393152 °,
    Longitude: -117.042631 °
)
 (137.038121)  can0  460   [4]  00 00 3A 22 ::
whereamiData(
    Speed: 0.0 km/h,
    Distance: 8762 m
)
 (137.038334)  can0  462   [4]  00 00 3A 22 ::
whereamiRawData(
    RawSpeed: 0.0 km/h,
    RawDistance: 8762 m
)
 (137.038532)  can0  464   [8]  C0 59 68 02 39 12 06 F9 ::
whereamiCoords(
    Latitude: 40.393152 °,
    Longitude: -117.042631 °
)
 (138.042311)  can0  460   [4]  00 00 3A 22 ::
whereamiData(
    Speed: 0.0 km/h,
    Distance: 8762 m
)
 (138.042535)  can0  462   [4]  00 00 3A 22 ::
whereamiRawData(
    RawSpeed: 0.0 km/h,
    RawDistance: 8762 m
)
 (138.042729)  can0  464   [8]  C0 59 68 02 39 12 06 F9 ::
whereamiCoords(
    Latitude: 40.393152 °,
    Longitude: -117.042631 °
)
 (139.047993)  can0  460   [4]  00 00 3A 22 ::
whereamiData(
    Speed: 0.0 km/h,
    Distance: 8762 m
)
 (139.048203)  can0  462   [4]  00 00 3A 22 ::
whereamiRawData(
    RawSpeed: 0.0 km/h,
    RawDistance: 8762 m
)
 (139.048398)  can0  464   [8]  C0 59 68 02 39 12 06 F9 ::
whereamiCoords(
    Latitude: 40.393152 °,
    Longitude: -117.042631 °
)
 (139.953897)  can0  460   [4]  00 00 3A 22 ::
whereamiData(
    Speed: 0.0 km/h,
    Distance: 8762 m
)
 (139.954110)  can0  462   [4]  00 00 3A 22 ::
whereamiRawData(
    RawSpeed: 0.0 km/h,
    RawDistance: 8762 m
)
 (139.954311)  can0  464   [8]  C0 59 68 02 37 12 06 F9 ::
whereamiCoords(
    Latitude: 40.393152 °,
    Longitude: -117.042633 °
)
 (140.964430)  can0  460   [4]  00 00 3A 22 ::
whereamiData(
    Speed: 0.0 km/h,
    Distance: 8762 m
)
 (140.964641)  can0  462   [4]  00 00 3A 22 ::
whereamiRawData(
    RawSpeed: 0.0 km/h,
    RawDistance: 8762 m
)
 (140.964836)  can0  464   [8]  C0 59 68 02 36 12 06 F9 ::
whereamiCoords(
    Latitude: 40.393152 °,
    Longitude: -117.04263399999999 °
)
 (141.970185)  can0  460   [4]  00 00 3A 22 ::
whereamiData(
    Speed: 0.0 km/h,
    Distance: 8762 m
)
 (141.970395)  can0  462   [4]  00 00 3A 22 ::
whereamiRawData(
    RawSpeed: 0.0 km/h,
    RawDistance: 8762 m
)
 (141.970588)  can0  464   [8]  BF 59 68 02 36 12 06 F9 ::
whereamiCoords(
    Latitude: 40.393150999999996 °,
    Longitude: -117.04263399999999 °
)
 (142.976250)  can0  460   [4]  00 00 3A 22 ::
whereamiData(
    Speed: 0.0 km/h,
    Distance: 8762 m
)
 (142.976464)  can0  462   [4]  00 00 3A 22 ::
whereamiRawData(
    RawSpeed: 0.0 km/h,
    RawDistance: 8762 m
)
 (142.976654)  can0  464   [8]  BF 59 68 02 35 12 06 F9 ::
whereamiCoords(
    Latitude: 40.393150999999996 °,
    Longitude: -117.04263499999999 °
)
 (143.988468)  can0  460   [4]  0F 00 3A 22 ::
whereamiData(
    Speed: 0.15 km/h,
    Distance: 8762 m
)
 (143.988677)  can0  462   [4]  12 00 3A 22 ::
whereamiRawData(
    RawSpeed: 0.18 km/h,
    RawDistance: 8762 m
)
 (143.988869)  can0  464   [8]  BF 59 68 02 35 12 06 F9 ::
whereamiCoords(
    Latitude: 40.393150999999996 °,
    Longitude: -117.04263499999999 °
)
 (145.000240)  can0  460   [4]  0D 00 3A 22 ::
whereamiData(
    Speed: 0.13 km/h,
    Distance: 8762 m
)
 (145.000453)  can0  462   [4]  12 00 3A 22 ::
whereamiRawData(
    RawSpeed: 0.18 km/h,
    RawDistance: 8762 m
)
 (145.000645)  can0  464   [8]  C0 59 68 02 35 12 06 F9 ::
whereamiCoords(
    Latitude: 40.393152 °,
    Longitude: -117.04263499999999 °
)
 (146.004262)  can0  460   [4]  00 00 3A 22 ::
whereamiData(
    Speed: 0.0 km/h,
    Distance: 8762 m
)
 (146.004475)  can0  462   [4]  00 00 3A 22 ::
whereamiRawData(
    RawSpeed: 0.0 km/h,
    RawDistance: 8762 m
)
 (146.004665)  can0  464   [8]  BF 59 68 02 35 12 06 F9 ::
whereamiCoords(
    Latitude: 40.393150999999996 °,
    Longitude: -117.04263499999999 °
)
 (147.014426)  can0  460   [4]  0A 00 3A 22 ::
whereamiData(
    Speed: 0.1 km/h,
    Distance: 8762 m
)
 (147.014636)  can0  462   [4]  12 00 3A 22 ::
whereamiRawData(
    RawSpeed: 0.18 km/h,
    RawDistance: 8762 m
)
 (147.014824)  can0  464   [8]  C0 59 68 02 35 12 06 F9 ::
whereamiCoords(
    Latitude: 40.393152 °,
    Longitude: -117.04263499999999 °
)
 (148.022261)  can0  460   [4]  00 00 3A 22 ::
whereamiData(
    Speed: 0.0 km/h,
    Distance: 8762 m
)
 (148.022470)  can0  462   [4]  00 00 3A 22 ::
whereamiRawData(
    RawSpeed: 0.0 km/h,
    RawDistance: 8762 m
)
 (148.022663)  can0  464   [8]  BF 59 68 02 35 12 06 F9 ::
whereamiCoords(
    Latitude: 40.393150999999996 °,
    Longitude: -117.04263499999999 °
)
 (149.032301)  can0  460   [4]  00 00 3A 22 ::
whereamiData(
    Speed: 0.0 km/h,
    Distance: 8762 m
)
 (149.032519)  can0  462   [4]  00 00 3A 22 ::
whereamiRawData(
    RawSpeed: 0.0 km/h,
    RawDistance: 8762 m
)
 (149.032720)  can0  464   [8]  BF 59 68 02 35 12 06 F9 ::
whereamiCoords(
    Latitude: 40.393150999999996 °,
    Longitude: -117.04263499999999 °
)
 (150.044294)  can0  460   [4]  00 00 3A 22 ::
whereamiData(
    Speed: 0.0 km/h,
    Distance: 8762 m
)
 (150.044516)  can0  462   [4]  00 00 3A 22 ::
whereamiRawData(
    RawSpeed: 0.0 km/h,
    RawDistance: 8762 m
)
 (150.044713)  can0  464   [8]  BF 59 68 02 35 12 06 F9 ::
whereamiCoords(
    Latitude: 40.393150999999996 °,
    Longitude: -117.04263499999999 °
)
 (150.950652)  can0  460   [4]  0D 00 3A 22 ::
whereamiData(
    Speed: 0.13 km/h,
    Distance: 8762 m
)
 (150.950871)  can0  462   [4]  12 00 3A 22 ::
whereamiRawData(
    RawSpeed: 0.18 km/h,
    RawDistance: 8762 m
)
 (150.951066)  can0  464   [8]  BF 59 68 02 35 12 06 F9 ::
whereamiCoords(
    Latitude: 40.393150999999996 °,
    Longitude: -117.04263499999999 °
)
 (151.958150)  can0  460   [4]  00 00 3A 22 ::
whereamiData(
    Speed: 0.0 km/h,
    Distance: 8762 m
)
 (151.958367)  can0  462   [4]  00 00 3A 22 ::
whereamiRawData(
    RawSpeed: 0.0 km/h,
    RawDistance: 8762 m
)
 (151.958563)  can0  464   [8]  BF 59 68 02 35 12 06 F9 ::
whereamiCoords(
    Latitude: 40.393150999999996 °,
    Longitude: -117.04263499999999 °
)
 (152.966520)  can0  460   [4]  0B 00 3A 22 ::
whereamiData(
    Speed: 0.11 km/h,
    Distance: 8762 m
)
 (152.966755)  can0  462   [4]  12 00 3A 22 ::
whereamiRawData(
    RawSpeed: 0.18 km/h,
    RawDistance: 8762 m
)
 (152.966954)  can0  464   [8]  BF 59 68 02 35 12 06 F9 ::
whereamiCoords(
    Latitude: 40.393150999999996 °,
    Longitude: -117.04263499999999 °
)
 (153.976359)  can0  460   [4]  0B 00 3A 22 ::
whereamiData(
    Speed: 0.11 km/h,
    Distance: 8762 m
)
 (153.976585)  can0  462   [4]  12 00 3A 22 ::
whereamiRawData(
    RawSpeed: 0.18 km/h,
    RawDistance: 8762 m
)
 (153.976791)  can0  464   [8]  C0 59 68 02 35 12 06 F9 ::
whereamiCoords(
    Latitude: 40.393152 °,
    Longitude: -117.04263499999999 °
)
 (154.982539)  can0  460   [4]  00 00 3A 22 ::
whereamiData(
    Speed: 0.0 km/h,
    Distance: 8762 m
)
 (154.982755)  can0  462   [4]  00 00 3A 22 ::
whereamiRawData(
    RawSpeed: 0.0 km/h,
    RawDistance: 8762 m
)
 (154.982947)  can0  464   [8]  BF 59 68 02 35 12 06 F9 ::
whereamiCoords(
    Latitude: 40.393150999999996 °,
    Longitude: -117.04263499999999 °
)
 (155.988382)  can0  460   [4]  08 00 3A 22 ::
whereamiData(
    Speed: 0.08 km/h,
    Distance: 8762 m
)
 (155.988597)  can0  462   [4]  12 00 3A 22 ::
whereamiRawData(
    RawSpeed: 0.18 km/h,
    RawDistance: 8762 m
)
 (155.988788)  can0  464   [8]  C0 59 68 02 35 12 06 F9 ::
whereamiCoords(
    Latitude: 40.393152 °,
    Longitude: -117.04263499999999 °
)
 (156.996407)  can0  460   [4]  07 00 3A 22 ::
whereamiData(
    Speed: 0.07 km/h,
    Distance: 8762 m
)
 (156.996626)  can0  462   [4]  12 00 3A 22 ::
whereamiRawData(
    RawSpeed: 0.18 km/h,
    RawDistance: 8762 m
)
 (156.996828)  can0  464   [8]  C0 59 68 02 35 12 06 F9 ::
whereamiCoords(
    Latitude: 40.393152 °,
    Longitude: -117.04263499999999 °
)
 (158.000413)  can0  460   [4]  05 00 3A 22 ::
whereamiData(
    Speed: 0.05 km/h,
    Distance: 8762 m
)
 (158.000639)  can0  462   [4]  12 00 3A 22 ::
whereamiRawData(
    RawSpeed: 0.18 km/h,
    RawDistance: 8762 m
)
 (158.000835)  can0  464   [8]  C0 59 68 02 35 12 06 F9 ::
whereamiCoords(
    Latitude: 40.393152 °,
    Longitude: -117.04263499999999 °
)
 (159.010594)  can0  460   [4]  03 00 3A 22 ::
whereamiData(
    Speed: 0.03 km/h,
    Distance: 8762 m
)
 (159.010814)  can0  462   [4]  12 00 3A 22 ::
whereamiRawData(
    RawSpeed: 0.18 km/h,
    RawDistance: 8762 m
)
 (159.011008)  can0  464   [8]  C0 59 68 02 35 12 06 F9 ::
whereamiCoords(
    Latitude: 40.393152 °,
    Longitude: -117.04263499999999 °
)
 (160.024629)  can0  460   [4]  03 00 3A 22 ::
whereamiData(
    Speed: 0.03 km/h,
    Distance: 8762 m
)
 (160.024862)  can0  462   [4]  12 00 3A 22 ::
whereamiRawData(
    RawSpeed: 0.18 km/h,
    RawDistance: 8762 m
)
 (160.025069)  can0  464   [8]  C0 59 68 02 35 12 06 F9 ::
whereamiCoords(
    Latitude: 40.393152 °,
    Longitude: -117.04263499999999 °
)
 (161.038441)  can0  460   [4]  05 00 3A 22 ::
whereamiData(
    Speed: 0.05 km/h,
    Distance: 8762 m
)
 (161.038663)  can0  462   [4]  12 00 3A 22 ::
whereamiRawData(
    RawSpeed: 0.18 km/h,
    RawDistance: 8762 m
)
 (161.038857)  can0  464   [8]  C0 59 68 02 35 12 06 F9 ::
whereamiCoords(
    Latitude: 40.393152 °,
    Longitude: -117.04263499999999 °
)
 (161.948283)  can0  460   [4]  00 00 3A 22 ::
whereamiData(
    Speed: 0.0 km/h,
    Distance: 8762 m
)
 (161.948499)  can0  462   [4]  00 00 3A 22 ::
whereamiRawData(
    RawSpeed: 0.0 km/h,
    RawDistance: 8762 m
)
 (161.948702)  can0  464   [8]  BF 59 68 02 35 12 06 F9 ::
whereamiCoords(
    Latitude: 40.393150999999996 °,
    Longitude: -117.04263499999999 °
)
 (162.960739)  can0  460   [4]  00 00 3A 22 ::
whereamiData(
    Speed: 0.0 km/h,
    Distance: 8762 m
)
 (162.960953)  can0  462   [4]  00 00 3A 22 ::
whereamiRawData(
    RawSpeed: 0.0 km/h,
    RawDistance: 8762 m
)
 (162.961148)  can0  464   [8]  BF 59 68 02 35 12 06 F9 ::
whereamiCoords(
    Latitude: 40.393150999999996 °,
    Longitude: -117.04263499999999 °
)
 (163.968487)  can0  460   [4]  00 00 3A 22 ::
whereamiData(
    Speed: 0.0 km/h,
    Distance: 8762 m
)
 (163.968701)  can0  462   [4]  00 00 3A 22 ::
whereamiRawData(
    RawSpeed: 0.0 km/h,
    RawDistance: 8762 m
)
 (163.968901)  can0  464   [8]  BF 59 68 02 35 12 06 F9 ::
whereamiCoords(
    Latitude: 40.393150999999996 °,
    Longitude: -117.04263499999999 °
)
 (164.978505)  can0  460   [4]  00 00 3A 22 ::
whereamiData(
    Speed: 0.0 km/h,
    Distance: 8762 m
)
 (164.978720)  can0  462   [4]  00 00 3A 22 ::
whereamiRawData(
    RawSpeed: 0.0 km/h,
    RawDistance: 8762 m
)
 (164.978914)  can0  464   [8]  BF 59 68 02 35 12 06 F9 ::
whereamiCoords(
    Latitude: 40.393150999999996 °,
    Longitude: -117.04263499999999 °
)
 (165.992350)  can0  460   [4]  00 00 3A 22 ::
whereamiData(
    Speed: 0.0 km/h,
    Distance: 8762 m
)
 (165.992588)  can0  462   [4]  00 00 3A 22 ::
whereamiRawData(
    RawSpeed: 0.0 km/h,
    RawDistance: 8762 m
)
 (165.992788)  can0  464   [8]  BF 59 68 02 35 12 06 F9 ::
whereamiCoords(
    Latitude: 40.393150999999996 °,
    Longitude: -117.04263499999999 °
)
 (167.000370)  can0  460   [4]  01 00 3A 22 ::
whereamiData(
    Speed: 0.01 km/h,
    Distance: 8762 m
)
 (167.000587)  can0  462   [4]  12 00 3A 22 ::
whereamiRawData(
    RawSpeed: 0.18 km/h,
    RawDistance: 8762 m
)
 (167.000784)  can0  464   [8]  BF 59 68 02 35 12 06 F9 ::
whereamiCoords(
    Latitude: 40.393150999999996 °,
    Longitude: -117.04263499999999 °
)
 (168.010715)  can0  460   [4]  01 00 3A 22 ::
whereamiData(
    Speed: 0.01 km/h,
    Distance: 8762 m
)
 (168.010927)  can0  462   [4]  12 00 3A 22 ::
whereamiRawData(
    RawSpeed: 0.18 km/h,
    RawDistance: 8762 m
)
 (168.011123)  can0  464   [8]  BF 59 68 02 35 12 06 F9 ::
whereamiCoords(
    Latitude: 40.393150999999996 °,
    Longitude: -117.04263499999999 °
)
 (169.022736)  can0  460   [4]  00 00 3A 22 ::
whereamiData(
    Speed: 0.0 km/h,
    Distance: 8762 m
)
 (169.022952)  can0  462   [4]  12 00 3A 22 ::
whereamiRawData(
    RawSpeed: 0.18 km/h,
    RawDistance: 8762 m
)
 (169.023149)  can0  464   [8]  C0 59 68 02 35 12 06 F9 ::
whereamiCoords(
    Latitude: 40.393152 °,
    Longitude: -117.04263499999999 °
)
 (170.034667)  can0  460   [4]  00 00 3A 22 ::
whereamiData(
    Speed: 0.0 km/h,
    Distance: 8762 m
)
 (170.034885)  can0  462   [4]  12 00 3A 22 ::
whereamiRawData(
    RawSpeed: 0.18 km/h,
    RawDistance: 8762 m
)
 (170.035087)  can0  464   [8]  C0 59 68 02 35 12 06 F9 ::
whereamiCoords(
    Latitude: 40.393152 °,
    Longitude: -117.04263499999999 °
)
 (171.044590)  can0  460   [4]  00 00 3A 22 ::
whereamiData(
    Speed: 0.0 km/h,
    Distance: 8762 m
)
 (171.044823)  can0  462   [4]  00 00 3A 22 ::
whereamiRawData(
    RawSpeed: 0.0 km/h,
    RawDistance: 8762 m
)
 (171.045020)  can0  464   [8]  C0 59 68 02 35 12 06 F9 ::
whereamiCoords(
    Latitude: 40.393152 °,
    Longitude: -117.04263499999999 °
)
 (171.952597)  can0  460   [4]  00 00 3A 22 ::
whereamiData(
    Speed: 0.0 km/h,
    Distance: 8762 m
)
 (171.952816)  can0  462   [4]  00 00 3A 22 ::
whereamiRawData(
    RawSpeed: 0.0 km/h,
    RawDistance: 8762 m
)
 (171.953013)  can0  464   [8]  BF 59 68 02 35 12 06 F9 ::
whereamiCoords(
    Latitude: 40.393150999999996 °,
    Longitude: -117.04263499999999 °
)
 (172.965136)  can0  460   [4]  00 00 3A 22 ::
whereamiData(
    Speed: 0.0 km/h,
    Distance: 8762 m
)
 (172.965355)  can0  462   [4]  12 00 3A 22 ::
whereamiRawData(
    RawSpeed: 0.18 km/h,
    RawDistance: 8762 m
)
 (172.965560)  can0  464   [8]  BF 59 68 02 35 12 06 F9 ::
whereamiCoords(
    Latitude: 40.393150999999996 °,
    Longitude: -117.04263499999999 °
)
 (173.974803)  can0  460   [4]  00 00 3A 22 ::
whereamiData(
    Speed: 0.0 km/h,
    Distance: 8762 m
)
 (173.975022)  can0  462   [4]  00 00 3A 22 ::
whereamiRawData(
    RawSpeed: 0.0 km/h,
    RawDistance: 8762 m
)
 (173.975218)  can0  464   [8]  BF 59 68 02 35 12 06 F9 ::
whereamiCoords(
    Latitude: 40.393150999999996 °,
    Longitude: -117.04263499999999 °
)
 (174.988912)  can0  460   [4]  00 00 3A 22 ::
whereamiData(
    Speed: 0.0 km/h,
    Distance: 8762 m
)
 (174.989129)  can0  462   [4]  12 00 3A 22 ::
whereamiRawData(
    RawSpeed: 0.18 km/h,
    RawDistance: 8762 m
)
 (174.989321)  can0  464   [8]  BF 59 68 02 35 12 06 F9 ::
whereamiCoords(
    Latitude: 40.393150999999996 °,
    Longitude: -117.04263499999999 °
)
 (176.006836)  can0  460   [4]  00 00 3A 22 ::
whereamiData(
    Speed: 0.0 km/h,
    Distance: 8762 m
)
 (176.007065)  can0  462   [4]  00 00 3A 22 ::
whereamiRawData(
    RawSpeed: 0.0 km/h,
    RawDistance: 8762 m
)
 (176.007261)  can0  464   [8]  BF 59 68 02 35 12 06 F9 ::
whereamiCoords(
    Latitude: 40.393150999999996 °,
    Longitude: -117.04263499999999 °
)
 (177.014847)  can0  460   [4]  00 00 3A 22 ::
whereamiData(
    Speed: 0.0 km/h,
    Distance: 8762 m
)
 (177.015073)  can0  462   [4]  12 00 3A 22 ::
whereamiRawData(
    RawSpeed: 0.18 km/h,
    RawDistance: 8762 m
)
 (177.015285)  can0  464   [8]  C0 59 68 02 35 12 06 F9 ::
whereamiCoords(
    Latitude: 40.393152 °,
    Longitude: -117.04263499999999 °
)
 (178.026684)  can0  460   [4]  00 00 3A 22 ::
whereamiData(
    Speed: 0.0 km/h,
    Distance: 8762 m
)
 (178.026903)  can0  462   [4]  12 00 3A 22 ::
whereamiRawData(
    RawSpeed: 0.18 km/h,
    RawDistance: 8762 m
)
 (178.027102)  can0  464   [8]  C0 59 68 02 35 12 06 F9 ::
whereamiCoords(
    Latitude: 40.393152 °,
    Longitude: -117.04263499999999 °
)
 (179.038903)  can0  460   [4]  00 00 3A 22 ::
whereamiData(
    Speed: 0.0 km/h,
    Distance: 8762 m
)
 (179.039123)  can0  462   [4]  12 00 3A 22 ::
whereamiRawData(
    RawSpeed: 0.18 km/h,
    RawDistance: 8762 m
)
 (179.039319)  can0  464   [8]  C0 59 68 02 35 12 06 F9 ::
whereamiCoords(
    Latitude: 40.393152 °,
    Longitude: -117.04263499999999 °
)
 (180.046976)  can0  460   [4]  00 00 3A 22 ::
whereamiData(
    Speed: 0.0 km/h,
    Distance: 8762 m
)
 (180.047194)  can0  462   [4]  12 00 3A 22 ::
whereamiRawData(
    RawSpeed: 0.18 km/h,
    RawDistance: 8762 m
)
 (180.047392)  can0  464   [8]  BF 59 68 02 33 12 06 F9 ::
whereamiCoords(
    Latitude: 40.393150999999996 °,
    Longitude: -117.042637 °
)
 (180.958977)  can0  460   [4]  00 00 3A 22 ::
whereamiData(
    Speed: 0.0 km/h,
    Distance: 8762 m
)
 (180.959200)  can0  462   [4]  00 00 3A 22 ::
whereamiRawData(
    RawSpeed: 0.0 km/h,
    RawDistance: 8762 m
)
 (180.959398)  can0  464   [8]  BF 59 68 02 32 12 06 F9 ::
whereamiCoords(
    Latitude: 40.393150999999996 °,
    Longitude: -117.042638 °
)
 (181.974748)  can0  460   [4]  00 00 3A 22 ::
whereamiData(
    Speed: 0.0 km/h,
    Distance: 8762 m
)
 (181.974976)  can0  462   [4]  00 00 3A 22 ::
whereamiRawData(
    RawSpeed: 0.0 km/h,
    RawDistance: 8762 m
)
 (181.975170)  can0  464   [8]  BF 59 68 02 32 12 06 F9 ::
whereamiCoords(
    Latitude: 40.393150999999996 °,
    Longitude: -117.042638 °
)
 (182.986752)  can0  460   [4]  00 00 3A 22 ::
whereamiData(
    Speed: 0.0 km/h,
    Distance: 8762 m
)
 (182.986966)  can0  462   [4]  12 00 3A 22 ::
whereamiRawData(
    RawSpeed: 0.18 km/h,
    RawDistance: 8762 m
)
 (182.987161)  can0  464   [8]  BF 59 68 02 31 12 06 F9 ::
whereamiCoords(
    Latitude: 40.393150999999996 °,
    Longitude: -117.042639 °
)
 (183.998594)  can0  460   [4]  00 00 3A 22 ::
whereamiData(
    Speed: 0.0 km/h,
    Distance: 8762 m
)
 (183.998810)  can0  462   [4]  00 00 3A 22 ::
whereamiRawData(
    RawSpeed: 0.0 km/h,
    RawDistance: 8762 m
)
 (183.999006)  can0  464   [8]  BF 59 68 02 31 12 06 F9 ::
whereamiCoords(
    Latitude: 40.393150999999996 °,
    Longitude: -117.042639 °
)
 (185.012951)  can0  460   [4]  00 00 3A 22 ::
whereamiData(
    Speed: 0.0 km/h,
    Distance: 8762 m
)
 (185.013165)  can0  462   [4]  12 00 3A 22 ::
whereamiRawData(
    RawSpeed: 0.18 km/h,
    RawDistance: 8762 m
)
 (185.013363)  can0  464   [8]  BF 59 68 02 31 12 06 F9 ::
whereamiCoords(
    Latitude: 40.393150999999996 °,
    Longitude: -117.042639 °
)
 (186.025147)  can0  460   [4]  00 00 3A 22 ::
whereamiData(
    Speed: 0.0 km/h,
    Distance: 8762 m
)
 (186.025373)  can0  462   [4]  12 00 3A 22 ::
whereamiRawData(
    RawSpeed: 0.18 km/h,
    RawDistance: 8762 m
)
 (186.025573)  can0  464   [8]  BF 59 68 02 31 12 06 F9 ::
whereamiCoords(
    Latitude: 40.393150999999996 °,
    Longitude: -117.042639 °
)
 (187.038989)  can0  460   [4]  00 00 3A 22 ::
whereamiData(
    Speed: 0.0 km/h,
    Distance: 8762 m
)
 (187.039202)  can0  462   [4]  12 00 3A 22 ::
whereamiRawData(
    RawSpeed: 0.18 km/h,
    RawDistance: 8762 m
)
 (187.039395)  can0  464   [8]  BF 59 68 02 31 12 06 F9 ::
whereamiCoords(
    Latitude: 40.393150999999996 °,
    Longitude: -117.042639 °
)
 (187.950990)  can0  460   [4]  00 00 3A 22 ::
whereamiData(
    Speed: 0.0 km/h,
    Distance: 8762 m
)
 (187.951209)  can0  462   [4]  12 00 3A 22 ::
whereamiRawData(
    RawSpeed: 0.18 km/h,
    RawDistance: 8762 m
)
 (187.951410)  can0  464   [8]  BF 59 68 02 31 12 06 F9 ::
whereamiCoords(
    Latitude: 40.393150999999996 °,
    Longitude: -117.042639 °
)
 (188.964662)  can0  460   [4]  00 00 3A 22 ::
whereamiData(
    Speed: 0.0 km/h,
    Distance: 8762 m
)
 (188.964883)  can0  462   [4]  00 00 3A 22 ::
whereamiRawData(
    RawSpeed: 0.0 km/h,
    RawDistance: 8762 m
)
 (188.965080)  can0  464   [8]  BF 59 68 02 31 12 06 F9 ::
whereamiCoords(
    Latitude: 40.393150999999996 °,
    Longitude: -117.042639 °
)
 (189.976578)  can0  460   [4]  00 00 3A 22 ::
whereamiData(
    Speed: 0.0 km/h,
    Distance: 8762 m
)
 (189.976793)  can0  462   [4]  00 00 3A 22 ::
whereamiRawData(
    RawSpeed: 0.0 km/h,
    RawDistance: 8762 m
)
 (189.976986)  can0  464   [8]  BF 59 68 02 31 12 06 F9 ::
whereamiCoords(
    Latitude: 40.393150999999996 °,
    Longitude: -117.042639 °
)
 (190.986679)  can0  460   [4]  00 00 3A 22 ::
whereamiData(
    Speed: 0.0 km/h,
    Distance: 8762 m
)
 (190.986897)  can0  462   [4]  00 00 3A 22 ::
whereamiRawData(
    RawSpeed: 0.0 km/h,
    RawDistance: 8762 m
)
 (190.987091)  can0  464   [8]  BF 59 68 02 31 12 06 F9 ::
whereamiCoords(
    Latitude: 40.393150999999996 °,
    Longitude: -117.042639 °
)
 (191.998711)  can0  460   [4]  00 00 3A 22 ::
whereamiData(
    Speed: 0.0 km/h,
    Distance: 8762 m
)
 (191.998932)  can0  462   [4]  00 00 3A 22 ::
whereamiRawData(
    RawSpeed: 0.0 km/h,
    RawDistance: 8762 m
)
 (191.999128)  can0  464   [8]  BF 59 68 02 31 12 06 F9 ::
whereamiCoords(
    Latitude: 40.393150999999996 °,
    Longitude: -117.042639 °
)
 (193.009235)  can0  460   [4]  00 00 3A 22 ::
whereamiData(
    Speed: 0.0 km/h,
    Distance: 8762 m
)
 (193.009456)  can0  462   [4]  12 00 3A 22 ::
whereamiRawData(
    RawSpeed: 0.18 km/h,
    RawDistance: 8762 m
)
 (193.009659)  can0  464   [8]  BF 59 68 02 31 12 06 F9 ::
whereamiCoords(
    Latitude: 40.393150999999996 °,
    Longitude: -117.042639 °
)
 (194.018931)  can0  460   [4]  00 00 3A 22 ::
whereamiData(
    Speed: 0.0 km/h,
    Distance: 8762 m
)
 (194.019155)  can0  462   [4]  00 00 3A 22 ::
whereamiRawData(
    RawSpeed: 0.0 km/h,
    RawDistance: 8762 m
)
 (194.019350)  can0  464   [8]  BF 59 68 02 31 12 06 F9 ::
whereamiCoords(
    Latitude: 40.393150999999996 °,
    Longitude: -117.042639 °
)
 (195.031094)  can0  460   [4]  00 00 3A 22 ::
whereamiData(
    Speed: 0.0 km/h,
    Distance: 8762 m
)
 (195.031316)  can0  462   [4]  12 00 3A 22 ::
whereamiRawData(
    RawSpeed: 0.18 km/h,
    RawDistance: 8762 m
)
 (195.031520)  can0  464   [8]  BF 59 68 02 31 12 06 F9 ::
whereamiCoords(
    Latitude: 40.393150999999996 °,
    Longitude: -117.042639 °
)
 (196.041280)  can0  460   [4]  00 00 3A 22 ::
whereamiData(
    Speed: 0.0 km/h,
    Distance: 8762 m
)
 (196.041501)  can0  462   [4]  12 00 3A 22 ::
whereamiRawData(
    RawSpeed: 0.18 km/h,
    RawDistance: 8762 m
)
 (196.041703)  can0  464   [8]  BF 59 68 02 31 12 06 F9 ::
whereamiCoords(
    Latitude: 40.393150999999996 °,
    Longitude: -117.042639 °
)
 (196.951206)  can0  460   [4]  00 00 3A 22 ::
whereamiData(
    Speed: 0.0 km/h,
    Distance: 8762 m
)
 (196.951425)  can0  462   [4]  12 00 3A 22 ::
whereamiRawData(
    RawSpeed: 0.18 km/h,
    RawDistance: 8762 m
)
 (196.951627)  can0  464   [8]  BF 59 68 02 31 12 06 F9 ::
whereamiCoords(
    Latitude: 40.393150999999996 °,
    Longitude: -117.042639 °
)
 (197.961477)  can0  460   [4]  00 00 3A 22 ::
whereamiData(
    Speed: 0.0 km/h,
    Distance: 8762 m
)
 (197.961699)  can0  462   [4]  12 00 3A 22 ::
whereamiRawData(
    RawSpeed: 0.18 km/h,
    RawDistance: 8762 m
)
 (197.961895)  can0  464   [8]  BF 59 68 02 31 12 06 F9 ::
whereamiCoords(
    Latitude: 40.393150999999996 °,
    Longitude: -117.042639 °
)
 (198.971322)  can0  460   [4]  00 00 3A 22 ::
whereamiData(
    Speed: 0.0 km/h,
    Distance: 8762 m
)
 (198.971541)  can0  462   [4]  12 00 3A 22 ::
whereamiRawData(
    RawSpeed: 0.18 km/h,
    RawDistance: 8762 m
)
 (198.971740)  can0  464   [8]  BF 59 68 02 31 12 06 F9 ::
whereamiCoords(
    Latitude: 40.393150999999996 °,
    Longitude: -117.042639 °
)
 (199.983256)  can0  460   [4]  00 00 3A 22 ::
whereamiData(
    Speed: 0.0 km/h,
    Distance: 8762 m
)
 (199.983494)  can0  462   [4]  12 00 3A 22 ::
whereamiRawData(
    RawSpeed: 0.18 km/h,
    RawDistance: 8762 m
)
 (199.983702)  can0  464   [8]  BF 59 68 02 31 12 06 F9 ::
whereamiCoords(
    Latitude: 40.393150999999996 °,
    Longitude: -117.042639 °
)
 (200.995172)  can0  460   [4]  00 00 3A 22 ::
whereamiData(
    Speed: 0.0 km/h,
    Distance: 8762 m
)
 (200.995389)  can0  462   [4]  12 00 3A 22 ::
whereamiRawData(
    RawSpeed: 0.18 km/h,
    RawDistance: 8762 m
)
 (200.995585)  can0  464   [8]  BF 59 68 02 31 12 06 F9 ::
whereamiCoords(
    Latitude: 40.393150999999996 °,
    Longitude: -117.042639 °
)
 (202.007280)  can0  460   [4]  00 00 3A 22 ::
whereamiData(
    Speed: 0.0 km/h,
    Distance: 8762 m
)
 (202.007500)  can0  462   [4]  25 00 3A 22 ::
whereamiRawData(
    RawSpeed: 0.37 km/h,
    RawDistance: 8762 m
)
 (202.007695)  can0  464   [8]  BF 59 68 02 31 12 06 F9 ::
whereamiCoords(
    Latitude: 40.393150999999996 °,
    Longitude: -117.042639 °
)
 (203.017383)  can0  460   [4]  00 00 3A 22 ::
whereamiData(
    Speed: 0.0 km/h,
    Distance: 8762 m
)
 (203.017608)  can0  462   [4]  12 00 3A 22 ::
whereamiRawData(
    RawSpeed: 0.18 km/h,
    RawDistance: 8762 m
)
 (203.017812)  can0  464   [8]  BF 59 68 02 31 12 06 F9 ::
whereamiCoords(
    Latitude: 40.393150999999996 °,
    Longitude: -117.042639 °
)
 (204.029220)  can0  460   [4]  00 00 3A 22 ::
whereamiData(
    Speed: 0.0 km/h,
    Distance: 8762 m
)
 (204.029433)  can0  462   [4]  12 00 3A 22 ::
whereamiRawData(
    RawSpeed: 0.18 km/h,
    RawDistance: 8762 m
)
 (204.029633)  can0  464   [8]  BF 59 68 02 31 12 06 F9 ::
whereamiCoords(
    Latitude: 40.393150999999996 °,
    Longitude: -117.042639 °
)
 (205.041254)  can0  460   [4]  00 00 3A 22 ::
whereamiData(
    Speed: 0.0 km/h,
    Distance: 8762 m
)
 (205.041480)  can0  462   [4]  12 00 3A 22 ::
whereamiRawData(
    RawSpeed: 0.18 km/h,
    RawDistance: 8762 m
)
 (205.041676)  can0  464   [8]  C0 59 68 02 31 12 06 F9 ::
whereamiCoords(
    Latitude: 40.393152 °,
    Longitude: -117.042639 °
)
 (205.953254)  can0  460   [4]  00 00 3A 22 ::
whereamiData(
    Speed: 0.0 km/h,
    Distance: 8762 m
)
 (205.953492)  can0  462   [4]  12 00 3A 22 ::
whereamiRawData(
    RawSpeed: 0.18 km/h,
    RawDistance: 8762 m
)
 (205.953681)  can0  464   [8]  BF 59 68 02 31 12 06 F9 ::
whereamiCoords(
    Latitude: 40.393150999999996 °,
    Longitude: -117.042639 °
)
 (206.971262)  can0  460   [4]  00 00 3A 22 ::
whereamiData(
    Speed: 0.0 km/h,
    Distance: 8762 m
)
 (206.971479)  can0  462   [4]  12 00 3A 22 ::
whereamiRawData(
    RawSpeed: 0.18 km/h,
    RawDistance: 8762 m
)
 (206.971671)  can0  464   [8]  BF 59 68 02 31 12 06 F9 ::
whereamiCoords(
