 (000.000000)  can0  460   [4]  00 00 31 0D ::
whereamiData(
    Speed: 0.0 km/h,
    Distance: 3377 m
)
 (000.000214)  can0  462   [4]  0D 26 31 0D ::
whereamiRawData(
    RawSpeed: 97.41 km/h,
    RawDistance: 3377 m
)
 (000.000409)  can0  464   [8]  2C 15 69 02 92 EB 05 F9 ::
whereamiCoords(
    Latitude: 40.441131999999996 °,
    Longitude: -117.052526 °
)
 (001.079677)  can0  460   [4]  00 00 19 0D ::
whereamiData(
    Speed: 0.0 km/h,
    Distance: 3353 m
)
 (001.079915)  can0  462   [4]  C0 24 19 0D ::
whereamiRawData(
    RawSpeed: 94.08 km/h,
    RawDistance: 3353 m
)
 (001.080110)  can0  464   [8]  16 16 69 02 9A EB 05 F9 ::
whereamiCoords(
    Latitude: 40.441365999999995 °,
    Longitude: -117.05251799999999 °
)
 (002.057662)  can0  460   [4]  B7 01 FF 0C ::
whereamiData(
    Speed: 4.39 km/h,
    Distance: 3327 m
)
 (002.057875)  can0  462   [4]  79 25 FF 0C ::
whereamiRawData(
    RawSpeed: 95.93 km/h,
    RawDistance: 3327 m
)
 (002.058074)  can0  464   [8]  04 17 69 02 A3 EB 05 F9 ::
whereamiCoords(
    Latitude: 40.441604 °,
    Longitude: -117.052509 °
)
 (003.031681)  can0  460   [4]  EC 0C E6 0C ::
whereamiData(
    Speed: 33.08 km/h,
    Distance: 3302 m
)
 (003.031913)  can0  462   [4]  20 26 E6 0C ::
whereamiRawData(
    RawSpeed: 97.60000000000001 km/h,
    RawDistance: 3302 m
)
 (003.032114)  can0  464   [8]  F6 17 69 02 AC EB 05 F9 ::
whereamiCoords(
    Latitude: 40.441846 °,
    Longitude: -117.0525 °
)
 (004.010580)  can0  460   [4]  43 0C CE 0C ::
whereamiData(
    Speed: 31.39 km/h,
    Distance: 3278 m
)
 (004.010839)  can0  464   [8]  DB 18 69 02 B7 EB 05 F9 ::
whereamiCoords(
    Latitude: 40.442074999999996 °,
    Longitude: -117.052489 °
)
 (004.011224)  can0  462   [4]  2B 24 CE 0C ::
whereamiRawData(
    RawSpeed: 92.59 km/h,
    RawDistance: 3278 m
)
 (004.011442)  can0  468   [2]  64 00 ::
whereamiPosUncert(
    PosUncertainty: 1.0 m
)
 (005.083707)  can0  460   [4]  34 05 B6 0C ::
whereamiData(
    Speed: 13.32 km/h,
    Distance: 3254 m
)
 (005.083937)  can0  462   [4]  CF 23 B6 0C ::
whereamiRawData(
    RawSpeed: 91.67 km/h,
    RawDistance: 3254 m
)
 (005.084128)  can0  464   [8]  BF 19 69 02 C0 EB 05 F9 ::
whereamiCoords(
    Latitude: 40.442302999999995 °,
    Longitude: -117.05247999999999 °
)
 (058.010713)  can0  460   [4]  00 00 B4 11 ::
whereamiData(
    Speed: 0.0 km/h,
    Distance: 4532 m
)
 (058.010929)  can0  462   [4]  00 00 B4 11 ::
whereamiRawData(
    RawSpeed: 0.0 km/h,
    RawDistance: 4532 m
)
 (058.011125)  can0  464   [8]  4E EB 68 02 DF EA 05 F9 ::
whereamiCoords(
    Latitude: 40.430414 °,
    Longitude: -117.05270499999999 °
)
 (059.090386)  can0  460   [4]  00 00 B4 11 ::
whereamiData(
    Speed: 0.0 km/h,
    Distance: 4532 m
)
 (059.090619)  can0  462   [4]  00 00 B4 11 ::
whereamiRawData(
    RawSpeed: 0.0 km/h,
    RawDistance: 4532 m
)
 (059.090815)  can0  464   [8]  4E EB 68 02 DF EA 05 F9 ::
whereamiCoords(
    Latitude: 40.430414 °,
    Longitude: -117.05270499999999 °
)
 (060.072411)  can0  460   [4]  00 00 B4 11 ::
whereamiData(
    Speed: 0.0 km/h,
    Distance: 4532 m
)
 (060.072638)  can0  462   [4]  00 00 B4 11 ::
whereamiRawData(
    RawSpeed: 0.0 km/h,
    RawDistance: 4532 m
)
 (060.072838)  can0  464   [8]  4E EB 68 02 DF EA 05 F9 ::
whereamiCoords(
    Latitude: 40.430414 °,
    Longitude: -117.05270499999999 °
)
 (061.050131)  can0  460   [4]  00 00 B4 11 ::
whereamiData(
    Speed: 0.0 km/h,
    Distance: 4532 m
)
 (061.050344)  can0  462   [4]  00 00 B4 11 ::
whereamiRawData(
    RawSpeed: 0.0 km/h,
    RawDistance: 4532 m
)
 (061.050540)  can0  464   [8]  4E EB 68 02 DF EA 05 F9 ::
whereamiCoords(
    Latitude: 40.430414 °,
    Longitude: -117.05270499999999 °
)
 (062.030578)  can0  460   [4]  00 00 B4 11 ::
whereamiData(
    Speed: 0.0 km/h,
    Distance: 4532 m
)
 (062.030790)  can0  462   [4]  00 00 B4 11 ::
whereamiRawData(
    RawSpeed: 0.0 km/h,
    RawDistance: 4532 m
)
 (062.030988)  can0  464   [8]  4E EB 68 02 DF EA 05 F9 ::
whereamiCoords(
    Latitude: 40.430414 °,
    Longitude: -117.05270499999999 °
)
 (063.016249)  can0  460   [4]  00 00 B4 11 ::
whereamiData(
    Speed: 0.0 km/h,
    Distance: 4532 m
)
 (063.016469)  can0  462   [4]  00 00 B4 11 ::
whereamiRawData(
    RawSpeed: 0.0 km/h,
    RawDistance: 4532 m
)
 (063.016669)  can0  464   [8]  4E EB 68 02 DF EA 05 F9 ::
whereamiCoords(
    Latitude: 40.430414 °,
    Longitude: -117.05270499999999 °
)
 (064.004173)  can0  460   [4]  00 00 B4 11 ::
whereamiData(
    Speed: 0.0 km/h,
    Distance: 4532 m
)
 (064.004388)  can0  462   [4]  00 00 B4 11 ::
whereamiRawData(
    RawSpeed: 0.0 km/h,
    RawDistance: 4532 m
)
 (064.004578)  can0  464   [8]  4E EB 68 02 DF EA 05 F9 ::
whereamiCoords(
    Latitude: 40.430414 °,
    Longitude: -117.05270499999999 °
)
 (065.092285)  can0  460   [4]  00 00 BB 11 ::
whereamiData(
    Speed: 0.0 km/h,
    Distance: 4539 m
)
 (065.092506)  can0  462   [4]  00 00 BB 11 ::
whereamiRawData(
    RawSpeed: 0.0 km/h,
    RawDistance: 4539 m
)
 (065.092696)  can0  464   [8]  0A EB 68 02 CC EA 05 F9 ::
whereamiCoords(
    Latitude: 40.430346 °,
    Longitude: -117.052724 °
)
 (066.076179)  can0  460   [4]  00 00 BB 11 ::
whereamiData(
    Speed: 0.0 km/h,
    Distance: 4539 m
)
 (066.076391)  can0  462   [4]  00 00 BB 11 ::
whereamiRawData(
    RawSpeed: 0.0 km/h,
    RawDistance: 4539 m
)
 (066.076582)  can0  464   [8]  09 EB 68 02 CE EA 05 F9 ::
whereamiCoords(
    Latitude: 40.430344999999996 °,
    Longitude: -117.05272199999999 °
)
 (067.068454)  can0  460   [4]  00 00 BB 11 ::
whereamiData(
    Speed: 0.0 km/h,
    Distance: 4539 m
)
 (067.068681)  can0  462   [4]  00 00 BB 11 ::
whereamiRawData(
    RawSpeed: 0.0 km/h,
    RawDistance: 4539 m
)
 (067.068879)  can0  464   [8]  0D EB 68 02 D5 EA 05 F9 ::
whereamiCoords(
    Latitude: 40.430349 °,
    Longitude: -117.05271499999999 °
)
 (068.058724)  can0  460   [4]  00 00 BA 11 ::
whereamiData(
    Speed: 0.0 km/h,
    Distance: 4538 m
)
 (068.058936)  can0  462   [4]  12 00 BA 11 ::
whereamiRawData(
    RawSpeed: 0.18 km/h,
    RawDistance: 4538 m
)
 (068.059127)  can0  464   [8]  11 EB 68 02 D8 EA 05 F9 ::
whereamiCoords(
    Latitude: 40.430353 °,
    Longitude: -117.052712 °
)
 (069.050314)  can0  460   [4]  00 00 BA 11 ::
whereamiData(
    Speed: 0.0 km/h,
    Distance: 4538 m
)
 (069.050537)  can0  462   [4]  00 00 BA 11 ::
whereamiRawData(
    RawSpeed: 0.0 km/h,
    RawDistance: 4538 m
)
 (069.050730)  can0  464   [8]  15 EB 68 02 DC EA 05 F9 ::
whereamiCoords(
    Latitude: 40.430357 °,
    Longitude: -117.052708 °
)
 (070.040321)  can0  460   [4]  00 00 BA 11 ::
whereamiData(
    Speed: 0.0 km/h,
    Distance: 4538 m
)
 (070.040535)  can0  462   [4]  00 00 BA 11 ::
whereamiRawData(
    RawSpeed: 0.0 km/h,
    RawDistance: 4538 m
)
 (070.040726)  can0  464   [8]  15 EB 68 02 E3 EA 05 F9 ::
whereamiCoords(
    Latitude: 40.430357 °,
    Longitude: -117.052701 °
)
 (071.032507)  can0  460   [4]  00 00 BA 11 ::
whereamiData(
    Speed: 0.0 km/h,
    Distance: 4538 m
)
 (071.032727)  can0  462   [4]  00 00 BA 11 ::
whereamiRawData(
    RawSpeed: 0.0 km/h,
    RawDistance: 4538 m
)
 (071.032918)  can0  464   [8]  14 EB 68 02 E9 EA 05 F9 ::
whereamiCoords(
    Latitude: 40.430355999999996 °,
    Longitude: -117.052695 °
)
 (072.024669)  can0  460   [4]  00 00 BB 11 ::
whereamiData(
    Speed: 0.0 km/h,
    Distance: 4539 m
)
 (072.024881)  can0  462   [4]  00 00 BB 11 ::
whereamiRawData(
    RawSpeed: 0.0 km/h,
    RawDistance: 4539 m
)
 (072.025076)  can0  464   [8]  11 EB 68 02 ED EA 05 F9 ::
whereamiCoords(
    Latitude: 40.430353 °,
    Longitude: -117.052691 °
)
 (073.020521)  can0  460   [4]  00 00 BB 11 ::
whereamiData(
    Speed: 0.0 km/h,
    Distance: 4539 m
)
 (073.020730)  can0  462   [4]  00 00 BB 11 ::
whereamiRawData(
    RawSpeed: 0.0 km/h,
    RawDistance: 4539 m
)
 (073.020920)  can0  464   [8]  0F EB 68 02 EF EA 05 F9 ::
whereamiCoords(
    Latitude: 40.430351 °,
    Longitude: -117.052689 °
)
 (074.014374)  can0  460   [4]  00 00 BB 11 ::
whereamiData(
    Speed: 0.0 km/h,
    Distance: 4539 m
)
 (074.014585)  can0  462   [4]  00 00 BB 11 ::
whereamiRawData(
    RawSpeed: 0.0 km/h,
    RawDistance: 4539 m
)
 (074.014775)  can0  464   [8]  0E EB 68 02 F0 EA 05 F9 ::
whereamiCoords(
    Latitude: 40.43035 °,
    Longitude: -117.05268799999999 °
)
 (075.008366)  can0  460   [4]  00 00 BB 11 ::
whereamiData(
    Speed: 0.0 km/h,
    Distance: 4539 m
)
 (075.008577)  can0  462   [4]  00 00 BB 11 ::
whereamiRawData(
    RawSpeed: 0.0 km/h,
    RawDistance: 4539 m
)
 (075.008771)  can0  464   [8]  0E EB 68 02 F0 EA 05 F9 ::
whereamiCoords(
    Latitude: 40.43035 °,
    Longitude: -117.05268799999999 °
)
 (076.004375)  can0  460   [4]  00 00 BB 11 ::
whereamiData(
    Speed: 0.0 km/h,
    Distance: 4539 m
)
 (076.004583)  can0  462   [4]  00 00 BB 11 ::
whereamiRawData(
    RawSpeed: 0.0 km/h,
    RawDistance: 4539 m
)
 (076.004771)  can0  464   [8]  0D EB 68 02 F0 EA 05 F9 ::
whereamiCoords(
    Latitude: 40.430349 °,
    Longitude: -117.05268799999999 °
)
 (077.096725)  can0  460   [4]  00 00 BB 11 ::
whereamiData(
    Speed: 0.0 km/h,
    Distance: 4539 m
)
 (077.096932)  can0  462   [4]  00 00 BB 11 ::
whereamiRawData(
    RawSpeed: 0.0 km/h,
    RawDistance: 4539 m
)
 (077.097127)  can0  464   [8]  0C EB 68 02 EF EA 05 F9 ::
whereamiCoords(
    Latitude: 40.430347999999995 °,
    Longitude: -117.052689 °
)
 (078.090557)  can0  460   [4]  00 00 BB 11 ::
whereamiData(
    Speed: 0.0 km/h,
    Distance: 4539 m
)
 (078.090766)  can0  462   [4]  00 00 BB 11 ::
whereamiRawData(
    RawSpeed: 0.0 km/h,
    RawDistance: 4539 m
)
 (078.090961)  can0  464   [8]  0B EB 68 02 EF EA 05 F9 ::
whereamiCoords(
    Latitude: 40.430347 °,
    Longitude: -117.052689 °
)
 (079.084585)  can0  460   [4]  00 00 BB 11 ::
whereamiData(
    Speed: 0.0 km/h,
    Distance: 4539 m
)
 (079.084810)  can0  462   [4]  00 00 BB 11 ::
whereamiRawData(
    RawSpeed: 0.0 km/h,
    RawDistance: 4539 m
)
 (079.085003)  can0  464   [8]  0A EB 68 02 EE EA 05 F9 ::
whereamiCoords(
    Latitude: 40.430346 °,
    Longitude: -117.05269 °
)
 (080.080595)  can0  460   [4]  00 00 BB 11 ::
whereamiData(
    Speed: 0.0 km/h,
    Distance: 4539 m
)
 (080.080804)  can0  462   [4]  00 00 BB 11 ::
whereamiRawData(
    RawSpeed: 0.0 km/h,
    RawDistance: 4539 m
)
 (080.080998)  can0  464   [8]  0A EB 68 02 ED EA 05 F9 ::
whereamiCoords(
    Latitude: 40.430346 °,
    Longitude: -117.052691 °
)
 (081.076425)  can0  460   [4]  00 00 BB 11 ::
whereamiData(
    Speed: 0.0 km/h,
    Distance: 4539 m
)
 (081.076633)  can0  462   [4]  00 00 BB 11 ::
whereamiRawData(
    RawSpeed: 0.0 km/h,
    RawDistance: 4539 m
)
 (081.076825)  can0  464   [8]  0A EB 68 02 ED EA 05 F9 ::
whereamiCoords(
    Latitude: 40.430346 °,
    Longitude: -117.052691 °
)
 (082.076787)  can0  460   [4]  00 00 BC 11 ::
whereamiData(
    Speed: 0.0 km/h,
    Distance: 4540 m
)
 (082.077000)  can0  462   [4]  00 00 BC 11 ::
whereamiRawData(
    RawSpeed: 0.0 km/h,
    RawDistance: 4540 m
)
 (082.077193)  can0  464   [8]  09 EB 68 02 EC EA 05 F9 ::
whereamiCoords(
    Latitude: 40.430344999999996 °,
    Longitude: -117.052692 °
)
 (083.080806)  can0  460   [4]  00 00 BC 11 ::
whereamiData(
    Speed: 0.0 km/h,
    Distance: 4540 m
)
 (083.081033)  can0  462   [4]  00 00 BC 11 ::
whereamiRawData(
    RawSpeed: 0.0 km/h,
    RawDistance: 4540 m
)
 (083.081223)  can0  464   [8]  09 EB 68 02 EB EA 05 F9 ::
whereamiCoords(
    Latitude: 40.430344999999996 °,
    Longitude: -117.05269299999999 °
)
 (084.086657)  can0  460   [4]  00 00 BC 11 ::
whereamiData(
    Speed: 0.0 km/h,
    Distance: 4540 m
)
 (084.086876)  can0  462   [4]  00 00 BC 11 ::
whereamiRawData(
    RawSpeed: 0.0 km/h,
    RawDistance: 4540 m
)
 (084.087067)  can0  464   [8]  08 EB 68 02 EB EA 05 F9 ::
whereamiCoords(
    Latitude: 40.430344 °,
    Longitude: -117.05269299999999 °
)
 (085.092642)  can0  460   [4]  00 00 BC 11 ::
whereamiData(
    Speed: 0.0 km/h,
    Distance: 4540 m
)
 (085.092850)  can0  462   [4]  00 00 BC 11 ::
whereamiRawData(
    RawSpeed: 0.0 km/h,
    RawDistance: 4540 m
)
 (085.093040)  can0  464   [8]  08 EB 68 02 EB EA 05 F9 ::
whereamiCoords(
    Latitude: 40.430344 °,
    Longitude: -117.05269299999999 °
)
 (086.094847)  can0  460   [4]  00 00 BC 11 ::
whereamiData(
    Speed: 0.0 km/h,
    Distance: 4540 m
)
 (086.095074)  can0  462   [4]  00 00 BC 11 ::
whereamiRawData(
    RawSpeed: 0.0 km/h,
    RawDistance: 4540 m
)
 (086.095263)  can0  464   [8]  09 EB 68 02 EB EA 05 F9 ::
whereamiCoords(
    Latitude: 40.430344999999996 °,
    Longitude: -117.05269299999999 °
)
 (086.998486)  can0  460   [4]  00 00 BB 11 ::
whereamiData(
    Speed: 0.0 km/h,
    Distance: 4539 m
)
 (086.998699)  can0  462   [4]  00 00 BB 11 ::
whereamiRawData(
    RawSpeed: 0.0 km/h,
    RawDistance: 4539 m
)
 (086.998891)  can0  464   [8]  09 EB 68 02 EB EA 05 F9 ::
whereamiCoords(
    Latitude: 40.430344999999996 °,
    Longitude: -117.05269299999999 °
)
 (088.000504)  can0  460   [4]  00 00 BB 11 ::
whereamiData(
    Speed: 0.0 km/h,
    Distance: 4539 m
)
 (088.000720)  can0  462   [4]  00 00 BB 11 ::
whereamiRawData(
    RawSpeed: 0.0 km/h,
    RawDistance: 4539 m
)
 (088.000911)  can0  464   [8]  09 EB 68 02 EA EA 05 F9 ::
whereamiCoords(
    Latitude: 40.430344999999996 °,
    Longitude: -117.05269399999999 °
)
 (089.002940)  can0  460   [4]  00 00 BB 11 ::
whereamiData(
    Speed: 0.0 km/h,
    Distance: 4539 m
)
 (089.003150)  can0  462   [4]  00 00 BB 11 ::
whereamiRawData(
    RawSpeed: 0.0 km/h,
    RawDistance: 4539 m
)
 (089.003343)  can0  464   [8]  0A EB 68 02 EA EA 05 F9 ::
whereamiCoords(
    Latitude: 40.430346 °,
    Longitude: -117.05269399999999 °
)
 (090.004708)  can0  460   [4]  00 00 BB 11 ::
whereamiData(
    Speed: 0.0 km/h,
    Distance: 4539 m
)
 (090.004924)  can0  462   [4]  00 00 BB 11 ::
whereamiRawData(
    RawSpeed: 0.0 km/h,
    RawDistance: 4539 m
)
 (090.005113)  can0  464   [8]  0A EB 68 02 E9 EA 05 F9 ::
whereamiCoords(
    Latitude: 40.430346 °,
    Longitude: -117.052695 °
)
 (091.010537)  can0  460   [4]  00 00 BB 11 ::
whereamiData(
    Speed: 0.0 km/h,
    Distance: 4539 m
)
 (091.010757)  can0  462   [4]  00 00 BB 11 ::
whereamiRawData(
    RawSpeed: 0.0 km/h,
    RawDistance: 4539 m
)
 (091.010946)  can0  464   [8]  0A EB 68 02 E8 EA 05 F9 ::
whereamiCoords(
    Latitude: 40.430346 °,
    Longitude: -117.052696 °
)
 (092.012985)  can0  460   [4]  00 00 BB 11 ::
whereamiData(
    Speed: 0.0 km/h,
    Distance: 4539 m
)
 (092.013196)  can0  462   [4]  00 00 BB 11 ::
whereamiRawData(
    RawSpeed: 0.0 km/h,
    RawDistance: 4539 m
)
 (092.013390)  can0  464   [8]  0A EB 68 02 E7 EA 05 F9 ::
whereamiCoords(
    Latitude: 40.430346 °,
    Longitude: -117.052697 °
)
 (093.018734)  can0  460   [4]  00 00 BB 11 ::
whereamiData(
    Speed: 0.0 km/h,
    Distance: 4539 m
)
 (093.018944)  can0  462   [4]  00 00 BB 11 ::
whereamiRawData(
    RawSpeed: 0.0 km/h,
    RawDistance: 4539 m
)
 (093.019140)  can0  464   [8]  09 EB 68 02 E7 EA 05 F9 ::
whereamiCoords(
    Latitude: 40.430344999999996 °,
    Longitude: -117.052697 °
)
 (094.022746)  can0  460   [4]  00 00 BB 11 ::
whereamiData(
    Speed: 0.0 km/h,
    Distance: 4539 m
)
 (094.022964)  can0  462   [4]  00 00 BB 11 ::
whereamiRawData(
    RawSpeed: 0.0 km/h,
    RawDistance: 4539 m
)
 (094.023158)  can0  464   [8]  09 EB 68 02 E6 EA 05 F9 ::
whereamiCoords(
    Latitude: 40.430344999999996 °,
    Longitude: -117.05269799999999 °
)
 (095.028759)  can0  460   [4]  00 00 BB 11 ::
whereamiData(
    Speed: 0.0 km/h,
    Distance: 4539 m
)
 (095.028989)  can0  462   [4]  00 00 BB 11 ::
whereamiRawData(
    RawSpeed: 0.0 km/h,
    RawDistance: 4539 m
)
 (095.029185)  can0  464   [8]  09 EB 68 02 E5 EA 05 F9 ::
whereamiCoords(
    Latitude: 40.430344999999996 °,
    Longitude: -117.05269899999999 °
)
 (096.036595)  can0  460   [4]  00 00 BB 11 ::
whereamiData(
    Speed: 0.0 km/h,
    Distance: 4539 m
)
 (096.036813)  can0  462   [4]  00 00 BB 11 ::
whereamiRawData(
    RawSpeed: 0.0 km/h,
    RawDistance: 4539 m
)
 (096.037012)  can0  464   [8]  09 EB 68 02 E5 EA 05 F9 ::
whereamiCoords(
    Latitude: 40.430344999999996 °,
    Longitude: -117.05269899999999 °
)
 (097.046934)  can0  460   [4]  00 00 BB 11 ::
whereamiData(
    Speed: 0.0 km/h,
    Distance: 4539 m
)
 (097.047146)  can0  462   [4]  00 00 BB 11 ::
whereamiRawData(
    RawSpeed: 0.0 km/h,
    RawDistance: 4539 m
)
 (097.047348)  can0  464   [8]  09 EB 68 02 E4 EA 05 F9 ::
whereamiCoords(
    Latitude: 40.430344999999996 °,
    Longitude: -117.0527 °
)
 (098.054608)  can0  460   [4]  00 00 BB 11 ::
whereamiData(
    Speed: 0.0 km/h,
    Distance: 4539 m
)
 (098.054816)  can0  462   [4]  00 00 BB 11 ::
whereamiRawData(
    RawSpeed: 0.0 km/h,
    RawDistance: 4539 m
)
 (098.055004)  can0  464   [8]  09 EB 68 02 E4 EA 05 F9 ::
whereamiCoords(
    Latitude: 40.430344999999996 °,
    Longitude: -117.0527 °
)
 (099.060802)  can0  460   [4]  00 00 BB 11 ::
whereamiData(
    Speed: 0.0 km/h,
    Distance: 4539 m
)
 (099.061022)  can0  462   [4]  00 00 BB 11 ::
whereamiRawData(
    RawSpeed: 0.0 km/h,
    RawDistance: 4539 m
)
 (099.061216)  can0  464   [8]  0A EB 68 02 E4 EA 05 F9 ::
whereamiCoords(
    Latitude: 40.430346 °,
    Longitude: -117.0527 °
)
 (100.068798)  can0  460   [4]  00 00 BB 11 ::
whereamiData(
    Speed: 0.0 km/h,
    Distance: 4539 m
)
 (100.069010)  can0  462   [4]  00 00 BB 11 ::
whereamiRawData(
    RawSpeed: 0.0 km/h,
    RawDistance: 4539 m
)
 (100.069203)  can0  464   [8]  0B EB 68 02 E4 EA 05 F9 ::
whereamiCoords(
    Latitude: 40.430347 °,
    Longitude: -117.0527 °
)
 (101.072821)  can0  460   [4]  00 00 BB 11 ::
whereamiData(
    Speed: 0.0 km/h,
    Distance: 4539 m
)
 (101.073034)  can0  462   [4]  00 00 BB 11 ::
whereamiRawData(
    RawSpeed: 0.0 km/h,
    RawDistance: 4539 m
)
 (101.073224)  can0  464   [8]  0B EB 68 02 E4 EA 05 F9 ::
whereamiCoords(
    Latitude: 40.430347 °,
    Longitude: -117.0527 °
)
 (102.084821)  can0  460   [4]  00 00 BB 11 ::
whereamiData(
    Speed: 0.0 km/h,
    Distance: 4539 m
)
 (102.085034)  can0  462   [4]  00 00 BB 11 ::
whereamiRawData(
    RawSpeed: 0.0 km/h,
    RawDistance: 4539 m
)
 (102.085227)  can0  464   [8]  0B EB 68 02 E4 EA 05 F9 ::
whereamiCoords(
    Latitude: 40.430347 °,
    Longitude: -117.0527 °
)
 (103.092842)  can0  460   [4]  00 00 BB 11 ::
whereamiData(
    Speed: 0.0 km/h,
    Distance: 4539 m
)
 (103.093063)  can0  462   [4]  00 00 BB 11 ::
whereamiRawData(
    RawSpeed: 0.0 km/h,
    RawDistance: 4539 m
)
 (103.093259)  can0  464   [8]  0C EB 68 02 E3 EA 05 F9 ::
whereamiCoords(
    Latitude: 40.430347999999995 °,
    Longitude: -117.052701 °
)
 (104.002670)  can0  460   [4]  00 00 BB 11 ::
whereamiData(
    Speed: 0.0 km/h,
    Distance: 4539 m
)
 (104.002886)  can0  462   [4]  00 00 BB 11 ::
whereamiRawData(
    RawSpeed: 0.0 km/h,
    RawDistance: 4539 m
)
 (104.003081)  can0  464   [8]  0C EB 68 02 E4 EA 05 F9 ::
whereamiCoords(
    Latitude: 40.430347999999995 °,
    Longitude: -117.0527 °
)
 (105.010860)  can0  460   [4]  00 00 BB 11 ::
whereamiData(
    Speed: 0.0 km/h,
    Distance: 4539 m
)
 (105.011076)  can0  462   [4]  00 00 BB 11 ::
whereamiRawData(
    RawSpeed: 0.0 km/h,
    RawDistance: 4539 m
)
 (105.011269)  can0  464   [8]  0C EB 68 02 E4 EA 05 F9 ::
whereamiCoords(
    Latitude: 40.430347999999995 °,
    Longitude: -117.0527 °
)
 (106.020879)  can0  460   [4]  00 00 BB 11 ::
whereamiData(
    Speed: 0.0 km/h,
    Distance: 4539 m
)
 (106.021092)  can0  462   [4]  00 00 BB 11 ::
whereamiRawData(
    RawSpeed: 0.0 km/h,
    RawDistance: 4539 m
)
 (106.021282)  can0  464   [8]  0C EB 68 02 E4 EA 05 F9 ::
whereamiCoords(
    Latitude: 40.430347999999995 °,
    Longitude: -117.0527 °
)
 (107.028869)  can0  460   [4]  00 00 BB 11 ::
whereamiData(
    Speed: 0.0 km/h,
    Distance: 4539 m
)
 (107.029080)  can0  462   [4]  00 00 BB 11 ::
whereamiRawData(
    RawSpeed: 0.0 km/h,
    RawDistance: 4539 m
)
 (107.029274)  can0  464   [8]  0D EB 68 02 E4 EA 05 F9 ::
whereamiCoords(
    Latitude: 40.430349 °,
    Longitude: -117.0527 °
)
 (108.042882)  can0  460   [4]  00 00 BB 11 ::
whereamiData(
    Speed: 0.0 km/h,
    Distance: 4539 m
)
 (108.043088)  can0  462   [4]  00 00 BB 11 ::
whereamiRawData(
    RawSpeed: 0.0 km/h,
    RawDistance: 4539 m
)
 (108.043279)  can0  464   [8]  0D EB 68 02 E4 EA 05 F9 ::
whereamiCoords(
    Latitude: 40.430349 °,
    Longitude: -117.0527 °
)
 (109.054728)  can0  460   [4]  00 00 BB 11 ::
whereamiData(
    Speed: 0.0 km/h,
    Distance: 4539 m
)
 (109.054953)  can0  462   [4]  00 00 BB 11 ::
whereamiRawData(
    RawSpeed: 0.0 km/h,
    RawDistance: 4539 m
)
 (109.055144)  can0  464   [8]  0E EB 68 02 E4 EA 05 F9 ::
whereamiCoords(
    Latitude: 40.43035 °,
    Longitude: -117.0527 °
)
 (110.064904)  can0  460   [4]  00 00 BB 11 ::
whereamiData(
    Speed: 0.0 km/h,
    Distance: 4539 m
)
 (110.065110)  can0  462   [4]  00 00 BB 11 ::
whereamiRawData(
    RawSpeed: 0.0 km/h,
    RawDistance: 4539 m
)
 (110.065302)  can0  464   [8]  0E EB 68 02 E3 EA 05 F9 ::
whereamiCoords(
    Latitude: 40.43035 °,
    Longitude: -117.052701 °
)
 (111.077088)  can0  460   [4]  00 00 BB 11 ::
whereamiData(
    Speed: 0.0 km/h,
    Distance: 4539 m
)
 (111.077304)  can0  462   [4]  00 00 BB 11 ::
whereamiRawData(
    RawSpeed: 0.0 km/h,
    RawDistance: 4539 m
)
 (111.077496)  can0  464   [8]  0F EB 68 02 E3 EA 05 F9 ::
whereamiCoords(
    Latitude: 40.430351 °,
    Longitude: -117.052701 °
)
 (112.088770)  can0  460   [4]  00 00 BB 11 ::
whereamiData(
    Speed: 0.0 km/h,
    Distance: 4539 m
)
 (112.088988)  can0  462   [4]  00 00 BB 11 ::
whereamiRawData(
    RawSpeed: 0.0 km/h,
    RawDistance: 4539 m
)
 (112.089180)  can0  464   [8]  0F EB 68 02 E3 EA 05 F9 ::
whereamiCoords(
    Latitude: 40.430351 °,
    Longitude: -117.052701 °
)
 (112.998780)  can0  460   [4]  00 00 BB 11 ::
whereamiData(
    Speed: 0.0 km/h,
    Distance: 4539 m
)
 (112.999007)  can0  462   [4]  00 00 BB 11 ::
whereamiRawData(
    RawSpeed: 0.0 km/h,
    RawDistance: 4539 m
)
 (112.999197)  can0  464   [8]  0E EB 68 02 E3 EA 05 F9 ::
whereamiCoords(
    Latitude: 40.43035 °,
    Longitude: -117.052701 °
)
 (114.014773)  can0  460   [4]  00 00 BB 11 ::
whereamiData(
    Speed: 0.0 km/h,
    Distance: 4539 m
)
 (114.014987)  can0  462   [4]  00 00 BB 11 ::
whereamiRawData(
    RawSpeed: 0.0 km/h,
    RawDistance: 4539 m
)
 (114.015179)  can0  464   [8]  0E EB 68 02 E2 EA 05 F9 ::
whereamiCoords(
    Latitude: 40.43035 °,
    Longitude: -117.052702 °
)
 (115.024957)  can0  460   [4]  00 00 BB 11 ::
whereamiData(
    Speed: 0.0 km/h,
    Distance: 4539 m
)
 (115.025168)  can0  462   [4]  00 00 BB 11 ::
whereamiRawData(
    RawSpeed: 0.0 km/h,
    RawDistance: 4539 m
)
 (115.025359)  can0  464   [8]  0E EB 68 02 E2 EA 05 F9 ::
whereamiCoords(
    Latitude: 40.43035 °,
    Longitude: -117.052702 °
)
 (116.038961)  can0  460   [4]  00 00 BB 11 ::
whereamiData(
    Speed: 0.0 km/h,
    Distance: 4539 m
)
 (116.039172)  can0  462   [4]  00 00 BB 11 ::
whereamiRawData(
    RawSpeed: 0.0 km/h,
    RawDistance: 4539 m
)
 (116.039366)  can0  464   [8]  0D EB 68 02 E1 EA 05 F9 ::
whereamiCoords(
    Latitude: 40.430349 °,
    Longitude: -117.052703 °
)
 (117.051157)  can0  460   [4]  00 00 BB 11 ::
whereamiData(
    Speed: 0.0 km/h,
    Distance: 4539 m
)
 (117.051383)  can0  462   [4]  00 00 BB 11 ::
whereamiRawData(
    RawSpeed: 0.0 km/h,
    RawDistance: 4539 m
)
 (117.051572)  can0  464   [8]  0D EB 68 02 E1 EA 05 F9 ::
whereamiCoords(
    Latitude: 40.430349 °,
    Longitude: -117.052703 °
)
 (118.067182)  can0  460   [4]  00 00 BB 11 ::
whereamiData(
    Speed: 0.0 km/h,
    Distance: 4539 m
)
 (118.067421)  can0  462   [4]  00 00 BB 11 ::
whereamiRawData(
    RawSpeed: 0.0 km/h,
    RawDistance: 4539 m
)
 (118.067612)  can0  464   [8]  0D EB 68 02 E1 EA 05 F9 ::
whereamiCoords(
    Latitude: 40.430349 °,
    Longitude: -117.052703 °
)
 (119.080832)  can0  460   [4]  00 00 BB 11 ::
whereamiData(
    Speed: 0.0 km/h,
    Distance: 4539 m
)
 (119.081051)  can0  462   [4]  00 00 BB 11 ::
whereamiRawData(
    RawSpeed: 0.0 km/h,
    RawDistance: 4539 m
)
 (119.081243)  can0  464   [8]  0E EB 68 02 E0 EA 05 F9 ::
whereamiCoords(
    Latitude: 40.43035 °,
    Longitude: -117.05270399999999 °
)
 (120.093005)  can0  460   [4]  00 00 BB 11 ::
whereamiData(
    Speed: 0.0 km/h,
    Distance: 4539 m
)
 (120.093219)  can0  462   [4]  00 00 BB 11 ::
whereamiRawData(
    RawSpeed: 0.0 km/h,
    RawDistance: 4539 m
)
 (120.093409)  can0  464   [8]  0F EB 68 02 DF EA 05 F9 ::
whereamiCoords(
    Latitude: 40.430351 °,
    Longitude: -117.05270499999999 °
)
 (121.003280)  can0  460   [4]  00 00 BB 11 ::
whereamiData(
    Speed: 0.0 km/h,
    Distance: 4539 m
)
 (121.003489)  can0  462   [4]  00 00 BB 11 ::
whereamiRawData(
    RawSpeed: 0.0 km/h,
    RawDistance: 4539 m
)
 (121.003679)  can0  464   [8]  10 EB 68 02 DD EA 05 F9 ::
whereamiCoords(
    Latitude: 40.430352 °,
    Longitude: -117.052707 °
)
 (122.017213)  can0  460   [4]  00 00 BA 11 ::
whereamiData(
    Speed: 0.0 km/h,
    Distance: 4538 m
)
 (122.017428)  can0  462   [4]  00 00 BA 11 ::
whereamiRawData(
    RawSpeed: 0.0 km/h,
    RawDistance: 4538 m
)
 (122.017616)  can0  464   [8]  11 EB 68 02 DD EA 05 F9 ::
whereamiCoords(
    Latitude: 40.430353 °,
    Longitude: -117.052707 °
)
 (123.029216)  can0  460   [4]  00 00 BB 11 ::
whereamiData(
    Speed: 0.0 km/h,
    Distance: 4539 m
)
 (123.029430)  can0  462   [4]  00 00 BB 11 ::
whereamiRawData(
    RawSpeed: 0.0 km/h,
    RawDistance: 4539 m
)
 (123.029622)  can0  464   [8]  10 EB 68 02 DD EA 05 F9 ::
whereamiCoords(
    Latitude: 40.430352 °,
    Longitude: -117.052707 °
)
 (124.042880)  can0  460   [4]  00 00 BB 11 ::
whereamiData(
    Speed: 0.0 km/h,
    Distance: 4539 m
)
 (124.043087)  can0  462   [4]  00 00 BB 11 ::
whereamiRawData(
    RawSpeed: 0.0 km/h,
    RawDistance: 4539 m
)
 (124.043282)  can0  464   [8]  0F EB 68 02 DD EA 05 F9 ::
whereamiCoords(
    Latitude: 40.430351 °,
    Longitude: -117.052707 °
)
 (125.052886)  can0  460   [4]  00 00 BB 11 ::
whereamiData(
    Speed: 0.0 km/h,
    Distance: 4539 m
)
 (125.053094)  can0  462   [4]  00 00 BB 11 ::
whereamiRawData(
    RawSpeed: 0.0 km/h,
    RawDistance: 4539 m
)
 (125.053282)  can0  464   [8]  0D EB 68 02 DE EA 05 F9 ::
whereamiCoords(
    Latitude: 40.430349 °,
    Longitude: -117.052706 °
)
 (126.067253)  can0  460   [4]  00 00 BB 11 ::
whereamiData(
    Speed: 0.0 km/h,
    Distance: 4539 m
)
 (126.067465)  can0  462   [4]  00 00 BB 11 ::
whereamiRawData(
    RawSpeed: 0.0 km/h,
    RawDistance: 4539 m
)
 (126.067656)  can0  464   [8]  0C EB 68 02 DD EA 05 F9 ::
whereamiCoords(
    Latitude: 40.430347999999995 °,
    Longitude: -117.052707 °
)
 (127.083263)  can0  460   [4]  00 00 BB 11 ::
whereamiData(
    Speed: 0.0 km/h,
    Distance: 4539 m
)
 (127.083481)  can0  462   [4]  00 00 BB 11 ::
whereamiRawData(
    RawSpeed: 0.0 km/h,
    RawDistance: 4539 m
)
 (127.083672)  can0  464   [8]  0B EB 68 02 DE EA 05 F9 ::
whereamiCoords(
    Latitude: 40.430347 °,
    Longitude: -117.052706 °
)
 (128.095277)  can0  460   [4]  00 00 BB 11 ::
whereamiData(
    Speed: 0.0 km/h,
    Distance: 4539 m
)
 (128.095488)  can0  462   [4]  00 00 BB 11 ::
whereamiRawData(
    RawSpeed: 0.0 km/h,
    RawDistance: 4539 m
)
 (128.095679)  can0  464   [8]  09 EB 68 02 DD EA 05 F9 ::
whereamiCoords(
    Latitude: 40.430344999999996 °,
    Longitude: -117.052707 °
)
 (129.009139)  can0  460   [4]  00 00 BB 11 ::
whereamiData(
    Speed: 0.0 km/h,
    Distance: 4539 m
)
 (129.009361)  can0  462   [4]  00 00 BB 11 ::
whereamiRawData(
    RawSpeed: 0.0 km/h,
    RawDistance: 4539 m
)
 (129.009551)  can0  464   [8]  08 EB 68 02 DD EA 05 F9 ::
whereamiCoords(
    Latitude: 40.430344 °,
    Longitude: -117.052707 °
)
 (130.025301)  can0  460   [4]  00 00 BB 11 ::
whereamiData(
    Speed: 0.0 km/h,
    Distance: 4539 m
)
 (130.025526)  can0  462   [4]  00 00 BB 11 ::
whereamiRawData(
    RawSpeed: 0.0 km/h,
    RawDistance: 4539 m
)
 (130.025716)  can0  464   [8]  07 EB 68 02 DD EA 05 F9 ::
whereamiCoords(
    Latitude: 40.430343 °,
    Longitude: -117.052707 °
)
 (131.036956)  can0  460   [4]  00 00 BC 11 ::
whereamiData(
    Speed: 0.0 km/h,
    Distance: 4540 m
)
 (131.037168)  can0  462   [4]  00 00 BC 11 ::
whereamiRawData(
    RawSpeed: 0.0 km/h,
    RawDistance: 4540 m
)
 (131.037357)  can0  464   [8]  06 EB 68 02 DC EA 05 F9 ::
whereamiCoords(
    Latitude: 40.430341999999996 °,
    Longitude: -117.052708 °
)
 (132.049139)  can0  460   [4]  00 00 BB 11 ::
whereamiData(
    Speed: 0.0 km/h,
    Distance: 4539 m
)
 (132.049354)  can0  462   [4]  00 00 BB 11 ::
whereamiRawData(
    RawSpeed: 0.0 km/h,
    RawDistance: 4539 m
)
 (132.049546)  can0  464   [8]  07 EB 68 02 DA EA 05 F9 ::
whereamiCoords(
    Latitude: 40.430343 °,
    Longitude: -117.05270999999999 °
)
 (133.063324)  can0  460   [4]  00 00 BB 11 ::
whereamiData(
    Speed: 0.0 km/h,
    Distance: 4539 m
)
 (133.063552)  can0  462   [4]  00 00 BB 11 ::
whereamiRawData(
    RawSpeed: 0.0 km/h,
    RawDistance: 4539 m
)
 (133.063745)  can0  464   [8]  07 EB 68 02 DA EA 05 F9 ::
whereamiCoords(
    Latitude: 40.430343 °,
    Longitude: -117.05270999999999 °
)
 (134.074893)  can0  460   [4]  00 00 BB 11 ::
whereamiData(
    Speed: 0.0 km/h,
    Distance: 4539 m
)
 (134.075108)  can0  462   [4]  00 00 BB 11 ::
whereamiRawData(
    RawSpeed: 0.0 km/h,
    RawDistance: 4539 m
)
 (134.075305)  can0  464   [8]  07 EB 68 02 DB EA 05 F9 ::
whereamiCoords(
    Latitude: 40.430343 °,
    Longitude: -117.052709 °
)
 (135.085170)  can0  460   [4]  00 00 BB 11 ::
whereamiData(
    Speed: 0.0 km/h,
    Distance: 4539 m
)
 (135.085377)  can0  462   [4]  00 00 BB 11 ::
whereamiRawData(
    RawSpeed: 0.0 km/h,
    RawDistance: 4539 m
)
 (135.085567)  can0  464   [8]  07 EB 68 02 DC EA 05 F9 ::
whereamiCoords(
    Latitude: 40.430343 °,
    Longitude: -117.052708 °
)
 (136.095361)  can0  460   [4]  00 00 BB 11 ::
whereamiData(
    Speed: 0.0 km/h,
    Distance: 4539 m
)
 (136.095587)  can0  462   [4]  00 00 BB 11 ::
whereamiRawData(
    RawSpeed: 0.0 km/h,
    RawDistance: 4539 m
)
 (136.095778)  can0  464   [8]  07 EB 68 02 DB EA 05 F9 ::
whereamiCoords(
    Latitude: 40.430343 °,
    Longitude: -117.052709 °
)
 (137.011374)  can0  460   [4]  00 00 BB 11 ::
whereamiData(
    Speed: 0.0 km/h,
    Distance: 4539 m
)
 (137.011595)  can0  462   [4]  12 00 BB 11 ::
whereamiRawData(
    RawSpeed: 0.18 km/h,
    RawDistance: 4539 m
)
 (137.011788)  can0  464   [8]  07 EB 68 02 DA EA 05 F9 ::
whereamiCoords(
    Latitude: 40.430343 °,
    Longitude: -117.05270999999999 °
)
 (138.021384)  can0  460   [4]  00 00 BB 11 ::
whereamiData(
    Speed: 0.0 km/h,
    Distance: 4539 m
)
 (138.021612)  can0  462   [4]  00 00 BB 11 ::
whereamiRawData(
    RawSpeed: 0.0 km/h,
    RawDistance: 4539 m
)
 (138.021804)  can0  464   [8]  08 EB 68 02 DA EA 05 F9 ::
whereamiCoords(
    Latitude: 40.430344 °,
    Longitude: -117.05270999999999 °
)
 (139.035208)  can0  460   [4]  00 00 BB 11 ::
whereamiData(
    Speed: 0.0 km/h,
    Distance: 4539 m
)
 (139.035417)  can0  462   [4]  00 00 BB 11 ::
whereamiRawData(
    RawSpeed: 0.0 km/h,
    RawDistance: 4539 m
)
 (139.035609)  can0  464   [8]  08 EB 68 02 D9 EA 05 F9 ::
whereamiCoords(
    Latitude: 40.430344 °,
    Longitude: -117.05271099999999 °
)
 (140.047224)  can0  460   [4]  00 00 BB 11 ::
whereamiData(
    Speed: 0.0 km/h,
    Distance: 4539 m
)
 (140.047438)  can0  462   [4]  00 00 BB 11 ::
whereamiRawData(
    RawSpeed: 0.0 km/h,
    RawDistance: 4539 m
)
 (140.047633)  can0  464   [8]  08 EB 68 02 D8 EA 05 F9 ::
whereamiCoords(
    Latitude: 40.430344 °,
    Longitude: -117.052712 °
)
 (141.059401)  can0  460   [4]  00 00 BB 11 ::
whereamiData(
    Speed: 0.0 km/h,
    Distance: 4539 m
)
 (141.059615)  can0  462   [4]  00 00 BB 11 ::
whereamiRawData(
    RawSpeed: 0.0 km/h,
    RawDistance: 4539 m
)
 (141.059807)  can0  464   [8]  08 EB 68 02 D9 EA 05 F9 ::
whereamiCoords(
    Latitude: 40.430344 °,
    Longitude: -117.05271099999999 °
)
 (142.069420)  can0  460   [4]  00 00 BB 11 ::
whereamiData(
    Speed: 0.0 km/h,
    Distance: 4539 m
)
 (142.069632)  can0  462   [4]  00 00 BB 11 ::
whereamiRawData(
    RawSpeed: 0.0 km/h,
    RawDistance: 4539 m
)
 (142.069822)  can0  464   [8]  08 EB 68 02 D9 EA 05 F9 ::
whereamiCoords(
    Latitude: 40.430344 °,
    Longitude: -117.05271099999999 °
)
 (143.081073)  can0  460   [4]  00 00 BB 11 ::
whereamiData(
    Speed: 0.0 km/h,
    Distance: 4539 m
)
 (143.081282)  can0  462   [4]  00 00 BB 11 ::
whereamiRawData(
    RawSpeed: 0.0 km/h,
    RawDistance: 4539 m
)
 (143.081472)  can0  464   [8]  08 EB 68 02 D8 EA 05 F9 ::
whereamiCoords(
    Latitude: 40.430344 °,
    Longitude: -117.052712 °
)
 (144.093259)  can0  460   [4]  00 00 BB 11 ::
whereamiData(
    Speed: 0.0 km/h,
    Distance: 4539 m
)
 (144.093468)  can0  462   [4]  00 00 BB 11 ::
whereamiRawData(
    RawSpeed: 0.0 km/h,
    RawDistance: 4539 m
)
 (144.093659)  can0  464   [8]  09 EB 68 02 D8 EA 05 F9 ::
whereamiCoords(
    Latitude: 40.430344999999996 °,
    Longitude: -117.052712 °
)
 (145.003098)  can0  460   [4]  00 00 BB 11 ::
whereamiData(
    Speed: 0.0 km/h,
    Distance: 4539 m
)
 (145.003318)  can0  462   [4]  00 00 BB 11 ::
whereamiRawData(
    RawSpeed: 0.0 km/h,
    RawDistance: 4539 m
)
 (145.003517)  can0  464   [8]  09 EB 68 02 D7 EA 05 F9 ::
whereamiCoords(
    Latitude: 40.430344999999996 °,
    Longitude: -117.052713 °
)
 (146.013452)  can0  460   [4]  00 00 BB 11 ::
whereamiData(
    Speed: 0.0 km/h,
    Distance: 4539 m
)
 (146.013661)  can0  462   [4]  00 00 BB 11 ::
whereamiRawData(
    RawSpeed: 0.0 km/h,
    RawDistance: 4539 m
)
 (146.013853)  can0  464   [8]  0B EB 68 02 D6 EA 05 F9 ::
whereamiCoords(
    Latitude: 40.430347 °,
    Longitude: -117.052714 °
)
 (147.023128)  can0  460   [4]  00 00 BB 11 ::
whereamiData(
    Speed: 0.0 km/h,
    Distance: 4539 m
)
 (147.023345)  can0  462   [4]  00 00 BB 11 ::
whereamiRawData(
    RawSpeed: 0.0 km/h,
    RawDistance: 4539 m
)
 (147.023538)  can0  464   [8]  0B EB 68 02 D6 EA 05 F9 ::
whereamiCoords(
    Latitude: 40.430347 °,
    Longitude: -117.052714 °
)
 (148.035474)  can0  460   [4]  00 00 BB 11 ::
whereamiData(
    Speed: 0.0 km/h,
    Distance: 4539 m
)
 (148.035685)  can0  462   [4]  00 00 BB 11 ::
whereamiRawData(
    RawSpeed: 0.0 km/h,
    RawDistance: 4539 m
)
 (148.035874)  can0  464   [8]  0C EB 68 02 D6 EA 05 F9 ::
whereamiCoords(
    Latitude: 40.430347999999995 °,
    Longitude: -117.052714 °
)
 (149.047138)  can0  460   [4]  00 00 BB 11 ::
whereamiData(
    Speed: 0.0 km/h,
    Distance: 4539 m
)
 (149.047350)  can0  462   [4]  00 00 BB 11 ::
whereamiRawData(
    RawSpeed: 0.0 km/h,
    RawDistance: 4539 m
)
 (149.047541)  can0  464   [8]  0C EB 68 02 D6 EA 05 F9 ::
whereamiCoords(
    Latitude: 40.430347999999995 °,
    Longitude: -117.052714 °
)
 (150.057333)  can0  460   [4]  00 00 BB 11 ::
whereamiData(
    Speed: 0.0 km/h,
    Distance: 4539 m
)
 (150.057548)  can0  462   [4]  00 00 BB 11 ::
whereamiRawData(
    RawSpeed: 0.0 km/h,
    RawDistance: 4539 m
)
 (150.057749)  can0  464   [8]  0C EB 68 02 D5 EA 05 F9 ::
whereamiCoords(
    Latitude: 40.430347999999995 °,
    Longitude: -117.05271499999999 °
)
 (151.073500)  can0  460   [4]  00 00 BB 11 ::
whereamiData(
    Speed: 0.0 km/h,
    Distance: 4539 m
)
 (151.073711)  can0  462   [4]  00 00 BB 11 ::
whereamiRawData(
    RawSpeed: 0.0 km/h,
    RawDistance: 4539 m
)
 (151.073901)  can0  464   [8]  0D EB 68 02 D5 EA 05 F9 ::
whereamiCoords(
    Latitude: 40.430349 °,
    Longitude: -117.05271499999999 °
)
 (152.085168)  can0  460   [4]  00 00 BB 11 ::
whereamiData(
    Speed: 0.0 km/h,
    Distance: 4539 m
)
 (152.085382)  can0  462   [4]  00 00 BB 11 ::
whereamiRawData(
    RawSpeed: 0.0 km/h,
    RawDistance: 4539 m
)
 (152.085577)  can0  464   [8]  0E EB 68 02 D5 EA 05 F9 ::
whereamiCoords(
    Latitude: 40.43035 °,
    Longitude: -117.05271499999999 °
)
 (153.095520)  can0  460   [4]  00 00 BB 11 ::
whereamiData(
    Speed: 0.0 km/h,
    Distance: 4539 m
)
 (153.095733)  can0  462   [4]  00 00 BB 11 ::
whereamiRawData(
    RawSpeed: 0.0 km/h,
    RawDistance: 4539 m
)
 (153.095923)  can0  464   [8]  0E EB 68 02 D5 EA 05 F9 ::
whereamiCoords(
    Latitude: 40.43035 °,
    Longitude: -117.05271499999999 °
)
 (154.005195)  can0  460   [4]  00 00 BB 11 ::
whereamiData(
    Speed: 0.0 km/h,
    Distance: 4539 m
)
 (154.005405)  can0  462   [4]  00 00 BB 11 ::
whereamiRawData(
    RawSpeed: 0.0 km/h,
    RawDistance: 4539 m
)
 (154.005602)  can0  464   [8]  0E EB 68 02 D6 EA 05 F9 ::
whereamiCoords(
    Latitude: 40.43035 °,
    Longitude: -117.052714 °
)
 (155.017557)  can0  460   [4]  00 00 BA 11 ::
whereamiData(
    Speed: 0.0 km/h,
    Distance: 4538 m
)
 (155.017774)  can0  462   [4]  00 00 BA 11 ::
whereamiRawData(
    RawSpeed: 0.0 km/h,
    RawDistance: 4538 m
)
 (155.017964)  can0  464   [8]  0F EB 68 02 D6 EA 05 F9 ::
whereamiCoords(
    Latitude: 40.430351 °,
    Longitude: -117.052714 °
)
 (156.033572)  can0  460   [4]  00 00 BA 11 ::
whereamiData(
    Speed: 0.0 km/h,
    Distance: 4538 m
)
 (156.033788)  can0  462   [4]  00 00 BA 11 ::
whereamiRawData(
    RawSpeed: 0.0 km/h,
    RawDistance: 4538 m
)
 (156.033977)  can0  464   [8]  10 EB 68 02 D6 EA 05 F9 ::
whereamiCoords(
    Latitude: 40.430352 °,
    Longitude: -117.052714 °
)
 (157.047127)  can0  460   [4]  00 00 BA 11 ::
whereamiData(
    Speed: 0.0 km/h,
    Distance: 4538 m
)
 (157.047340)  can0  462   [4]  00 00 BA 11 ::
whereamiRawData(
    RawSpeed: 0.0 km/h,
    RawDistance: 4538 m
)
 (157.047540)  can0  464   [8]  10 EB 68 02 D6 EA 05 F9 ::
whereamiCoords(
    Latitude: 40.430352 °,
    Longitude: -117.052714 °
)
 (158.057409)  can0  460   [4]  00 00 BA 11 ::
whereamiData(
    Speed: 0.0 km/h,
    Distance: 4538 m
)
 (158.057623)  can0  462   [4]  00 00 BA 11 ::
whereamiRawData(
    RawSpeed: 0.0 km/h,
    RawDistance: 4538 m
)
 (158.057817)  can0  464   [8]  10 EB 68 02 D7 EA 05 F9 ::
whereamiCoords(
    Latitude: 40.430352 °,
    Longitude: -117.052713 °
)
 (159.067613)  can0  460   [4]  00 00 BA 11 ::
whereamiData(
    Speed: 0.0 km/h,
    Distance: 4538 m
)
 (159.067838)  can0  462   [4]  00 00 BA 11 ::
whereamiRawData(
    RawSpeed: 0.0 km/h,
    RawDistance: 4538 m
)
 (159.068038)  can0  464   [8]  10 EB 68 02 D8 EA 05 F9 ::
whereamiCoords(
    Latitude: 40.430352 °,
    Longitude: -117.052712 °
)
 (160.083283)  can0  460   [4]  00 00 BA 11 ::
whereamiData(
    Speed: 0.0 km/h,
    Distance: 4538 m
)
 (160.083511)  can0  462   [4]  00 00 BA 11 ::
whereamiRawData(
    RawSpeed: 0.0 km/h,
    RawDistance: 4538 m
)
 (160.083707)  can0  464   [8]  10 EB 68 02 D8 EA 05 F9 ::
whereamiCoords(
    Latitude: 40.430352 °,
    Longitude: -117.052712 °
)
 (161.097442)  can0  460   [4]  00 00 BA 11 ::
whereamiData(
    Speed: 0.0 km/h,
    Distance: 4538 m
)
 (161.097658)  can0  462   [4]  00 00 BA 11 ::
whereamiRawData(
    RawSpeed: 0.0 km/h,
    RawDistance: 4538 m
)
 (161.097862)  can0  464   [8]  10 EB 68 02 D9 EA 05 F9 ::
whereamiCoords(
    Latitude: 40.430352 °,
    Longitude: -117.05271099999999 °
)
 (162.007297)  can0  460   [4]  00 00 BA 11 ::
whereamiData(
    Speed: 0.0 km/h,
    Distance: 4538 m
)
 (162.007509)  can0  462   [4]  00 00 BA 11 ::
whereamiRawData(
    RawSpeed: 0.0 km/h,
    RawDistance: 4538 m
)
 (162.007704)  can0  464   [8]  10 EB 68 02 D9 EA 05 F9 ::
whereamiCoords(
    Latitude: 40.430352 °,
    Longitude: -117.05271099999999 °
)
 (163.019468)  can0  460   [4]  00 00 BA 11 ::
whereamiData(
    Speed: 0.0 km/h,
    Distance: 4538 m
)
 (163.019677)  can0  462   [4]  00 00 BA 11 ::
whereamiRawData(
    RawSpeed: 0.0 km/h,
    RawDistance: 4538 m
)
 (163.019868)  can0  464   [8]  10 EB 68 02 D9 EA 05 F9 ::
whereamiCoords(
    Latitude: 40.430352 °,
    Longitude: -117.05271099999999 °
)
 (164.029470)  can0  460   [4]  00 00 BA 11 ::
whereamiData(
    Speed: 0.0 km/h,
    Distance: 4538 m
)
 (164.029676)  can0  462   [4]  00 00 BA 11 ::
whereamiRawData(
    RawSpeed: 0.0 km/h,
    RawDistance: 4538 m
)
 (164.029870)  can0  464   [8]  10 EB 68 02 D9 EA 05 F9 ::
whereamiCoords(
    Latitude: 40.430352 °,
    Longitude: -117.05271099999999 °
)
 (165.043313)  can0  460   [4]  00 00 BA 11 ::
whereamiData(
    Speed: 0.0 km/h,
    Distance: 4538 m
)
 (165.043523)  can0  462   [4]  00 00 BA 11 ::
whereamiRawData(
    RawSpeed: 0.0 km/h,
    RawDistance: 4538 m
)
 (165.043712)  can0  464   [8]  10 EB 68 02 D9 EA 05 F9 ::
whereamiCoords(
    Latitude: 40.430352 °,
    Longitude: -117.05271099999999 °
)
 (166.053499)  can0  460   [4]  00 00 BA 11 ::
whereamiData(
    Speed: 0.0 km/h,
    Distance: 4538 m
)
 (166.053718)  can0  462   [4]  00 00 BA 11 ::
whereamiRawData(
    RawSpeed: 0.0 km/h,
    RawDistance: 4538 m
)
 (166.053910)  can0  464   [8]  10 EB 68 02 D9 EA 05 F9 ::
whereamiCoords(
    Latitude: 40.430352 °,
    Longitude: -117.05271099999999 °
)
 (167.067251)  can0  460   [4]  00 00 BA 11 ::
whereamiData(
    Speed: 0.0 km/h,
    Distance: 4538 m
)
 (167.067467)  can0  462   [4]  00 00 BA 11 ::
whereamiRawData(
    RawSpeed: 0.0 km/h,
    RawDistance: 4538 m
)
 (167.067660)  can0  464   [8]  10 EB 68 02 D9 EA 05 F9 ::
whereamiCoords(
    Latitude: 40.430352 °,
    Longitude: -117.05271099999999 °
)
 (168.081508)  can0  460   [4]  00 00 BA 11 ::
whereamiData(
    Speed: 0.0 km/h,
    Distance: 4538 m
)
 (168.081713)  can0  462   [4]  00 00 BA 11 ::
whereamiRawData(
    RawSpeed: 0.0 km/h,
    RawDistance: 4538 m
)
 (168.081903)  can0  464   [8]  10 EB 68 02 D9 EA 05 F9 ::
whereamiCoords(
    Latitude: 40.430352 °,
    Longitude: -117.05271099999999 °
)
 (169.095520)  can0  460   [4]  00 00 BA 11 ::
whereamiData(
    Speed: 0.0 km/h,
    Distance: 4538 m
)
 (169.095726)  can0  462   [4]  00 00 BA 11 ::
whereamiRawData(
    RawSpeed: 0.0 km/h,
    RawDistance: 4538 m
)
 (169.095916)  can0  464   [8]  10 EB 68 02 D9 EA 05 F9 ::
whereamiCoords(
    Latitude: 40.430352 °,
    Longitude: -117.05271099999999 °
)
 (170.005359)  can0  460   [4]  00 00 BA 11 ::
whereamiData(
    Speed: 0.0 km/h,
    Distance: 4538 m
)
 (170.005568)  can0  462   [4]  00 00 BA 11 ::
whereamiRawData(
    RawSpeed: 0.0 km/h,
    RawDistance: 4538 m
)
 (170.005759)  can0  464   [8]  10 EB 68 02 D9 EA 05 F9 ::
whereamiCoords(
    Latitude: 40.430352 °,
    Longitude: -117.05271099999999 °
)
 (171.019550)  can0  460   [4]  00 00 BA 11 ::
whereamiData(
    Speed: 0.0 km/h,
    Distance: 4538 m
)
 (171.019777)  can0  462   [4]  00 00 BA 11 ::
whereamiRawData(
    RawSpeed: 0.0 km/h,
    RawDistance: 4538 m
)
 (171.019969)  can0  464   [8]  10 EB 68 02 D9 EA 05 F9 ::
whereamiCoords(
    Latitude: 40.430352 °,
    Longitude: -117.05271099999999 °
)
 (172.033587)  can0  460   [4]  00 00 BA 11 ::
whereamiData(
    Speed: 0.0 km/h,
    Distance: 4538 m
)
 (172.033804)  can0  462   [4]  00 00 BA 11 ::
whereamiRawData(
    RawSpeed: 0.0 km/h,
    RawDistance: 4538 m
)
 (172.033998)  can0  464   [8]  10 EB 68 02 D9 EA 05 F9 ::
whereamiCoords(
    Latitude: 40.430352 °,
    Longitude: -117.05271099999999 °
)
 (173.051394)  can0  460   [4]  00 00 BA 11 ::
whereamiData(
    Speed: 0.0 km/h,
    Distance: 4538 m
)
 (173.051612)  can0  462   [4]  00 00 BA 11 ::
whereamiRawData(
    RawSpeed: 0.0 km/h,
    RawDistance: 4538 m
)
 (173.051805)  can0  464   [8]  10 EB 68 02 D9 EA 05 F9 ::
whereamiCoords(
    Latitude: 40.430352 °,
    Longitude: -117.05271099999999 °
)
 (174.065583)  can0  460   [4]  00 00 BA 11 ::
whereamiData(
    Speed: 0.0 km/h,
    Distance: 4538 m
)
 (174.065803)  can0  462   [4]  00 00 BA 11 ::
whereamiRawData(
    RawSpeed: 0.0 km/h,
    RawDistance: 4538 m
)
 (174.066000)  can0  464   [8]  10 EB 68 02 D9 EA 05 F9 ::
whereamiCoords(
    Latitude: 40.430352 °,
    Longitude: -117.05271099999999 °
)
 (175.077317)  can0  460   [4]  00 00 BA 11 ::
whereamiData(
    Speed: 0.0 km/h,
    Distance: 4538 m
)
 (175.077538)  can0  462   [4]  00 00 BA 11 ::
whereamiRawData(
    RawSpeed: 0.0 km/h,
    RawDistance: 4538 m
)
 (175.077734)  can0  464   [8]  10 EB 68 02 D9 EA 05 F9 ::
whereamiCoords(
    Latitude: 40.430352 °,
    Longitude: -117.05271099999999 °
)
 (176.089608)  can0  460   [4]  00 00 BA 11 ::
whereamiData(
    Speed: 0.0 km/h,
    Distance: 4538 m
)
 (176.089824)  can0  462   [4]  00 00 BA 11 ::
whereamiRawData(
    RawSpeed: 0.0 km/h,
    RawDistance: 4538 m
)
 (176.090021)  can0  464   [8]  10 EB 68 02 D9 EA 05 F9 ::
whereamiCoords(
    Latitude: 40.430352 °,
    Longitude: -117.05271099999999 °
)
 (177.101783)  can0  460   [4]  00 00 BA 11 ::
whereamiData(
    Speed: 0.0 km/h,
    Distance: 4538 m
)
 (177.102007)  can0  462   [4]  00 00 BA 11 ::
whereamiRawData(
    RawSpeed: 0.0 km/h,
    RawDistance: 4538 m
)
 (177.102284)  can0  464   [8]  10 EB 68 02 D9 EA 05 F9 ::
whereamiCoords(
    Latitude: 40.430352 °,
    Longitude: -117.05271099999999 °
)
 (178.013986)  can0  460   [4]  00 00 BA 11 ::
whereamiData(
    Speed: 0.0 km/h,
    Distance: 4538 m
)
 (178.014218)  can0  462   [4]  00 00 BA 11 ::
whereamiRawData(
    RawSpeed: 0.0 km/h,
    RawDistance: 4538 m
)
 (178.014413)  can0  464   [8]  10 EB 68 02 D9 EA 05 F9 ::
whereamiCoords(
    Latitude: 40.430352 °,
    Longitude: -117.05271099999999 °
)
 (179.023806)  can0  460   [4]  00 00 BA 11 ::
whereamiData(
    Speed: 0.0 km/h,
    Distance: 4538 m
)
 (179.024022)  can0  462   [4]  00 00 BA 11 ::
whereamiRawData(
    RawSpeed: 0.0 km/h,
    RawDistance: 4538 m
)
 (179.024219)  can0  464   [8]  10 EB 68 02 D9 EA 05 F9 ::
whereamiCoords(
    Latitude: 40.430352 °,
    Longitude: -117.05271099999999 °
)
 (180.035651)  can0  460   [4]  00 00 BA 11 ::
whereamiData(
    Speed: 0.0 km/h,
    Distance: 4538 m
)
 (180.035879)  can0  462   [4]  00 00 BA 11 ::
whereamiRawData(
    RawSpeed: 0.0 km/h,
    RawDistance: 4538 m
)
 (180.036073)  can0  464   [8]  10 EB 68 02 D9 EA 05 F9 ::
whereamiCoords(
    Latitude: 40.430352 °,
    Longitude: -117.05271099999999 °
)
 (181.047655)  can0  460   [4]  00 00 BA 11 ::
whereamiData(
    Speed: 0.0 km/h,
    Distance: 4538 m
)
 (181.047876)  can0  462   [4]  00 00 BA 11 ::
whereamiRawData(
    RawSpeed: 0.0 km/h,
    RawDistance: 4538 m
)
 (181.048071)  can0  464   [8]  10 EB 68 02 D9 EA 05 F9 ::
whereamiCoords(
    Latitude: 40.430352 °,
    Longitude: -117.05271099999999 °
)
 (182.059404)  can0  460   [4]  00 00 BA 11 ::
whereamiData(
    Speed: 0.0 km/h,
    Distance: 4538 m
)
 (182.059626)  can0  462   [4]  00 00 BA 11 ::
whereamiRawData(
    RawSpeed: 0.0 km/h,
    RawDistance: 4538 m
)
 (182.059831)  can0  464   [8]  10 EB 68 02 D9 EA 05 F9 ::
whereamiCoords(
    Latitude: 40.430352 °,
    Longitude: -117.05271099999999 °
)
 (183.071670)  can0  460   [4]  00 00 BA 11 ::
whereamiData(
    Speed: 0.0 km/h,
    Distance: 4538 m
)
 (183.071886)  can0  462   [4]  00 00 BA 11 ::
whereamiRawData(
    RawSpeed: 0.0 km/h,
    RawDistance: 4538 m
)
 (183.072090)  can0  464   [8]  10 EB 68 02 D9 EA 05 F9 ::
whereamiCoords(
    Latitude: 40.430352 °,
    Longitude: -117.05271099999999 °
)
 (184.085675)  can0  460   [4]  00 00 BA 11 ::
whereamiData(
    Speed: 0.0 km/h,
    Distance: 4538 m
)
 (184.085889)  can0  462   [4]  00 00 BA 11 ::
whereamiRawData(
    RawSpeed: 0.0 km/h,
    RawDistance: 4538 m
)
 (184.086084)  can0  464   [8]  10 EB 68 02 D9 EA 05 F9 ::
whereamiCoords(
    Latitude: 40.430352 °,
    Longitude: -117.05271099999999 °
)
 (185.097866)  can0  460   [4]  00 00 BA 11 ::
whereamiData(
    Speed: 0.0 km/h,
    Distance: 4538 m
)
 (185.098089)  can0  462   [4]  00 00 BA 11 ::
whereamiRawData(
    RawSpeed: 0.0 km/h,
    RawDistance: 4538 m
)
 (185.098285)  can0  464   [8]  10 EB 68 02 D9 EA 05 F9 ::
whereamiCoords(
    Latitude: 40.430352 °,
    Longitude: -117.05271099999999 °
)
 (186.007535)  can0  460   [4]  00 00 BA 11 ::
whereamiData(
    Speed: 0.0 km/h,
    Distance: 4538 m
)
 (186.007776)  can0  462   [4]  00 00 BA 11 ::
whereamiRawData(
    RawSpeed: 0.0 km/h,
    RawDistance: 4538 m
)
 (186.007978)  can0  464   [8]  10 EB 68 02 D9 EA 05 F9 ::
whereamiCoords(
    Latitude: 40.430352 °,
    Longitude: -117.05271099999999 °
)
 (187.019446)  can0  460   [4]  00 00 BA 11 ::
whereamiData(
    Speed: 0.0 km/h,
    Distance: 4538 m
)
 (187.019662)  can0  462   [4]  00 00 BA 11 ::
whereamiRawData(
    RawSpeed: 0.0 km/h,
    RawDistance: 4538 m
)
 (187.019861)  can0  464   [8]  10 EB 68 02 D9 EA 05 F9 ::
whereamiCoords(
    Latitude: 40.430352 °,
    Longitude: -117.05271099999999 °
)
 (188.031725)  can0  460   [4]  00 00 BA 11 ::
whereamiData(
    Speed: 0.0 km/h,
    Distance: 4538 m
)
 (188.031949)  can0  462   [4]  00 00 BA 11 ::
whereamiRawData(
    RawSpeed: 0.0 km/h,
    RawDistance: 4538 m
)
 (188.032145)  can0  464   [8]  10 EB 68 02 D9 EA 05 F9 ::
whereamiCoords(
    Latitude: 40.430352 °,
    Longitude: -117.05271099999999 °
)
 (189.041566)  can0  460   [4]  00 00 BA 11 ::
whereamiData(
    Speed: 0.0 km/h,
    Distance: 4538 m
)
 (189.041796)  can0  462   [4]  00 00 BA 11 ::
whereamiRawData(
    RawSpeed: 0.0 km/h,
    RawDistance: 4538 m
)
 (189.042001)  can0  464   [8]  10 EB 68 02 D9 EA 05 F9 ::
whereamiCoords(
    Latitude: 40.430352 °,
    Longitude: -117.05271099999999 °
)
 (190.053573)  can0  460   [4]  00 00 BA 11 ::
whereamiData(
    Speed: 0.0 km/h,
    Distance: 4538 m
)
 (190.053782)  can0  462   [4]  00 00 BA 11 ::
whereamiRawData(
    RawSpeed: 0.0 km/h,
    RawDistance: 4538 m
)
 (190.053972)  can0  464   [8]  10 EB 68 02 D9 EA 05 F9 ::
whereamiCoords(
    Latitude: 40.430352 °,
    Longitude: -117.05271099999999 °
)
 (191.069759)  can0  460   [4]  00 00 BA 11 ::
whereamiData(
    Speed: 0.0 km/h,
    Distance: 4538 m
)
 (191.069989)  can0  462   [4]  00 00 BA 11 ::
whereamiRawData(
