 (000.000000)  can0  460   [4]  00 00 6A 5A ::
whereamiData(
    Speed: 0.0 km/h,
    Distance: 23146 m
)
 (000.000207)  can0  462   [4]  00 00 6A 5A ::
whereamiRawData(
    RawSpeed: 0.0 km/h,
    RawDistance: 23146 m
)
 (000.000397)  can0  464   [8]  EB 61 6C 02 1F 96 07 F9 ::
whereamiCoords(
    Latitude: 40.657387 °,
    Longitude: -116.94332899999999 °
)
 (001.002390)  can0  460   [4]  00 00 6A 5A ::
whereamiData(
    Speed: 0.0 km/h,
    Distance: 23146 m
)
 (001.002614)  can0  462   [4]  12 00 6A 5A ::
whereamiRawData(
    RawSpeed: 0.18 km/h,
    RawDistance: 23146 m
)
 (001.002809)  can0  464   [8]  EB 61 6C 02 1F 96 07 F9 ::
whereamiCoords(
    Latitude: 40.657387 °,
    Longitude: -116.94332899999999 °
)
 (002.004415)  can0  460   [4]  00 00 6A 5A ::
whereamiData(
    Speed: 0.0 km/h,
    Distance: 23146 m
)
 (002.004619)  can0  462   [4]  12 00 6A 5A ::
whereamiRawData(
    RawSpeed: 0.18 km/h,
    RawDistance: 23146 m
)
 (002.004807)  can0  464   [8]  EC 61 6C 02 1F 96 07 F9 ::
whereamiCoords(
    Latitude: 40.657388 °,
    Longitude: -116.94332899999999 °
)
 (003.006448)  can0  460   [4]  00 00 6A 5A ::
whereamiData(
    Speed: 0.0 km/h,
    Distance: 23146 m
)
 (003.006657)  can0  462   [4]  25 00 6A 5A ::
whereamiRawData(
    RawSpeed: 0.37 km/h,
    RawDistance: 23146 m
)
 (003.006847)  can0  464   [8]  ED 61 6C 02 1F 96 07 F9 ::
whereamiCoords(
    Latitude: 40.657388999999995 °,
    Longitude: -116.94332899999999 °
)
 (004.010289)  can0  460   [4]  00 00 6A 5A ::
whereamiData(
    Speed: 0.0 km/h,
    Distance: 23146 m
)
 (004.010499)  can0  462   [4]  00 00 6A 5A ::
whereamiRawData(
    RawSpeed: 0.0 km/h,
    RawDistance: 23146 m
)
 (004.010694)  can0  464   [8]  ED 61 6C 02 1F 96 07 F9 ::
whereamiCoords(
    Latitude: 40.657388999999995 °,
    Longitude: -116.94332899999999 °
)
 (005.014489)  can0  460   [4]  00 00 6A 5A ::
whereamiData(
    Speed: 0.0 km/h,
    Distance: 23146 m
)
 (005.014694)  can0  462   [4]  00 00 6A 5A ::
whereamiRawData(
    RawSpeed: 0.0 km/h,
    RawDistance: 23146 m
)
 (005.014885)  can0  464   [8]  ED 61 6C 02 1F 96 07 F9 ::
whereamiCoords(
    Latitude: 40.657388999999995 °,
    Longitude: -116.94332899999999 °
)
 (006.018567)  can0  460   [4]  00 00 6A 5A ::
whereamiData(
    Speed: 0.0 km/h,
    Distance: 23146 m
)
 (006.018795)  can0  462   [4]  00 00 6A 5A ::
whereamiRawData(
    RawSpeed: 0.0 km/h,
    RawDistance: 23146 m
)
 (006.019007)  can0  464   [8]  ED 61 6C 02 1F 96 07 F9 ::
whereamiCoords(
    Latitude: 40.657388999999995 °,
    Longitude: -116.94332899999999 °
)
 (006.926382)  can0  460   [4]  00 00 6A 5A ::
whereamiData(
    Speed: 0.0 km/h,
    Distance: 23146 m
)
 (006.926618)  can0  462   [4]  00 00 6A 5A ::
whereamiRawData(
    RawSpeed: 0.0 km/h,
    RawDistance: 23146 m
)
 (006.926815)  can0  464   [8]  ED 61 6C 02 1F 96 07 F9 ::
whereamiCoords(
    Latitude: 40.657388999999995 °,
    Longitude: -116.94332899999999 °
)
 (007.931094)  can0  460   [4]  00 00 6A 5A ::
whereamiData(
    Speed: 0.0 km/h,
    Distance: 23146 m
)
 (007.931350)  can0  464   [8]  ED 61 6C 02 1F 96 07 F9 ::
whereamiCoords(
    Latitude: 40.657388999999995 °,
    Longitude: -116.94332899999999 °
)
 (007.932100)  can0  462   [4]  12 00 6A 5A ::
whereamiRawData(
    RawSpeed: 0.18 km/h,
    RawDistance: 23146 m
)
 (007.932286)  can0  468   [2]  2C 01 ::
whereamiPosUncert(
    PosUncertainty: 3.0 m
)
 (008.936419)  can0  460   [4]  00 00 6A 5A ::
whereamiData(
    Speed: 0.0 km/h,
    Distance: 23146 m
)
 (008.936622)  can0  462   [4]  00 00 6A 5A ::
whereamiRawData(
    RawSpeed: 0.0 km/h,
    RawDistance: 23146 m
)
 (008.936806)  can0  464   [8]  ED 61 6C 02 1F 96 07 F9 ::
whereamiCoords(
    Latitude: 40.657388999999995 °,
    Longitude: -116.94332899999999 °
)
 (009.944717)  can0  460   [4]  00 00 6A 5A ::
whereamiData(
    Speed: 0.0 km/h,
    Distance: 23146 m
)
 (009.944925)  can0  462   [4]  00 00 6A 5A ::
whereamiRawData(
    RawSpeed: 0.0 km/h,
    RawDistance: 23146 m
)
 (009.945115)  can0  464   [8]  ED 61 6C 02 1F 96 07 F9 ::
whereamiCoords(
    Latitude: 40.657388999999995 °,
    Longitude: -116.94332899999999 °
)
 (010.954508)  can0  460   [4]  00 00 6A 5A ::
whereamiData(
    Speed: 0.0 km/h,
    Distance: 23146 m
)
 (010.954721)  can0  462   [4]  00 00 6A 5A ::
whereamiRawData(
    RawSpeed: 0.0 km/h,
    RawDistance: 23146 m
)
 (010.954915)  can0  464   [8]  EE 61 6C 02 1F 96 07 F9 ::
whereamiCoords(
    Latitude: 40.65739 °,
    Longitude: -116.94332899999999 °
)
 (011.962868)  can0  460   [4]  03 00 6A 5A ::
whereamiData(
    Speed: 0.03 km/h,
    Distance: 23146 m
)
 (011.963078)  can0  462   [4]  12 00 6A 5A ::
whereamiRawData(
    RawSpeed: 0.18 km/h,
    RawDistance: 23146 m
)
 (011.963270)  can0  464   [8]  EE 61 6C 02 1F 96 07 F9 ::
whereamiCoords(
    Latitude: 40.65739 °,
    Longitude: -116.94332899999999 °
)
 (012.970742)  can0  460   [4]  07 00 6B 5A ::
whereamiData(
    Speed: 0.07 km/h,
    Distance: 23147 m
)
 (012.970962)  can0  462   [4]  25 00 6B 5A ::
whereamiRawData(
    RawSpeed: 0.37 km/h,
    RawDistance: 23147 m
)
 (012.971154)  can0  464   [8]  EF 61 6C 02 1F 96 07 F9 ::
whereamiCoords(
    Latitude: 40.657391 °,
    Longitude: -116.94332899999999 °
)
 (013.978757)  can0  460   [4]  07 00 6B 5A ::
whereamiData(
    Speed: 0.07 km/h,
    Distance: 23147 m
)
 (013.978969)  can0  462   [4]  25 00 6B 5A ::
whereamiRawData(
    RawSpeed: 0.37 km/h,
    RawDistance: 23147 m
)
 (013.979160)  can0  464   [8]  F0 61 6C 02 1F 96 07 F9 ::
whereamiCoords(
    Latitude: 40.657392 °,
    Longitude: -116.94332899999999 °
)
 (014.984794)  can0  460   [4]  05 00 6B 5A ::
whereamiData(
    Speed: 0.05 km/h,
    Distance: 23147 m
)
 (014.985015)  can0  462   [4]  37 00 6B 5A ::
whereamiRawData(
    RawSpeed: 0.55 km/h,
    RawDistance: 23147 m
)
 (014.985212)  can0  464   [8]  F1 61 6C 02 1F 96 07 F9 ::
whereamiCoords(
    Latitude: 40.657393 °,
    Longitude: -116.94332899999999 °
)
 (015.992910)  can0  460   [4]  07 00 6B 5A ::
whereamiData(
    Speed: 0.07 km/h,
    Distance: 23147 m
)
 (015.993123)  can0  462   [4]  4A 00 6B 5A ::
whereamiRawData(
    RawSpeed: 0.74 km/h,
    RawDistance: 23147 m
)
 (015.993318)  can0  464   [8]  F3 61 6C 02 1F 96 07 F9 ::
whereamiCoords(
    Latitude: 40.657395 °,
    Longitude: -116.94332899999999 °
)
 (016.999186)  can0  460   [4]  00 00 6B 5A ::
whereamiData(
    Speed: 0.0 km/h,
    Distance: 23147 m
)
 (016.999396)  can0  462   [4]  5C 00 6B 5A ::
whereamiRawData(
    RawSpeed: 0.92 km/h,
    RawDistance: 23147 m
)
 (016.999586)  can0  464   [8]  F6 61 6C 02 1F 96 07 F9 ::
whereamiCoords(
    Latitude: 40.657398 °,
    Longitude: -116.94332899999999 °
)
 (018.007214)  can0  460   [4]  00 00 6B 5A ::
whereamiData(
    Speed: 0.0 km/h,
    Distance: 23147 m
)
 (018.007426)  can0  462   [4]  6F 00 6B 5A ::
whereamiRawData(
    RawSpeed: 1.11 km/h,
    RawDistance: 23147 m
)
 (018.007624)  can0  464   [8]  F8 61 6C 02 1F 96 07 F9 ::
whereamiCoords(
    Latitude: 40.657399999999996 °,
    Longitude: -116.94332899999999 °
)
 (019.017251)  can0  460   [4]  00 00 6C 5A ::
whereamiData(
    Speed: 0.0 km/h,
    Distance: 23148 m
)
 (019.017464)  can0  462   [4]  81 00 6C 5A ::
whereamiRawData(
    RawSpeed: 1.29 km/h,
    RawDistance: 23148 m
)
 (019.017654)  can0  464   [8]  FC 61 6C 02 1F 96 07 F9 ::
whereamiCoords(
    Latitude: 40.657404 °,
    Longitude: -116.94332899999999 °
)
 (019.925274)  can0  460   [4]  00 00 6C 5A ::
whereamiData(
    Speed: 0.0 km/h,
    Distance: 23148 m
)
 (019.925487)  can0  462   [4]  94 00 6C 5A ::
whereamiRawData(
    RawSpeed: 1.48 km/h,
    RawDistance: 23148 m
)
 (019.925679)  can0  464   [8]  FF 61 6C 02 1F 96 07 F9 ::
whereamiCoords(
    Latitude: 40.657407 °,
    Longitude: -116.94332899999999 °
)
 (020.934533)  can0  460   [4]  13 00 6D 5A ::
whereamiData(
    Speed: 0.19 km/h,
    Distance: 23149 m
)
 (020.934746)  can0  462   [4]  B9 00 6D 5A ::
whereamiRawData(
    RawSpeed: 1.85 km/h,
    RawDistance: 23149 m
)
 (020.934934)  can0  464   [8]  04 62 6C 02 1F 96 07 F9 ::
whereamiCoords(
    Latitude: 40.657412 °,
    Longitude: -116.94332899999999 °
)
 (021.938541)  can0  460   [4]  15 00 6D 5A ::
whereamiData(
    Speed: 0.21 km/h,
    Distance: 23149 m
)
 (021.938753)  can0  462   [4]  CB 00 6D 5A ::
whereamiRawData(
    RawSpeed: 2.0300000000000002 km/h,
    RawDistance: 23149 m
)
 (021.938944)  can0  464   [8]  09 62 6C 02 1F 96 07 F9 ::
whereamiCoords(
    Latitude: 40.657416999999995 °,
    Longitude: -116.94332899999999 °
)
 (022.947264)  can0  460   [4]  01 00 6E 5A ::
whereamiData(
    Speed: 0.01 km/h,
    Distance: 23150 m
)
 (022.947484)  can0  462   [4]  F0 00 6E 5A ::
whereamiRawData(
    RawSpeed: 2.4 km/h,
    RawDistance: 23150 m
)
 (022.947676)  can0  464   [8]  0F 62 6C 02 1F 96 07 F9 ::
whereamiCoords(
    Latitude: 40.657423 °,
    Longitude: -116.94332899999999 °
)
 (023.957588)  can0  460   [4]  00 00 6E 5A ::
whereamiData(
    Speed: 0.0 km/h,
    Distance: 23150 m
)
 (023.957912)  can0  464   [8]  16 62 6C 02 1F 96 07 F9 ::
whereamiCoords(
    Latitude: 40.65743 °,
    Longitude: -116.94332899999999 °
)
 (023.958583)  can0  462   [4]  15 01 6E 5A ::
whereamiRawData(
    RawSpeed: 2.77 km/h,
    RawDistance: 23150 m
)
 (023.958803)  can0  468   [2]  AC 26 ::
whereamiPosUncert(
    PosUncertainty: 99.0 m
)
 (024.965493)  can0  460   [4]  00 00 6F 5A ::
whereamiData(
    Speed: 0.0 km/h,
    Distance: 23151 m
)
 (024.965721)  can0  462   [4]  3A 01 6F 5A ::
whereamiRawData(
    RawSpeed: 3.14 km/h,
    RawDistance: 23151 m
)
 (024.965923)  can0  464   [8]  1D 62 6C 02 1F 96 07 F9 ::
whereamiCoords(
    Latitude: 40.657437 °,
    Longitude: -116.94332899999999 °
)
 (025.967446)  can0  460   [4]  00 00 70 5A ::
whereamiData(
    Speed: 0.0 km/h,
    Distance: 23152 m
)
 (025.967666)  can0  462   [4]  4D 01 70 5A ::
whereamiRawData(
    RawSpeed: 3.33 km/h,
    RawDistance: 23152 m
)
 (025.967862)  can0  464   [8]  26 62 6C 02 1F 96 07 F9 ::
whereamiCoords(
    Latitude: 40.657446 °,
    Longitude: -116.94332899999999 °
)
 (026.973551)  can0  460   [4]  00 00 71 5A ::
whereamiData(
    Speed: 0.0 km/h,
    Distance: 23153 m
)
 (026.973761)  can0  462   [4]  84 01 71 5A ::
whereamiRawData(
    RawSpeed: 3.88 km/h,
    RawDistance: 23153 m
)
 (026.973949)  can0  464   [8]  30 62 6C 02 1F 96 07 F9 ::
whereamiCoords(
    Latitude: 40.657455999999996 °,
    Longitude: -116.94332899999999 °
)
 (027.975394)  can0  460   [4]  4D 01 72 5A ::
whereamiData(
    Speed: 3.33 km/h,
    Distance: 23154 m
)
 (027.975607)  can0  462   [4]  4D 01 72 5A ::
whereamiRawData(
    RawSpeed: 3.33 km/h,
    RawDistance: 23154 m
)
 (027.975798)  can0  464   [8]  38 62 6C 02 1E 96 07 F9 ::
whereamiCoords(
    Latitude: 40.657464 °,
    Longitude: -116.94332999999999 °
)
 (028.979412)  can0  460   [4]  9D 00 72 5A ::
whereamiData(
    Speed: 1.57 km/h,
    Distance: 23154 m
)
 (028.979621)  can0  462   [4]  DE 00 72 5A ::
whereamiRawData(
    RawSpeed: 2.22 km/h,
    RawDistance: 23154 m
)
 (028.979813)  can0  464   [8]  3D 62 6C 02 1D 96 07 F9 ::
whereamiCoords(
    Latitude: 40.657469 °,
    Longitude: -116.943331 °
)
 (029.987361)  can0  460   [4]  00 00 73 5A ::
whereamiData(
    Speed: 0.0 km/h,
    Distance: 23155 m
)
 (029.987574)  can0  462   [4]  03 01 73 5A ::
whereamiRawData(
    RawSpeed: 2.59 km/h,
    RawDistance: 23155 m
)
 (029.987766)  can0  464   [8]  43 62 6C 02 1C 96 07 F9 ::
whereamiCoords(
    Latitude: 40.657475 °,
    Longitude: -116.943332 °
)
 (030.993475)  can0  460   [4]  00 00 73 5A ::
whereamiData(
    Speed: 0.0 km/h,
    Distance: 23155 m
)
 (030.993690)  can0  462   [4]  03 01 73 5A ::
whereamiRawData(
    RawSpeed: 2.59 km/h,
    RawDistance: 23155 m
)
 (030.993883)  can0  464   [8]  4A 62 6C 02 1B 96 07 F9 ::
whereamiCoords(
    Latitude: 40.657482 °,
    Longitude: -116.943333 °
)
 (031.999512)  can0  460   [4]  00 00 74 5A ::
whereamiData(
    Speed: 0.0 km/h,
    Distance: 23156 m
)
 (031.999729)  can0  462   [4]  15 01 74 5A ::
whereamiRawData(
    RawSpeed: 2.77 km/h,
    RawDistance: 23156 m
)
 (031.999927)  can0  464   [8]  51 62 6C 02 1A 96 07 F9 ::
whereamiCoords(
    Latitude: 40.657489 °,
    Longitude: -116.943334 °
)
 (033.003619)  can0  460   [4]  00 00 75 5A ::
whereamiData(
    Speed: 0.0 km/h,
    Distance: 23157 m
)
 (033.003832)  can0  462   [4]  3A 01 75 5A ::
whereamiRawData(
    RawSpeed: 3.14 km/h,
    RawDistance: 23157 m
)
 (033.004024)  can0  464   [8]  59 62 6C 02 19 96 07 F9 ::
whereamiCoords(
    Latitude: 40.657497 °,
    Longitude: -116.94333499999999 °
)
 (034.011562)  can0  460   [4]  00 00 76 5A ::
whereamiData(
    Speed: 0.0 km/h,
    Distance: 23158 m
)
 (034.011775)  can0  462   [4]  72 01 76 5A ::
whereamiRawData(
    RawSpeed: 3.7 km/h,
    RawDistance: 23158 m
)
 (034.011969)  can0  464   [8]  62 62 6C 02 17 96 07 F9 ::
whereamiCoords(
    Latitude: 40.657506 °,
    Longitude: -116.943337 °
)
 (035.015495)  can0  460   [4]  00 00 77 5A ::
whereamiData(
    Speed: 0.0 km/h,
    Distance: 23159 m
)
 (035.015708)  can0  462   [4]  97 01 77 5A ::
whereamiRawData(
    RawSpeed: 4.07 km/h,
    RawDistance: 23159 m
)
 (035.015901)  can0  464   [8]  6B 62 6C 02 15 96 07 F9 ::
whereamiCoords(
    Latitude: 40.657515 °,
    Longitude: -116.943339 °
)
 (035.923176)  can0  460   [4]  00 00 78 5A ::
whereamiData(
    Speed: 0.0 km/h,
    Distance: 23160 m
)
 (035.923400)  can0  462   [4]  A9 01 78 5A ::
whereamiRawData(
    RawSpeed: 4.25 km/h,
    RawDistance: 23160 m
)
 (035.923590)  can0  464   [8]  76 62 6C 02 13 96 07 F9 ::
whereamiCoords(
    Latitude: 40.657526 °,
    Longitude: -116.94334099999999 °
)
 (036.929201)  can0  460   [4]  00 00 79 5A ::
whereamiData(
    Speed: 0.0 km/h,
    Distance: 23161 m
)
 (036.929412)  can0  462   [4]  CF 01 79 5A ::
whereamiRawData(
    RawSpeed: 4.63 km/h,
    RawDistance: 23161 m
)
 (036.929650)  can0  464   [8]  81 62 6C 02 11 96 07 F9 ::
whereamiCoords(
    Latitude: 40.657537 °,
    Longitude: -116.943343 °
)
 (037.939656)  can0  460   [4]  00 00 7A 5A ::
whereamiData(
    Speed: 0.0 km/h,
    Distance: 23162 m
)
 (037.939865)  can0  462   [4]  F4 01 7A 5A ::
whereamiRawData(
    RawSpeed: 5.0 km/h,
    RawDistance: 23162 m
)
 (037.940057)  can0  464   [8]  8D 62 6C 02 0E 96 07 F9 ::
whereamiCoords(
    Latitude: 40.657548999999996 °,
    Longitude: -116.94334599999999 °
)
 (038.945694)  can0  460   [4]  00 00 7B 5A ::
whereamiData(
    Speed: 0.0 km/h,
    Distance: 23163 m
)
 (038.945912)  can0  462   [4]  06 02 7B 5A ::
whereamiRawData(
    RawSpeed: 5.18 km/h,
    RawDistance: 23163 m
)
 (038.946105)  can0  464   [8]  9A 62 6C 02 0C 96 07 F9 ::
whereamiCoords(
    Latitude: 40.657562 °,
    Longitude: -116.943348 °
)
 (039.949809)  can0  460   [4]  00 00 7C 5A ::
whereamiData(
    Speed: 0.0 km/h,
    Distance: 23164 m
)
 (039.950036)  can0  462   [4]  2B 02 7C 5A ::
whereamiRawData(
    RawSpeed: 5.55 km/h,
    RawDistance: 23164 m
)
 (039.950231)  can0  464   [8]  A8 62 6C 02 09 96 07 F9 ::
whereamiCoords(
    Latitude: 40.657576 °,
    Longitude: -116.94335099999999 °
)
 (040.955919)  can0  460   [4]  00 00 7D 5A ::
whereamiData(
    Speed: 0.0 km/h,
    Distance: 23165 m
)
 (040.956138)  can0  462   [4]  50 02 7D 5A ::
whereamiRawData(
    RawSpeed: 5.92 km/h,
    RawDistance: 23165 m
)
 (040.956333)  can0  464   [8]  B6 62 6C 02 06 96 07 F9 ::
whereamiCoords(
    Latitude: 40.65759 °,
    Longitude: -116.943354 °
)
 (041.960034)  can0  460   [4]  00 00 7F 5A ::
whereamiData(
    Speed: 0.0 km/h,
    Distance: 23167 m
)
 (041.960252)  can0  464   [8]  C6 62 6C 02 03 96 07 F9 ::
whereamiCoords(
    Latitude: 40.657606 °,
    Longitude: -116.94335699999999 °
)
 (041.961021)  can0  462   [4]  75 02 7F 5A ::
whereamiRawData(
    RawSpeed: 6.29 km/h,
    RawDistance: 23167 m
)
 (041.961215)  can0  468   [2]  AC 26 ::
whereamiPosUncert(
    PosUncertainty: 99.0 m
)
 (042.966048)  can0  460   [4]  00 00 80 5A ::
whereamiData(
    Speed: 0.0 km/h,
    Distance: 23168 m
)
 (042.966307)  can0  464   [8]  D6 62 6C 02 00 96 07 F9 ::
whereamiCoords(
    Latitude: 40.657621999999996 °,
    Longitude: -116.94336 °
)
 (042.967057)  can0  462   [4]  88 02 80 5A ::
whereamiRawData(
    RawSpeed: 6.48 km/h,
    RawDistance: 23168 m
)
 (042.967254)  can0  468   [2]  AC 26 ::
whereamiPosUncert(
    PosUncertainty: 99.0 m
)
 (043.974012)  can0  460   [4]  00 00 82 5A ::
whereamiData(
    Speed: 0.0 km/h,
    Distance: 23170 m
)
 (043.974227)  can0  462   [4]  D2 02 82 5A ::
whereamiRawData(
    RawSpeed: 7.22 km/h,
    RawDistance: 23170 m
)
 (043.974425)  can0  464   [8]  E7 62 6C 02 FC 95 07 F9 ::
whereamiCoords(
    Latitude: 40.657638999999996 °,
    Longitude: -116.94336399999999 °
)
 (044.980030)  can0  460   [4]  00 00 84 5A ::
whereamiData(
    Speed: 0.0 km/h,
    Distance: 23172 m
)
 (044.980244)  can0  462   [4]  E4 02 84 5A ::
whereamiRawData(
    RawSpeed: 7.4 km/h,
    RawDistance: 23172 m
)
 (044.980434)  can0  464   [8]  FA 62 6C 02 F9 95 07 F9 ::
whereamiCoords(
    Latitude: 40.657658 °,
    Longitude: -116.943367 °
)
 (045.988048)  can0  460   [4]  00 00 86 5A ::
whereamiData(
    Speed: 0.0 km/h,
    Distance: 23174 m
)
 (045.988261)  can0  462   [4]  1C 03 86 5A ::
whereamiRawData(
    RawSpeed: 7.96 km/h,
    RawDistance: 23174 m
)
 (045.988455)  can0  464   [8]  0D 63 6C 02 F5 95 07 F9 ::
whereamiCoords(
    Latitude: 40.657677 °,
    Longitude: -116.943371 °
)
 (046.991993)  can0  460   [4]  00 00 87 5A ::
whereamiData(
    Speed: 0.0 km/h,
    Distance: 23175 m
)
 (046.992212)  can0  462   [4]  2E 03 87 5A ::
whereamiRawData(
    RawSpeed: 8.14 km/h,
    RawDistance: 23175 m
)
 (046.992411)  can0  464   [8]  21 63 6C 02 F1 95 07 F9 ::
whereamiCoords(
    Latitude: 40.657697 °,
    Longitude: -116.94337499999999 °
)
 (047.996139)  can0  460   [4]  00 00 89 5A ::
whereamiData(
    Speed: 0.0 km/h,
    Distance: 23177 m
)
 (047.996354)  can0  462   [4]  41 03 89 5A ::
whereamiRawData(
    RawSpeed: 8.33 km/h,
    RawDistance: 23177 m
)
 (047.996543)  can0  464   [8]  36 63 6C 02 ED 95 07 F9 ::
whereamiCoords(
    Latitude: 40.657717999999996 °,
    Longitude: -116.943379 °
)
 (049.000037)  can0  460   [4]  39 00 8B 5A ::
whereamiData(
    Speed: 0.5700000000000001 km/h,
    Distance: 23179 m
)
 (049.000246)  can0  462   [4]  2E 03 8B 5A ::
whereamiRawData(
    RawSpeed: 8.14 km/h,
    RawDistance: 23179 m
)
 (049.000434)  can0  464   [8]  4A 63 6C 02 E9 95 07 F9 ::
whereamiCoords(
    Latitude: 40.657737999999995 °,
    Longitude: -116.943383 °
)
 (050.005984)  can0  460   [4]  3B 00 8D 5A ::
whereamiData(
    Speed: 0.59 km/h,
    Distance: 23181 m
)
 (050.006197)  can0  462   [4]  41 03 8D 5A ::
whereamiRawData(
    RawSpeed: 8.33 km/h,
    RawDistance: 23181 m
)
 (050.006385)  can0  464   [8]  5F 63 6C 02 E4 95 07 F9 ::
whereamiCoords(
    Latitude: 40.657759 °,
    Longitude: -116.943388 °
)
 (051.010097)  can0  460   [4]  5E 02 8F 5A ::
whereamiData(
    Speed: 6.0600000000000005 km/h,
    Distance: 23183 m
)
 (051.010314)  can0  462   [4]  66 03 8F 5A ::
whereamiRawData(
    RawSpeed: 8.700000000000001 km/h,
    RawDistance: 23183 m
)
 (051.010512)  can0  464   [8]  74 63 6C 02 DF 95 07 F9 ::
whereamiCoords(
    Latitude: 40.657779999999995 °,
    Longitude: -116.943393 °
)
 (052.018121)  can0  460   [4]  00 00 91 5A ::
whereamiData(
    Speed: 0.0 km/h,
    Distance: 23185 m
)
 (052.018330)  can0  462   [4]  66 03 91 5A ::
whereamiRawData(
    RawSpeed: 8.700000000000001 km/h,
    RawDistance: 23185 m
)
 (052.018525)  can0  464   [8]  89 63 6C 02 DA 95 07 F9 ::
whereamiCoords(
    Latitude: 40.657801 °,
    Longitude: -116.94339799999999 °
)
 (052.923638)  can0  460   [4]  00 00 93 5A ::
whereamiData(
    Speed: 0.0 km/h,
    Distance: 23187 m
)
 (052.923851)  can0  462   [4]  53 03 93 5A ::
whereamiRawData(
    RawSpeed: 8.51 km/h,
    RawDistance: 23187 m
)
 (052.924044)  can0  464   [8]  9F 63 6C 02 D6 95 07 F9 ::
whereamiCoords(
    Latitude: 40.657823 °,
    Longitude: -116.94340199999999 °
)
 (053.932175)  can0  460   [4]  9B 01 95 5A ::
whereamiData(
    Speed: 4.11 km/h,
    Distance: 23189 m
)
 (053.932389)  can0  462   [4]  8B 03 95 5A ::
whereamiRawData(
    RawSpeed: 9.07 km/h,
    RawDistance: 23189 m
)
 (053.932581)  can0  464   [8]  B5 63 6C 02 D1 95 07 F9 ::
whereamiCoords(
    Latitude: 40.657844999999995 °,
    Longitude: -116.943407 °
)
 (054.939940)  can0  460   [4]  DD 02 97 5A ::
whereamiData(
    Speed: 7.33 km/h,
    Distance: 23191 m
)
 (054.940166)  can0  462   [4]  78 03 97 5A ::
whereamiRawData(
    RawSpeed: 8.88 km/h,
    RawDistance: 23191 m
)
 (054.940356)  can0  464   [8]  CB 63 6C 02 CB 95 07 F9 ::
whereamiCoords(
    Latitude: 40.657866999999996 °,
    Longitude: -116.94341299999999 °
)
 (055.945960)  can0  460   [4]  CE 02 99 5A ::
whereamiData(
    Speed: 7.18 km/h,
    Distance: 23193 m
)
 (055.946177)  can0  462   [4]  66 03 99 5A ::
whereamiRawData(
    RawSpeed: 8.700000000000001 km/h,
    RawDistance: 23193 m
)
 (055.946385)  can0  464   [8]  E1 63 6C 02 C6 95 07 F9 ::
whereamiCoords(
    Latitude: 40.657889 °,
    Longitude: -116.943418 °
)
 (056.949986)  can0  460   [4]  51 02 9B 5A ::
whereamiData(
    Speed: 5.93 km/h,
    Distance: 23195 m
)
 (056.950193)  can0  462   [4]  53 03 9B 5A ::
whereamiRawData(
    RawSpeed: 8.51 km/h,
    RawDistance: 23195 m
)
 (056.950383)  can0  464   [8]  F6 63 6C 02 C1 95 07 F9 ::
whereamiCoords(
    Latitude: 40.65791 °,
    Longitude: -116.943423 °
)
 (057.955939)  can0  460   [4]  99 02 9D 5A ::
whereamiData(
    Speed: 6.65 km/h,
    Distance: 23197 m
)
 (057.956161)  can0  462   [4]  66 03 9D 5A ::
whereamiRawData(
    RawSpeed: 8.700000000000001 km/h,
    RawDistance: 23197 m
)
 (057.956356)  can0  464   [8]  0B 64 6C 02 BB 95 07 F9 ::
whereamiCoords(
    Latitude: 40.657931 °,
    Longitude: -116.943429 °
)
 (058.962071)  can0  460   [4]  99 02 9F 5A ::
whereamiData(
    Speed: 6.65 km/h,
    Distance: 23199 m
)
 (058.962280)  can0  462   [4]  66 03 9F 5A ::
whereamiRawData(
    RawSpeed: 8.700000000000001 km/h,
    RawDistance: 23199 m
)
 (058.962474)  can0  464   [8]  21 64 6C 02 B6 95 07 F9 ::
whereamiCoords(
    Latitude: 40.657953 °,
    Longitude: -116.943434 °
)
 (059.968149)  can0  460   [4]  A7 02 A1 5A ::
whereamiData(
    Speed: 6.79 km/h,
    Distance: 23201 m
)
 (059.968358)  can0  462   [4]  78 03 A1 5A ::
whereamiRawData(
    RawSpeed: 8.88 km/h,
    RawDistance: 23201 m
)
 (059.968546)  can0  464   [8]  37 64 6C 02 B1 95 07 F9 ::
whereamiCoords(
    Latitude: 40.657975 °,
    Longitude: -116.943439 °
)
 (060.976272)  can0  460   [4]  CE 02 A3 5A ::
whereamiData(
    Speed: 7.18 km/h,
    Distance: 23203 m
)
 (060.976482)  can0  462   [4]  66 03 A3 5A ::
whereamiRawData(
    RawSpeed: 8.700000000000001 km/h,
    RawDistance: 23203 m
)
 (060.976675)  can0  464   [8]  4D 64 6C 02 AB 95 07 F9 ::
whereamiCoords(
    Latitude: 40.657996999999995 °,
    Longitude: -116.943445 °
)
 (061.982386)  can0  460   [4]  FC 02 A5 5A ::
whereamiData(
    Speed: 7.640000000000001 km/h,
    Distance: 23205 m
)
 (061.982610)  can0  462   [4]  9E 03 A5 5A ::
whereamiRawData(
    RawSpeed: 9.26 km/h,
    RawDistance: 23205 m
)
 (061.982804)  can0  464   [8]  63 64 6C 02 A6 95 07 F9 ::
whereamiCoords(
    Latitude: 40.658018999999996 °,
    Longitude: -116.94345 °
)
 (062.988176)  can0  460   [4]  0B 03 A7 5A ::
whereamiData(
    Speed: 7.79 km/h,
    Distance: 23207 m
)
 (062.988400)  can0  462   [4]  B0 03 A7 5A ::
whereamiRawData(
    RawSpeed: 9.44 km/h,
    RawDistance: 23207 m
)
 (062.988594)  can0  464   [8]  7A 64 6C 02 A0 95 07 F9 ::
whereamiCoords(
    Latitude: 40.658041999999995 °,
    Longitude: -116.943456 °
)
 (063.988430)  can0  460   [4]  0B 03 A9 5A ::
whereamiData(
    Speed: 7.79 km/h,
    Distance: 23209 m
)
 (063.988641)  can0  462   [4]  B0 03 A9 5A ::
whereamiRawData(
    RawSpeed: 9.44 km/h,
    RawDistance: 23209 m
)
 (063.988831)  can0  464   [8]  91 64 6C 02 9A 95 07 F9 ::
whereamiCoords(
    Latitude: 40.658065 °,
    Longitude: -116.943462 °
)
 (064.990226)  can0  460   [4]  FC 02 AB 5A ::
whereamiData(
    Speed: 7.640000000000001 km/h,
    Distance: 23211 m
)
 (064.990444)  can0  462   [4]  9E 03 AB 5A ::
whereamiRawData(
    RawSpeed: 9.26 km/h,
    RawDistance: 23211 m
)
 (064.990637)  can0  464   [8]  A8 64 6C 02 95 95 07 F9 ::
whereamiCoords(
    Latitude: 40.658088 °,
    Longitude: -116.943467 °
)
 (065.994504)  can0  460   [4]  FC 02 AD 5A ::
whereamiData(
    Speed: 7.640000000000001 km/h,
    Distance: 23213 m
)
 (065.994714)  can0  462   [4]  9E 03 AD 5A ::
whereamiRawData(
    RawSpeed: 9.26 km/h,
    RawDistance: 23213 m
)
 (065.994907)  can0  464   [8]  BF 64 6C 02 8F 95 07 F9 ::
whereamiCoords(
    Latitude: 40.658111 °,
    Longitude: -116.943473 °
)
 (066.998435)  can0  460   [4]  1A 03 AF 5A ::
whereamiData(
    Speed: 7.94 km/h,
    Distance: 23215 m
)
 (066.998646)  can0  462   [4]  C3 03 AF 5A ::
whereamiRawData(
    RawSpeed: 9.63 km/h,
    RawDistance: 23215 m
)
 (066.998838)  can0  464   [8]  D7 64 6C 02 89 95 07 F9 ::
whereamiCoords(
    Latitude: 40.658135 °,
    Longitude: -116.943479 °
)
 (068.002565)  can0  460   [4]  1C 00 AF 5A ::
whereamiData(
    Speed: 0.28 km/h,
    Distance: 23215 m
)
 (068.002780)  can0  462   [4]  25 00 AF 5A ::
whereamiRawData(
    RawSpeed: 0.37 km/h,
    RawDistance: 23215 m
)
 (068.002978)  can0  464   [8]  D8 64 6C 02 89 95 07 F9 ::
whereamiCoords(
    Latitude: 40.658136 °,
    Longitude: -116.943479 °
)
 (069.006652)  can0  460   [4]  0E 00 AF 5A ::
whereamiData(
    Speed: 0.14 km/h,
    Distance: 23215 m
)
 (069.006862)  can0  462   [4]  12 00 AF 5A ::
whereamiRawData(
    RawSpeed: 0.18 km/h,
    RawDistance: 23215 m
)
 (069.007052)  can0  464   [8]  D8 64 6C 02 89 95 07 F9 ::
whereamiCoords(
    Latitude: 40.658136 °,
    Longitude: -116.943479 °
)
 (070.008515)  can0  460   [4]  00 00 AF 5A ::
whereamiData(
    Speed: 0.0 km/h,
    Distance: 23215 m
)
 (070.008737)  can0  462   [4]  00 00 AF 5A ::
whereamiRawData(
    RawSpeed: 0.0 km/h,
    RawDistance: 23215 m
)
 (070.008929)  can0  464   [8]  D8 64 6C 02 89 95 07 F9 ::
whereamiCoords(
    Latitude: 40.658136 °,
    Longitude: -116.943479 °
)
 (071.012630)  can0  460   [4]  0C 00 AF 5A ::
whereamiData(
    Speed: 0.12 km/h,
    Distance: 23215 m
)
 (071.012842)  can0  462   [4]  12 00 AF 5A ::
whereamiRawData(
    RawSpeed: 0.18 km/h,
    RawDistance: 23215 m
)
 (071.013034)  can0  464   [8]  D8 64 6C 02 89 95 07 F9 ::
whereamiCoords(
    Latitude: 40.658136 °,
    Longitude: -116.943479 °
)
 (072.016654)  can0  460   [4]  11 00 AF 5A ::
whereamiData(
    Speed: 0.17 km/h,
    Distance: 23215 m
)
 (072.016867)  can0  462   [4]  12 00 AF 5A ::
whereamiRawData(
    RawSpeed: 0.18 km/h,
    RawDistance: 23215 m
)
 (072.017062)  can0  464   [8]  D9 64 6C 02 88 95 07 F9 ::
whereamiCoords(
    Latitude: 40.658136999999996 °,
    Longitude: -116.94348 °
)
 (073.020430)  can0  460   [4]  19 00 B0 5A ::
whereamiData(
    Speed: 0.25 km/h,
    Distance: 23216 m
)
 (073.020647)  can0  462   [4]  37 00 B0 5A ::
whereamiRawData(
    RawSpeed: 0.55 km/h,
    RawDistance: 23216 m
)
 (073.020834)  can0  464   [8]  D9 64 6C 02 88 95 07 F9 ::
whereamiCoords(
    Latitude: 40.658136999999996 °,
    Longitude: -116.94348 °
)
 (073.921919)  can0  460   [4]  49 00 B0 5A ::
whereamiData(
    Speed: 0.73 km/h,
    Distance: 23216 m
)
 (073.922139)  can0  462   [4]  4A 00 B0 5A ::
whereamiRawData(
    RawSpeed: 0.74 km/h,
    RawDistance: 23216 m
)
 (073.922344)  can0  464   [8]  DA 64 6C 02 88 95 07 F9 ::
whereamiCoords(
    Latitude: 40.658138 °,
    Longitude: -116.94348 °
)
 (074.928043)  can0  460   [4]  00 00 B0 5A ::
whereamiData(
    Speed: 0.0 km/h,
    Distance: 23216 m
)
 (074.928267)  can0  462   [4]  CB 00 B0 5A ::
whereamiRawData(
    RawSpeed: 2.0300000000000002 km/h,
    RawDistance: 23216 m
)
 (074.928464)  can0  464   [8]  DD 64 6C 02 87 95 07 F9 ::
whereamiCoords(
    Latitude: 40.658141 °,
    Longitude: -116.94348099999999 °
)
 (075.930778)  can0  460   [4]  50 00 B0 5A ::
whereamiData(
    Speed: 0.8 km/h,
    Distance: 23216 m
)
 (075.931019)  can0  462   [4]  94 00 B0 5A ::
whereamiRawData(
    RawSpeed: 1.48 km/h,
    RawDistance: 23216 m
)
 (075.931227)  can0  464   [8]  E0 64 6C 02 86 95 07 F9 ::
whereamiCoords(
    Latitude: 40.658144 °,
    Longitude: -116.94348199999999 °
)
 (076.935995)  can0  460   [4]  5D 00 B0 5A ::
whereamiData(
    Speed: 0.93 km/h,
    Distance: 23216 m
)
 (076.936218)  can0  462   [4]  94 00 B0 5A ::
whereamiRawData(
    RawSpeed: 1.48 km/h,
    RawDistance: 23216 m
)
 (076.936414)  can0  464   [8]  E3 64 6C 02 86 95 07 F9 ::
whereamiCoords(
    Latitude: 40.658147 °,
    Longitude: -116.94348199999999 °
)
 (077.942033)  can0  460   [4]  00 00 B1 5A ::
whereamiData(
    Speed: 0.0 km/h,
    Distance: 23217 m
)
 (077.942255)  can0  462   [4]  F0 00 B1 5A ::
whereamiRawData(
    RawSpeed: 2.4 km/h,
    RawDistance: 23217 m
)
 (077.942460)  can0  464   [8]  E7 64 6C 02 89 95 07 F9 ::
whereamiCoords(
    Latitude: 40.658151 °,
    Longitude: -116.943479 °
)
 (078.942672)  can0  460   [4]  00 00 B2 5A ::
whereamiData(
    Speed: 0.0 km/h,
    Distance: 23218 m
)
 (078.942911)  can0  462   [4]  BC 01 B2 5A ::
whereamiRawData(
    RawSpeed: 4.44 km/h,
    RawDistance: 23218 m
)
 (078.943117)  can0  464   [8]  F0 64 6C 02 91 95 07 F9 ::
whereamiCoords(
    Latitude: 40.658159999999995 °,
    Longitude: -116.94347099999999 °
)
 (079.944796)  can0  460   [4]  95 01 B3 5A ::
whereamiData(
    Speed: 4.05 km/h,
    Distance: 23219 m
)
 (079.945014)  can0  462   [4]  BC 01 B3 5A ::
whereamiRawData(
    RawSpeed: 4.44 km/h,
    RawDistance: 23219 m
)
 (079.945217)  can0  464   [8]  F9 64 6C 02 9B 95 07 F9 ::
whereamiCoords(
    Latitude: 40.658169 °,
    Longitude: -116.943461 °
)
 (080.948807)  can0  460   [4]  00 00 B5 5A ::
whereamiData(
    Speed: 0.0 km/h,
    Distance: 23221 m
)
 (080.949036)  can0  462   [4]  F4 01 B5 5A ::
whereamiRawData(
    RawSpeed: 5.0 km/h,
    RawDistance: 23221 m
)
 (080.949235)  can0  464   [8]  02 65 6C 02 A5 95 07 F9 ::
whereamiCoords(
    Latitude: 40.658178 °,
    Longitude: -116.943451 °
)
 (081.951004)  can0  460   [4]  78 01 B6 5A ::
whereamiData(
    Speed: 3.7600000000000002 km/h,
    Distance: 23222 m
)
 (081.951219)  can0  462   [4]  BC 01 B6 5A ::
whereamiRawData(
    RawSpeed: 4.44 km/h,
    RawDistance: 23222 m
)
 (081.951413)  can0  464   [8]  0B 65 6C 02 AD 95 07 F9 ::
whereamiCoords(
    Latitude: 40.658187 °,
    Longitude: -116.94344299999999 °
)
 (082.952692)  can0  460   [4]  D4 01 B7 5A ::
whereamiData(
    Speed: 4.68 km/h,
    Distance: 23223 m
)
 (082.952918)  can0  462   [4]  F4 01 B7 5A ::
whereamiRawData(
    RawSpeed: 5.0 km/h,
    RawDistance: 23223 m
)
 (082.953110)  can0  464   [8]  16 65 6C 02 B7 95 07 F9 ::
whereamiCoords(
    Latitude: 40.658198 °,
    Longitude: -116.943433 °
)
 (083.952965)  can0  460   [4]  10 00 B9 5A ::
whereamiData(
    Speed: 0.16 km/h,
    Distance: 23225 m
)
 (083.953180)  can0  462   [4]  19 02 B9 5A ::
whereamiRawData(
    RawSpeed: 5.37 km/h,
    RawDistance: 23225 m
)
 (083.953368)  can0  464   [8]  21 65 6C 02 C0 95 07 F9 ::
whereamiCoords(
    Latitude: 40.658209 °,
    Longitude: -116.943424 °
)
 (084.956732)  can0  460   [4]  B4 00 BA 5A ::
whereamiData(
    Speed: 1.8 km/h,
    Distance: 23226 m
)
 (084.956948)  can0  462   [4]  2B 02 BA 5A ::
whereamiRawData(
    RawSpeed: 5.55 km/h,
    RawDistance: 23226 m
)
 (084.957144)  can0  464   [8]  2C 65 6C 02 CA 95 07 F9 ::
whereamiCoords(
    Latitude: 40.65822 °,
    Longitude: -116.94341399999999 °
)
 (085.956934)  can0  460   [4]  F7 00 BC 5A ::
whereamiData(
    Speed: 2.47 km/h,
    Distance: 23228 m
)
 (085.957147)  can0  462   [4]  50 02 BC 5A ::
whereamiRawData(
    RawSpeed: 5.92 km/h,
    RawDistance: 23228 m
)
 (085.957345)  can0  464   [8]  38 65 6C 02 D4 95 07 F9 ::
whereamiCoords(
    Latitude: 40.658232 °,
    Longitude: -116.943404 °
)
 (086.955142)  can0  460   [4]  DE 00 BE 5A ::
whereamiData(
    Speed: 2.22 km/h,
    Distance: 23230 m
)
 (086.955359)  can0  462   [4]  AD 02 BE 5A ::
whereamiRawData(
    RawSpeed: 6.8500000000000005 km/h,
    RawDistance: 23230 m
)
 (086.955562)  can0  464   [8]  45 65 6C 02 E0 95 07 F9 ::
whereamiCoords(
    Latitude: 40.658245 °,
    Longitude: -116.94339199999999 °
)
 (087.958817)  can0  460   [4]  34 01 C0 5A ::
whereamiData(
    Speed: 3.08 km/h,
    Distance: 23232 m
)
 (087.959045)  can0  462   [4]  E4 02 C0 5A ::
whereamiRawData(
    RawSpeed: 7.4 km/h,
    RawDistance: 23232 m
)
 (087.959250)  can0  464   [8]  54 65 6C 02 ED 95 07 F9 ::
whereamiCoords(
    Latitude: 40.65826 °,
    Longitude: -116.943379 °
)
 (088.959098)  can0  460   [4]  53 01 C2 5A ::
whereamiData(
    Speed: 3.39 km/h,
    Distance: 23234 m
)
 (088.959323)  can0  462   [4]  2E 03 C2 5A ::
whereamiRawData(
    RawSpeed: 8.14 km/h,
    RawDistance: 23234 m
)
 (088.959529)  can0  464   [8]  64 65 6C 02 FB 95 07 F9 ::
whereamiCoords(
    Latitude: 40.658276 °,
    Longitude: -116.943365 °
)
 (089.957049)  can0  460   [4]  B7 01 C4 5A ::
whereamiData(
    Speed: 4.39 km/h,
    Distance: 23236 m
)
 (089.957268)  can0  462   [4]  66 03 C4 5A ::
whereamiRawData(
    RawSpeed: 8.700000000000001 km/h,
    RawDistance: 23236 m
)
 (089.957465)  can0  464   [8]  76 65 6C 02 0A 96 07 F9 ::
whereamiCoords(
    Latitude: 40.658294 °,
    Longitude: -116.94335 °
)
 (090.957067)  can0  460   [4]  CA 01 C6 5A ::
whereamiData(
    Speed: 4.58 km/h,
    Distance: 23238 m
)
 (090.957303)  can0  462   [4]  8B 03 C6 5A ::
whereamiRawData(
    RawSpeed: 9.07 km/h,
    RawDistance: 23238 m
)
 (090.957499)  can0  464   [8]  88 65 6C 02 1A 96 07 F9 ::
whereamiCoords(
    Latitude: 40.658311999999995 °,
    Longitude: -116.943334 °
)
 (091.960929)  can0  460   [4]  F0 01 C9 5A ::
whereamiData(
    Speed: 4.96 km/h,
    Distance: 23241 m
)
 (091.961148)  can0  462   [4]  D5 03 C9 5A ::
whereamiRawData(
    RawSpeed: 9.81 km/h,
    RawDistance: 23241 m
)
 (091.961348)  can0  464   [8]  9C 65 6C 02 2C 96 07 F9 ::
whereamiCoords(
    Latitude: 40.658332 °,
    Longitude: -116.943316 °
)
 (092.961208)  can0  460   [4]  0C 02 CC 5A ::
whereamiData(
    Speed: 5.24 km/h,
    Distance: 23244 m
)
 (092.961430)  can0  462   [4]  0D 04 CC 5A ::
whereamiRawData(
    RawSpeed: 10.370000000000001 km/h,
    RawDistance: 23244 m
)
 (092.961641)  can0  464   [8]  B1 65 6C 02 3E 96 07 F9 ::
whereamiCoords(
    Latitude: 40.658353 °,
    Longitude: -116.943298 °
)
 (093.969068)  can0  460   [4]  28 02 CF 5A ::
whereamiData(
    Speed: 5.5200000000000005 km/h,
    Distance: 23247 m
)
 (093.969286)  can0  462   [4]  44 04 CF 5A ::
whereamiRawData(
    RawSpeed: 10.92 km/h,
    RawDistance: 23247 m
)
 (093.969487)  can0  464   [8]  C7 65 6C 02 51 96 07 F9 ::
whereamiCoords(
    Latitude: 40.658375 °,
    Longitude: -116.94327899999999 °
)
 (094.967347)  can0  460   [4]  4D 02 D2 5A ::
whereamiData(
    Speed: 5.89 km/h,
    Distance: 23250 m
)
 (094.967565)  can0  462   [4]  8E 04 D2 5A ::
whereamiRawData(
    RawSpeed: 11.66 km/h,
    RawDistance: 23250 m
)
 (094.967773)  can0  464   [8]  DF 65 6C 02 66 96 07 F9 ::
whereamiCoords(
    Latitude: 40.658398999999996 °,
    Longitude: -116.943258 °
)
 (095.971033)  can0  460   [4]  60 02 D5 5A ::
whereamiData(
    Speed: 6.08 km/h,
    Distance: 23253 m
)
 (095.971247)  can0  462   [4]  B3 04 D5 5A ::
whereamiRawData(
    RawSpeed: 12.030000000000001 km/h,
    RawDistance: 23253 m
)
 (095.971444)  can0  464   [8]  F8 65 6C 02 7C 96 07 F9 ::
whereamiCoords(
    Latitude: 40.658424 °,
    Longitude: -116.943236 °
)
 (096.973322)  can0  460   [4]  7C 02 D9 5A ::
whereamiData(
    Speed: 6.36 km/h,
    Distance: 23257 m
)
 (096.973537)  can0  462   [4]  EB 04 D9 5A ::
whereamiRawData(
    RawSpeed: 12.59 km/h,
    RawDistance: 23257 m
)
 (096.973736)  can0  464   [8]  12 66 6C 02 92 96 07 F9 ::
whereamiCoords(
    Latitude: 40.658449999999995 °,
    Longitude: -116.943214 °
)
 (097.973170)  can0  460   [4]  98 02 DC 5A ::
whereamiData(
    Speed: 6.640000000000001 km/h,
    Distance: 23260 m
)
 (097.973387)  can0  462   [4]  22 05 DC 5A ::
whereamiRawData(
    RawSpeed: 13.14 km/h,
    RawDistance: 23260 m
)
 (097.973577)  can0  464   [8]  2D 66 6C 02 AA 96 07 F9 ::
whereamiCoords(
    Latitude: 40.658477 °,
    Longitude: -116.94319 °
)
 (098.973385)  can0  460   [4]  33 02 E0 5A ::
whereamiData(
    Speed: 5.63 km/h,
    Distance: 23264 m
)
 (098.973618)  can0  462   [4]  47 05 E0 5A ::
whereamiRawData(
    RawSpeed: 13.51 km/h,
    RawDistance: 23264 m
)
 (098.973821)  can0  464   [8]  49 66 6C 02 C2 96 07 F9 ::
whereamiCoords(
    Latitude: 40.658505 °,
    Longitude: -116.94316599999999 °
)
 (099.971488)  can0  460   [4]  2E 00 E0 5A ::
whereamiData(
    Speed: 0.46 km/h,
    Distance: 23264 m
)
 (099.971715)  can0  462   [4]  5C 00 E0 5A ::
whereamiRawData(
    RawSpeed: 0.92 km/h,
    RawDistance: 23264 m
)
 (099.971916)  can0  464   [8]  4A 66 6C 02 C4 96 07 F9 ::
whereamiCoords(
    Latitude: 40.658505999999996 °,
    Longitude: -116.943164 °
)
 (100.971348)  can0  460   [4]  12 00 E0 5A ::
whereamiData(
    Speed: 0.18 km/h,
    Distance: 23264 m
)
 (100.971571)  can0  462   [4]  25 00 E0 5A ::
whereamiRawData(
    RawSpeed: 0.37 km/h,
    RawDistance: 23264 m
)
 (100.971779)  can0  464   [8]  4B 66 6C 02 C4 96 07 F9 ::
whereamiCoords(
    Latitude: 40.658507 °,
    Longitude: -116.943164 °
)
 (101.969372)  can0  460   [4]  12 00 E0 5A ::
whereamiData(
    Speed: 0.18 km/h,
    Distance: 23264 m
)
 (101.969588)  can0  462   [4]  25 00 E0 5A ::
whereamiRawData(
    RawSpeed: 0.37 km/h,
    RawDistance: 23264 m
)
 (101.969785)  can0  464   [8]  4C 66 6C 02 C5 96 07 F9 ::
whereamiCoords(
    Latitude: 40.658508 °,
    Longitude: -116.943163 °
)
 (102.971227)  can0  460   [4]  20 00 E0 5A ::
whereamiData(
    Speed: 0.32 km/h,
    Distance: 23264 m
)
 (102.971441)  can0  462   [4]  37 00 E0 5A ::
whereamiRawData(
    RawSpeed: 0.55 km/h,
    RawDistance: 23264 m
)
 (102.971632)  can0  464   [8]  4D 66 6C 02 C6 96 07 F9 ::
whereamiCoords(
    Latitude: 40.658508999999995 °,
    Longitude: -116.943162 °
)
 (103.973509)  can0  460   [4]  20 00 E1 5A ::
whereamiData(
    Speed: 0.32 km/h,
    Distance: 23265 m
)
 (103.973726)  can0  462   [4]  37 00 E1 5A ::
whereamiRawData(
    RawSpeed: 0.55 km/h,
    RawDistance: 23265 m
)
 (103.973925)  can0  464   [8]  4E 66 6C 02 C7 96 07 F9 ::
whereamiCoords(
    Latitude: 40.65851 °,
    Longitude: -116.94316099999999 °
)
 (104.977281)  can0  460   [4]  2B 00 E1 5A ::
whereamiData(
    Speed: 0.43 km/h,
    Distance: 23265 m
)
 (104.977514)  can0  462   [4]  4A 00 E1 5A ::
whereamiRawData(
    RawSpeed: 0.74 km/h,
    RawDistance: 23265 m
)
 (104.977716)  can0  464   [8]  4F 66 6C 02 C8 96 07 F9 ::
whereamiCoords(
    Latitude: 40.658511 °,
    Longitude: -116.94315999999999 °
)
 (105.977563)  can0  460   [4]  25 00 E1 5A ::
whereamiData(
    Speed: 0.37 km/h,
    Distance: 23265 m
)
 (105.977778)  can0  462   [4]  4A 00 E1 5A ::
whereamiRawData(
    RawSpeed: 0.74 km/h,
    RawDistance: 23265 m
)
 (105.977975)  can0  464   [8]  51 66 6C 02 C9 96 07 F9 ::
whereamiCoords(
    Latitude: 40.658513 °,
    Longitude: -116.943159 °
)
 (106.981321)  can0  460   [4]  2E 00 E1 5A ::
whereamiData(
    Speed: 0.46 km/h,
    Distance: 23265 m
)
 (106.981536)  can0  462   [4]  5C 00 E1 5A ::
whereamiRawData(
    RawSpeed: 0.92 km/h,
    RawDistance: 23265 m
)
 (106.981727)  can0  464   [8]  53 66 6C 02 CB 96 07 F9 ::
whereamiCoords(
    Latitude: 40.658515 °,
    Longitude: -116.943157 °
)
 (107.983354)  can0  460   [4]  26 00 E1 5A ::
whereamiData(
    Speed: 0.38 km/h,
    Distance: 23265 m
)
 (107.983571)  can0  462   [4]  5C 00 E1 5A ::
whereamiRawData(
    RawSpeed: 0.92 km/h,
    RawDistance: 23265 m
)
 (107.983767)  can0  464   [8]  55 66 6C 02 CD 96 07 F9 ::
whereamiCoords(
    Latitude: 40.658516999999996 °,
    Longitude: -116.94315499999999 °
)
 (108.983381)  can0  460   [4]  2E 00 E2 5A ::
whereamiData(
    Speed: 0.46 km/h,
    Distance: 23266 m
)
 (108.983603)  can0  462   [4]  6F 00 E2 5A ::
whereamiRawData(
    RawSpeed: 1.11 km/h,
    RawDistance: 23266 m
)
 (108.983813)  can0  464   [8]  57 66 6C 02 CF 96 07 F9 ::
whereamiCoords(
    Latitude: 40.658519 °,
    Longitude: -116.943153 °
)
 (109.981678)  can0  460   [4]  36 00 E2 5A ::
whereamiData(
    Speed: 0.54 km/h,
    Distance: 23266 m
)
 (109.981905)  can0  462   [4]  81 00 E2 5A ::
whereamiRawData(
    RawSpeed: 1.29 km/h,
    RawDistance: 23266 m
)
 (109.982118)  can0  464   [8]  5A 66 6C 02 D1 96 07 F9 ::
whereamiCoords(
    Latitude: 40.658522 °,
    Longitude: -116.943151 °
)
 (110.981438)  can0  460   [4]  3D 00 E3 5A ::
whereamiData(
    Speed: 0.61 km/h,
    Distance: 23267 m
)
 (110.981653)  can0  462   [4]  94 00 E3 5A ::
whereamiRawData(
    RawSpeed: 1.48 km/h,
    RawDistance: 23267 m
)
 (110.981852)  can0  464   [8]  5D 66 6C 02 D4 96 07 F9 ::
whereamiCoords(
    Latitude: 40.658525 °,
    Longitude: -116.943148 °
)
 (111.981460)  can0  460   [4]  45 00 E3 5A ::
whereamiData(
    Speed: 0.6900000000000001 km/h,
    Distance: 23267 m
)
 (111.981681)  can0  462   [4]  A6 00 E3 5A ::
whereamiRawData(
    RawSpeed: 1.6600000000000001 km/h,
    RawDistance: 23267 m
)
 (111.981884)  can0  464   [8]  61 66 6C 02 D7 96 07 F9 ::
whereamiCoords(
    Latitude: 40.658529 °,
    Longitude: -116.943145 °
)
 (112.985490)  can0  460   [4]  3C 00 E4 5A ::
whereamiData(
    Speed: 0.6 km/h,
    Distance: 23268 m
)
 (112.985712)  can0  462   [4]  B9 00 E4 5A ::
whereamiRawData(
    RawSpeed: 1.85 km/h,
    RawDistance: 23268 m
)
 (112.985916)  can0  464   [8]  64 66 6C 02 DA 96 07 F9 ::
whereamiCoords(
    Latitude: 40.658532 °,
    Longitude: -116.943142 °
)
 (113.983522)  can0  460   [4]  07 00 E4 5A ::
whereamiData(
    Speed: 0.07 km/h,
    Distance: 23268 m
)
 (113.983734)  can0  462   [4]  12 00 E4 5A ::
whereamiRawData(
    RawSpeed: 0.18 km/h,
    RawDistance: 23268 m
)
 (113.983926)  can0  464   [8]  65 66 6C 02 DA 96 07 F9 ::
whereamiCoords(
    Latitude: 40.658533 °,
    Longitude: -116.943142 °
)
 (114.985547)  can0  460   [4]  07 00 E4 5A ::
whereamiData(
    Speed: 0.07 km/h,
    Distance: 23268 m
)
 (114.985770)  can0  462   [4]  12 00 E4 5A ::
whereamiRawData(
    RawSpeed: 0.18 km/h,
    RawDistance: 23268 m
)
 (114.985963)  can0  464   [8]  65 66 6C 02 DB 96 07 F9 ::
whereamiCoords(
    Latitude: 40.658533 °,
    Longitude: -116.943141 °
)
 (115.985481)  can0  460   [4]  00 00 E4 5A ::
whereamiData(
    Speed: 0.0 km/h,
    Distance: 23268 m
)
 (115.985705)  can0  462   [4]  00 00 E4 5A ::
whereamiRawData(
    RawSpeed: 0.0 km/h,
    RawDistance: 23268 m
)
 (115.985905)  can0  464   [8]  65 66 6C 02 DB 96 07 F9 ::
whereamiCoords(
    Latitude: 40.658533 °,
    Longitude: -116.943141 °
)
 (116.983599)  can0  460   [4]  09 00 E4 5A ::
whereamiData(
    Speed: 0.09 km/h,
    Distance: 23268 m
)
 (116.983815)  can0  462   [4]  12 00 E4 5A ::
whereamiRawData(
    RawSpeed: 0.18 km/h,
    RawDistance: 23268 m
)
 (116.984008)  can0  464   [8]  65 66 6C 02 DB 96 07 F9 ::
whereamiCoords(
    Latitude: 40.658533 °,
    Longitude: -116.943141 °
)
 (117.989624)  can0  460   [4]  A9 01 E4 5A ::
whereamiData(
    Speed: 4.25 km/h,
    Distance: 23268 m
)
 (117.989844)  can0  462   [4]  A9 01 E4 5A ::
whereamiRawData(
    RawSpeed: 4.25 km/h,
    RawDistance: 23268 m
)
 (117.990056)  can0  464   [8]  6A 66 6C 02 DF 96 07 F9 ::
whereamiCoords(
    Latitude: 40.658538 °,
    Longitude: -116.943137 °
)
 (118.991654)  can0  460   [4]  A1 01 E6 5A ::
whereamiData(
    Speed: 4.17 km/h,
    Distance: 23270 m
)
 (118.991868)  can0  462   [4]  53 03 E6 5A ::
whereamiRawData(
    RawSpeed: 8.51 km/h,
    RawDistance: 23270 m
)
 (118.992065)  can0  464   [8]  78 66 6C 02 ED 96 07 F9 ::
whereamiCoords(
    Latitude: 40.658552 °,
    Longitude: -116.943123 °
)
 (119.991156)  can0  460   [4]  00 00 E9 5A ::
whereamiData(
    Speed: 0.0 km/h,
    Distance: 23273 m
)
 (119.991377)  can0  462   [4]  8E 04 E9 5A ::
whereamiRawData(
    RawSpeed: 11.66 km/h,
    RawDistance: 23273 m
)
 (119.991582)  can0  464   [8]  8E 66 6C 02 01 97 07 F9 ::
whereamiCoords(
    Latitude: 40.658574 °,
    Longitude: -116.943103 °
)
 (120.991276)  can0  460   [4]  00 00 ED 5A ::
whereamiData(
    Speed: 0.0 km/h,
    Distance: 23277 m
)
 (120.991489)  can0  462   [4]  A4 05 ED 5A ::
whereamiRawData(
    RawSpeed: 14.44 km/h,
    RawDistance: 23277 m
)
 (120.991687)  can0  464   [8]  A8 66 6C 02 1C 97 07 F9 ::
whereamiCoords(
    Latitude: 40.6586 °,
    Longitude: -116.94307599999999 °
)
 (121.991996)  can0  460   [4]  00 00 F1 5A ::
whereamiData(
    Speed: 0.0 km/h,
    Distance: 23281 m
)
 (121.992212)  can0  462   [4]  95 06 F1 5A ::
whereamiRawData(
    RawSpeed: 16.85 km/h,
    RawDistance: 23281 m
)
 (121.992411)  can0  464   [8]  C8 66 6C 02 3C 97 07 F9 ::
whereamiCoords(
    Latitude: 40.658632 °,
    Longitude: -116.943044 °
)
 (122.995772)  can0  460   [4]  58 00 F2 5A ::
whereamiData(
    Speed: 0.88 km/h,
    Distance: 23282 m
)
 (122.995989)  can0  462   [4]  CB 00 F2 5A ::
whereamiRawData(
    RawSpeed: 2.0300000000000002 km/h,
    RawDistance: 23282 m
)
 (122.996184)  can0  464   [8]  CB 66 6C 02 41 97 07 F9 ::
whereamiCoords(
    Latitude: 40.658635 °,
    Longitude: -116.943039 °
)
 (123.999789)  can0  460   [4]  34 00 F2 5A ::
whereamiData(
    Speed: 0.52 km/h,
    Distance: 23282 m
)
 (124.000004)  can0  462   [4]  37 00 F2 5A ::
whereamiRawData(
    RawSpeed: 0.55 km/h,
    RawDistance: 23282 m
)
 (124.000202)  can0  464   [8]  CC 66 6C 02 42 97 07 F9 ::
whereamiCoords(
    Latitude: 40.658636 °,
    Longitude: -116.943038 °
)
 (125.001811)  can0  460   [4]  00 00 F2 5A ::
whereamiData(
    Speed: 0.0 km/h,
    Distance: 23282 m
)
 (125.002029)  can0  462   [4]  00 00 F2 5A ::
whereamiRawData(
    RawSpeed: 0.0 km/h,
    RawDistance: 23282 m
)
 (125.002223)  can0  464   [8]  CD 66 6C 02 42 97 07 F9 ::
whereamiCoords(
    Latitude: 40.658637 °,
    Longitude: -116.943038 °
)
 (126.001663)  can0  460   [4]  00 00 F2 5A ::
whereamiData(
    Speed: 0.0 km/h,
    Distance: 23282 m
)
 (126.001884)  can0  462   [4]  00 00 F2 5A ::
whereamiRawData(
    RawSpeed: 0.0 km/h,
    RawDistance: 23282 m
)
 (126.002078)  can0  464   [8]  CD 66 6C 02 42 97 07 F9 ::
whereamiCoords(
    Latitude: 40.658637 °,
    Longitude: -116.943038 °
)
 (127.001867)  can0  460   [4]  00 00 F2 5A ::
whereamiData(
    Speed: 0.0 km/h,
    Distance: 23282 m
)
 (127.002082)  can0  462   [4]  00 00 F2 5A ::
whereamiRawData(
    RawSpeed: 0.0 km/h,
    RawDistance: 23282 m
)
 (127.002280)  can0  464   [8]  CD 66 6C 02 42 97 07 F9 ::
whereamiCoords(
    Latitude: 40.658637 °,
    Longitude: -116.943038 °
)
 (128.006076)  can0  460   [4]  00 00 F2 5A ::
whereamiData(
    Speed: 0.0 km/h,
    Distance: 23282 m
)
 (128.006309)  can0  462   [4]  00 00 F2 5A ::
whereamiRawData(
    RawSpeed: 0.0 km/h,
    RawDistance: 23282 m
)
 (128.006510)  can0  464   [8]  CD 66 6C 02 43 97 07 F9 ::
whereamiCoords(
    Latitude: 40.658637 °,
    Longitude: -116.94303699999999 °
)
 (129.007750)  can0  460   [4]  00 00 F2 5A ::
whereamiData(
    Speed: 0.0 km/h,
    Distance: 23282 m
)
 (129.007972)  can0  462   [4]  00 00 F2 5A ::
whereamiRawData(
    RawSpeed: 0.0 km/h,
    RawDistance: 23282 m
)
 (129.008172)  can0  464   [8]  CD 66 6C 02 43 97 07 F9 ::
whereamiCoords(
    Latitude: 40.658637 °,
    Longitude: -116.94303699999999 °
)
 (130.007951)  can0  460   [4]  00 00 F2 5A ::
whereamiData(
    Speed: 0.0 km/h,
    Distance: 23282 m
)
 (130.008172)  can0  462   [4]  00 00 F2 5A ::
whereamiRawData(
    RawSpeed: 0.0 km/h,
    RawDistance: 23282 m
)
 (130.008381)  can0  464   [8]  CD 66 6C 02 43 97 07 F9 ::
whereamiCoords(
    Latitude: 40.658637 °,
    Longitude: -116.94303699999999 °
)
 (131.008168)  can0  460   [4]  00 00 F2 5A ::
whereamiData(
    Speed: 0.0 km/h,
    Distance: 23282 m
)
 (131.008394)  can0  462   [4]  00 00 F2 5A ::
whereamiRawData(
    RawSpeed: 0.0 km/h,
    RawDistance: 23282 m
)
 (131.008591)  can0  464   [8]  CD 66 6C 02 43 97 07 F9 ::
whereamiCoords(
    Latitude: 40.658637 °,
    Longitude: -116.94303699999999 °
)
 (132.011830)  can0  460   [4]  00 00 F2 5A ::
whereamiData(
    Speed: 0.0 km/h,
    Distance: 23282 m
)
 (132.012046)  can0  462   [4]  00 00 F2 5A ::
whereamiRawData(
    RawSpeed: 0.0 km/h,
    RawDistance: 23282 m
)
 (132.012238)  can0  464   [8]  CD 66 6C 02 43 97 07 F9 ::
whereamiCoords(
    Latitude: 40.658637 °,
    Longitude: -116.94303699999999 °
)
 (133.012035)  can0  460   [4]  00 00 F2 5A ::
whereamiData(
    Speed: 0.0 km/h,
    Distance: 23282 m
)
 (133.012251)  can0  462   [4]  00 00 F2 5A ::
whereamiRawData(
    RawSpeed: 0.0 km/h,
    RawDistance: 23282 m
)
 (133.012448)  can0  464   [8]  CD 66 6C 02 43 97 07 F9 ::
whereamiCoords(
    Latitude: 40.658637 °,
    Longitude: -116.94303699999999 °
)
 (134.014059)  can0  460   [4]  00 00 F2 5A ::
whereamiData(
    Speed: 0.0 km/h,
    Distance: 23282 m
)
 (134.014279)  can0  462   [4]  00 00 F2 5A ::
whereamiRawData(
    RawSpeed: 0.0 km/h,
    RawDistance: 23282 m
)
 (134.014480)  can0  464   [8]  CD 66 6C 02 43 97 07 F9 ::
whereamiCoords(
    Latitude: 40.658637 °,
    Longitude: -116.94303699999999 °
)
 (135.014086)  can0  460   [4]  00 00 F2 5A ::
whereamiData(
    Speed: 0.0 km/h,
    Distance: 23282 m
)
 (135.014304)  can0  462   [4]  00 00 F2 5A ::
whereamiRawData(
    RawSpeed: 0.0 km/h,
    RawDistance: 23282 m
)
 (135.014499)  can0  464   [8]  CE 66 6C 02 43 97 07 F9 ::
whereamiCoords(
    Latitude: 40.658637999999996 °,
    Longitude: -116.94303699999999 °
)
 (136.016368)  can0  460   [4]  00 00 F2 5A ::
whereamiData(
    Speed: 0.0 km/h,
    Distance: 23282 m
)
 (136.016595)  can0  462   [4]  12 00 F2 5A ::
whereamiRawData(
    RawSpeed: 0.18 km/h,
    RawDistance: 23282 m
)
