 (000.000000)  can0  421   [2]  00 00 ::
GretaData(
    TelekBattery: 0 %,
    RxShifting: 0
)
 (000.070504)  can0  421   [2]  00 00 ::
GretaData(
    TelekBattery: 0 %,
    RxShifting: 0
)
 (000.140981)  can0  421   [2]  00 00 ::
GretaData(
    TelekBattery: 0 %,
    RxShifting: 0
)
 (000.157481)  can0  422   [1]  00 ::
GbData(
    GbGear: 0
)
 (000.211477)  can0  421   [2]  00 00 ::
GretaData(
    TelekBattery: 0 %,
    RxShifting: 0
)
 (000.281971)  can0  421   [2]  00 00 ::
GretaData(
    TelekBattery: 0 %,
    RxShifting: 0
)
 (000.352451)  can0  421   [2]  00 00 ::
GretaData(
    TelekBattery: 0 %,
    RxShifting: 0
)
 (000.422947)  can0  421   [2]  00 00 ::
GretaData(
    TelekBattery: 0 %,
    RxShifting: 0
)
 (000.493439)  can0  421   [2]  00 00 ::
GretaData(
    TelekBattery: 0 %,
    RxShifting: 0
)
 (000.563925)  can0  421   [2]  00 00 ::
GretaData(
    TelekBattery: 0 %,
    RxShifting: 0
)
 (000.634412)  can0  421   [2]  00 00 ::
GretaData(
    TelekBattery: 0 %,
    RxShifting: 0
)
 (000.704899)  can0  421   [2]  00 00 ::
GretaData(
    TelekBattery: 0 %,
    RxShifting: 0
)
 (000.775395)  can0  421   [2]  00 00 ::
GretaData(
    TelekBattery: 0 %,
    RxShifting: 0
)
 (000.845892)  can0  421   [2]  00 00 ::
GretaData(
    TelekBattery: 0 %,
    RxShifting: 0
)
 (000.916395)  can0  421   [2]  00 00 ::
GretaData(
    TelekBattery: 0 %,
    RxShifting: 0
)
 (000.986869)  can0  421   [2]  00 00 ::
GretaData(
    TelekBattery: 0 %,
    RxShifting: 0
)
 (001.057362)  can0  421   [2]  00 00 ::
GretaData(
    TelekBattery: 0 %,
    RxShifting: 0
)
 (001.127850)  can0  421   [2]  00 00 ::
GretaData(
    TelekBattery: 0 %,
    RxShifting: 0
)
 (001.157526)  can0  422   [1]  00 ::
GbData(
    GbGear: 0
)
 (001.198340)  can0  421   [2]  00 00 ::
GretaData(
    TelekBattery: 0 %,
    RxShifting: 0
)
 (001.268844)  can0  421   [2]  00 00 ::
GretaData(
    TelekBattery: 0 %,
    RxShifting: 0
)
 (001.339326)  can0  421   [2]  00 00 ::
GretaData(
    TelekBattery: 0 %,
    RxShifting: 0
)
 (001.409806)  can0  421   [2]  00 00 ::
GretaData(
    TelekBattery: 0 %,
    RxShifting: 0
)
 (001.480300)  can0  421   [2]  00 00 ::
GretaData(
    TelekBattery: 0 %,
    RxShifting: 0
)
 (001.550788)  can0  421   [2]  00 00 ::
GretaData(
    TelekBattery: 0 %,
    RxShifting: 0
)
 (001.621285)  can0  421   [2]  00 00 ::
GretaData(
    TelekBattery: 0 %,
    RxShifting: 0
)
 (001.691787)  can0  421   [2]  00 00 ::
GretaData(
    TelekBattery: 0 %,
    RxShifting: 0
)
 (001.762277)  can0  421   [2]  00 00 ::
GretaData(
    TelekBattery: 0 %,
    RxShifting: 0
)
 (001.832780)  can0  421   [2]  00 00 ::
GretaData(
    TelekBattery: 0 %,
    RxShifting: 0
)
 (001.903264)  can0  421   [2]  00 00 ::
GretaData(
    TelekBattery: 0 %,
    RxShifting: 0
)
 (001.973763)  can0  421   [2]  00 00 ::
GretaData(
    TelekBattery: 0 %,
    RxShifting: 0
)
 (002.044251)  can0  421   [2]  00 00 ::
GretaData(
    TelekBattery: 0 %,
    RxShifting: 0
)
 (002.114752)  can0  421   [2]  00 00 ::
GretaData(
    TelekBattery: 0 %,
    RxShifting: 0
)
 (002.157515)  can0  422   [1]  00 ::
GbData(
    GbGear: 0
)
 (002.185237)  can0  421   [2]  00 00 ::
GretaData(
    TelekBattery: 0 %,
    RxShifting: 0
)
 (002.255737)  can0  421   [2]  00 00 ::
GretaData(
    TelekBattery: 0 %,
    RxShifting: 0
)
 (002.326237)  can0  421   [2]  00 00 ::
GretaData(
    TelekBattery: 0 %,
    RxShifting: 0
)
 (002.396729)  can0  421   [2]  00 00 ::
GretaData(
    TelekBattery: 0 %,
    RxShifting: 0
)
 (002.467220)  can0  421   [2]  00 00 ::
GretaData(
    TelekBattery: 0 %,
    RxShifting: 0
)
 (002.537713)  can0  421   [2]  00 00 ::
GretaData(
    TelekBattery: 0 %,
    RxShifting: 0
)
 (002.608216)  can0  421   [2]  00 00 ::
GretaData(
    TelekBattery: 0 %,
    RxShifting: 0
)
 (002.678706)  can0  421   [2]  00 00 ::
GretaData(
    TelekBattery: 0 %,
    RxShifting: 0
)
 (002.749193)  can0  421   [2]  00 00 ::
GretaData(
    TelekBattery: 0 %,
    RxShifting: 0
)
 (002.819682)  can0  421   [2]  00 00 ::
GretaData(
    TelekBattery: 0 %,
    RxShifting: 0
)
 (002.890182)  can0  421   [2]  00 00 ::
GretaData(
    TelekBattery: 0 %,
    RxShifting: 0
)
 (002.960658)  can0  421   [2]  00 00 ::
GretaData(
    TelekBattery: 0 %,
    RxShifting: 0
)
 (003.031160)  can0  421   [2]  00 00 ::
GretaData(
    TelekBattery: 0 %,
    RxShifting: 0
)
 (003.101640)  can0  421   [2]  00 00 ::
GretaData(
    TelekBattery: 0 %,
    RxShifting: 0
)
 (003.157522)  can0  422   [1]  00 ::
GbData(
    GbGear: 0
)
 (003.172098)  can0  421   [2]  00 00 ::
GretaData(
    TelekBattery: 0 %,
    RxShifting: 0
)
 (003.242611)  can0  421   [2]  00 00 ::
GretaData(
    TelekBattery: 0 %,
    RxShifting: 0
)
 (003.313090)  can0  421   [2]  00 00 ::
GretaData(
    TelekBattery: 0 %,
    RxShifting: 0
)
 (003.383568)  can0  421   [2]  00 00 ::
GretaData(
    TelekBattery: 0 %,
    RxShifting: 0
)
 (003.454045)  can0  421   [2]  00 00 ::
GretaData(
    TelekBattery: 0 %,
    RxShifting: 0
)
 (003.524528)  can0  421   [2]  00 00 ::
GretaData(
    TelekBattery: 0 %,
    RxShifting: 0
)
 (003.595005)  can0  421   [2]  00 00 ::
GretaData(
    TelekBattery: 0 %,
    RxShifting: 0
)
 (003.665518)  can0  421   [2]  00 00 ::
GretaData(
    TelekBattery: 0 %,
    RxShifting: 0
)
 (003.735983)  can0  421   [2]  00 00 ::
GretaData(
    TelekBattery: 0 %,
    RxShifting: 0
)
 (003.806455)  can0  421   [2]  00 00 ::
GretaData(
    TelekBattery: 0 %,
    RxShifting: 0
)
 (003.876940)  can0  421   [2]  00 00 ::
GretaData(
    TelekBattery: 0 %,
    RxShifting: 0
)
 (003.947433)  can0  421   [2]  00 00 ::
GretaData(
    TelekBattery: 0 %,
    RxShifting: 0
)
 (004.017920)  can0  421   [2]  00 00 ::
GretaData(
    TelekBattery: 0 %,
    RxShifting: 0
)
 (004.088413)  can0  421   [2]  00 00 ::
GretaData(
    TelekBattery: 0 %,
    RxShifting: 0
)
 (004.157555)  can0  422   [1]  00 ::
GbData(
    GbGear: 0
)
 (004.158857)  can0  421   [2]  00 00 ::
GretaData(
    TelekBattery: 0 %,
    RxShifting: 0
)
 (004.229368)  can0  421   [2]  00 00 ::
GretaData(
    TelekBattery: 0 %,
    RxShifting: 0
)
 (004.299847)  can0  421   [2]  00 00 ::
GretaData(
    TelekBattery: 0 %,
    RxShifting: 0
)
 (004.370332)  can0  421   [2]  00 00 ::
GretaData(
    TelekBattery: 0 %,
    RxShifting: 0
)
 (004.440826)  can0  421   [2]  00 00 ::
GretaData(
    TelekBattery: 0 %,
    RxShifting: 0
)
 (004.511318)  can0  421   [2]  00 00 ::
GretaData(
    TelekBattery: 0 %,
    RxShifting: 0
)
 (004.581802)  can0  421   [2]  00 00 ::
GretaData(
    TelekBattery: 0 %,
    RxShifting: 0
)
 (004.652270)  can0  421   [2]  00 00 ::
GretaData(
    TelekBattery: 0 %,
    RxShifting: 0
)
 (004.722756)  can0  421   [2]  00 00 ::
GretaData(
    TelekBattery: 0 %,
    RxShifting: 0
)
 (004.793229)  can0  421   [2]  00 00 ::
GretaData(
    TelekBattery: 0 %,
    RxShifting: 0
)
 (004.863704)  can0  421   [2]  00 00 ::
GretaData(
    TelekBattery: 0 %,
    RxShifting: 0
)
 (004.934187)  can0  421   [2]  00 00 ::
GretaData(
    TelekBattery: 0 %,
    RxShifting: 0
)
 (005.004653)  can0  421   [2]  00 00 ::
GretaData(
    TelekBattery: 0 %,
    RxShifting: 0
)
 (005.075123)  can0  421   [2]  00 00 ::
GretaData(
    TelekBattery: 0 %,
    RxShifting: 0
)
 (005.145605)  can0  421   [2]  00 00 ::
GretaData(
    TelekBattery: 0 %,
    RxShifting: 0
)
 (005.157549)  can0  422   [1]  00 ::
GbData(
    GbGear: 0
)
 (005.216072)  can0  421   [2]  00 00 ::
GretaData(
    TelekBattery: 0 %,
    RxShifting: 0
)
 (005.286544)  can0  421   [2]  00 00 ::
GretaData(
    TelekBattery: 0 %,
    RxShifting: 0
)
 (005.357025)  can0  421   [2]  00 00 ::
GretaData(
    TelekBattery: 0 %,
    RxShifting: 0
)
 (005.427501)  can0  421   [2]  00 00 ::
GretaData(
    TelekBattery: 0 %,
    RxShifting: 0
)
 (005.497989)  can0  421   [2]  00 00 ::
GretaData(
    TelekBattery: 0 %,
    RxShifting: 0
)
 (005.568473)  can0  421   [2]  00 00 ::
GretaData(
    TelekBattery: 0 %,
    RxShifting: 0
)
 (005.638950)  can0  421   [2]  00 00 ::
GretaData(
    TelekBattery: 0 %,
    RxShifting: 0
)
 (005.709435)  can0  421   [2]  00 00 ::
GretaData(
    TelekBattery: 0 %,
    RxShifting: 0
)
 (005.779929)  can0  421   [2]  00 00 ::
GretaData(
    TelekBattery: 0 %,
    RxShifting: 0
)
 (005.850403)  can0  421   [2]  00 00 ::
GretaData(
    TelekBattery: 0 %,
    RxShifting: 0
)
 (005.920889)  can0  421   [2]  00 00 ::
GretaData(
    TelekBattery: 0 %,
    RxShifting: 0
)
 (005.991374)  can0  421   [2]  00 00 ::
GretaData(
    TelekBattery: 0 %,
    RxShifting: 0
)
 (006.061856)  can0  421   [2]  00 00 ::
GretaData(
    TelekBattery: 0 %,
    RxShifting: 0
)
 (006.132336)  can0  421   [2]  00 00 ::
GretaData(
    TelekBattery: 0 %,
    RxShifting: 0
)
 (006.157583)  can0  422   [1]  00 ::
GbData(
    GbGear: 0
)
 (006.202826)  can0  421   [2]  00 00 ::
GretaData(
    TelekBattery: 0 %,
    RxShifting: 0
)
 (006.273298)  can0  421   [2]  00 00 ::
GretaData(
    TelekBattery: 0 %,
    RxShifting: 0
)
 (006.343784)  can0  421   [2]  00 00 ::
GretaData(
    TelekBattery: 0 %,
    RxShifting: 0
)
 (006.414260)  can0  421   [2]  00 00 ::
GretaData(
    TelekBattery: 0 %,
    RxShifting: 0
)
 (006.484741)  can0  421   [2]  00 00 ::
GretaData(
    TelekBattery: 0 %,
    RxShifting: 0
)
 (006.555227)  can0  421   [2]  00 00 ::
GretaData(
    TelekBattery: 0 %,
    RxShifting: 0
)
 (006.625722)  can0  421   [2]  00 00 ::
GretaData(
    TelekBattery: 0 %,
    RxShifting: 0
)
 (006.696193)  can0  421   [2]  00 00 ::
GretaData(
    TelekBattery: 0 %,
    RxShifting: 0
)
 (006.766664)  can0  421   [2]  00 00 ::
GretaData(
    TelekBattery: 0 %,
    RxShifting: 0
)
 (006.837138)  can0  421   [2]  00 00 ::
GretaData(
    TelekBattery: 0 %,
    RxShifting: 0
)
 (006.907622)  can0  421   [2]  00 00 ::
GretaData(
    TelekBattery: 0 %,
    RxShifting: 0
)
 (006.978103)  can0  421   [2]  00 00 ::
GretaData(
    TelekBattery: 0 %,
    RxShifting: 0
)
 (007.048591)  can0  421   [2]  00 00 ::
GretaData(
    TelekBattery: 0 %,
    RxShifting: 0
)
 (007.119056)  can0  421   [2]  00 00 ::
GretaData(
    TelekBattery: 0 %,
    RxShifting: 0
)
 (007.157599)  can0  422   [1]  00 ::
GbData(
    GbGear: 0
)
 (007.189540)  can0  421   [2]  00 00 ::
GretaData(
    TelekBattery: 0 %,
    RxShifting: 0
)
 (007.260018)  can0  421   [2]  00 00 ::
GretaData(
    TelekBattery: 0 %,
    RxShifting: 0
)
 (007.330500)  can0  421   [2]  00 00 ::
GretaData(
    TelekBattery: 0 %,
    RxShifting: 0
)
 (007.400978)  can0  421   [2]  00 00 ::
GretaData(
    TelekBattery: 0 %,
    RxShifting: 0
)
 (007.471467)  can0  421   [2]  00 00 ::
GretaData(
    TelekBattery: 0 %,
    RxShifting: 0
)
 (007.541947)  can0  421   [2]  00 00 ::
GretaData(
    TelekBattery: 0 %,
    RxShifting: 0
)
 (007.612438)  can0  421   [2]  00 00 ::
GretaData(
    TelekBattery: 0 %,
    RxShifting: 0
)
 (007.682923)  can0  421   [2]  00 00 ::
GretaData(
    TelekBattery: 0 %,
    RxShifting: 0
)
 (007.753407)  can0  421   [2]  00 00 ::
GretaData(
    TelekBattery: 0 %,
    RxShifting: 0
)
 (007.823889)  can0  421   [2]  00 00 ::
GretaData(
    TelekBattery: 0 %,
    RxShifting: 0
)
 (007.894368)  can0  421   [2]  00 00 ::
GretaData(
    TelekBattery: 0 %,
    RxShifting: 0
)
 (007.964859)  can0  421   [2]  00 00 ::
GretaData(
    TelekBattery: 0 %,
    RxShifting: 0
)
 (008.035329)  can0  421   [2]  00 00 ::
GretaData(
    TelekBattery: 0 %,
    RxShifting: 0
)
 (008.105808)  can0  421   [2]  00 00 ::
GretaData(
    TelekBattery: 0 %,
    RxShifting: 0
)
 (008.157615)  can0  422   [1]  00 ::
GbData(
    GbGear: 0
)
 (008.176276)  can0  421   [2]  00 00 ::
GretaData(
    TelekBattery: 0 %,
    RxShifting: 0
)
 (008.246765)  can0  421   [2]  00 00 ::
GretaData(
    TelekBattery: 0 %,
    RxShifting: 0
)
 (008.317240)  can0  421   [2]  00 00 ::
GretaData(
    TelekBattery: 0 %,
    RxShifting: 0
)
 (008.387721)  can0  421   [2]  00 00 ::
GretaData(
    TelekBattery: 0 %,
    RxShifting: 0
)
 (008.458201)  can0  421   [2]  00 00 ::
GretaData(
    TelekBattery: 0 %,
    RxShifting: 0
)
 (008.528682)  can0  421   [2]  00 00 ::
GretaData(
    TelekBattery: 0 %,
    RxShifting: 0
)
 (008.599161)  can0  421   [2]  00 00 ::
GretaData(
    TelekBattery: 0 %,
    RxShifting: 0
)
 (008.669654)  can0  421   [2]  00 00 ::
GretaData(
    TelekBattery: 0 %,
    RxShifting: 0
)
 (008.740135)  can0  421   [2]  00 00 ::
GretaData(
    TelekBattery: 0 %,
    RxShifting: 0
)
 (008.810618)  can0  421   [2]  00 00 ::
GretaData(
    TelekBattery: 0 %,
    RxShifting: 0
)
 (008.881108)  can0  421   [2]  00 00 ::
GretaData(
    TelekBattery: 0 %,
    RxShifting: 0
)
 (008.951615)  can0  421   [2]  00 00 ::
GretaData(
    TelekBattery: 0 %,
    RxShifting: 0
)
 (009.022096)  can0  421   [2]  00 00 ::
GretaData(
    TelekBattery: 0 %,
    RxShifting: 0
)
 (009.092606)  can0  421   [2]  00 00 ::
GretaData(
    TelekBattery: 0 %,
    RxShifting: 0
)
 (009.157633)  can0  422   [1]  00 ::
GbData(
    GbGear: 0
)
 (009.163066)  can0  421   [2]  00 00 ::
GretaData(
    TelekBattery: 0 %,
    RxShifting: 0
)
 (009.233555)  can0  421   [2]  00 00 ::
GretaData(
    TelekBattery: 0 %,
    RxShifting: 0
)
 (009.304042)  can0  421   [2]  00 00 ::
GretaData(
    TelekBattery: 0 %,
    RxShifting: 0
)
 (009.374526)  can0  421   [2]  00 00 ::
GretaData(
    TelekBattery: 0 %,
    RxShifting: 0
)
 (009.445008)  can0  421   [2]  00 00 ::
GretaData(
    TelekBattery: 0 %,
    RxShifting: 0
)
 (009.515515)  can0  421   [2]  00 00 ::
GretaData(
    TelekBattery: 0 %,
    RxShifting: 0
)
 (009.585993)  can0  421   [2]  00 00 ::
GretaData(
    TelekBattery: 0 %,
    RxShifting: 0
)
 (009.656488)  can0  421   [2]  00 00 ::
GretaData(
    TelekBattery: 0 %,
    RxShifting: 0
)
 (009.726982)  can0  421   [2]  00 00 ::
GretaData(
    TelekBattery: 0 %,
    RxShifting: 0
)
 (009.797483)  can0  421   [2]  00 00 ::
GretaData(
    TelekBattery: 0 %,
    RxShifting: 0
)
 (009.867985)  can0  421   [2]  00 00 ::
GretaData(
    TelekBattery: 0 %,
    RxShifting: 0
)
 (009.938471)  can0  421   [2]  00 00 ::
GretaData(
    TelekBattery: 0 %,
    RxShifting: 0
)
 (010.008965)  can0  421   [2]  00 00 ::
GretaData(
    TelekBattery: 0 %,
    RxShifting: 0
)
 (010.079455)  can0  421   [2]  00 00 ::
GretaData(
    TelekBattery: 0 %,
    RxShifting: 0
)
 (010.149961)  can0  421   [2]  00 00 ::
GretaData(
    TelekBattery: 0 %,
    RxShifting: 0
)
 (010.157646)  can0  422   [1]  00 ::
GbData(
    GbGear: 0
)
 (010.220468)  can0  421   [2]  00 00 ::
GretaData(
    TelekBattery: 0 %,
    RxShifting: 0
)
 (010.290959)  can0  421   [2]  00 00 ::
GretaData(
    TelekBattery: 0 %,
    RxShifting: 0
)
 (010.361454)  can0  421   [2]  00 00 ::
GretaData(
    TelekBattery: 0 %,
    RxShifting: 0
)
 (010.431945)  can0  421   [2]  00 00 ::
GretaData(
    TelekBattery: 0 %,
    RxShifting: 0
)
 (010.502461)  can0  421   [2]  00 00 ::
GretaData(
    TelekBattery: 0 %,
    RxShifting: 0
)
 (010.572942)  can0  421   [2]  00 00 ::
GretaData(
    TelekBattery: 0 %,
    RxShifting: 0
)
 (010.643440)  can0  421   [2]  00 00 ::
GretaData(
    TelekBattery: 0 %,
    RxShifting: 0
)
 (010.713944)  can0  421   [2]  00 00 ::
GretaData(
    TelekBattery: 0 %,
    RxShifting: 0
)
 (010.784444)  can0  421   [2]  00 00 ::
GretaData(
    TelekBattery: 0 %,
    RxShifting: 0
)
 (010.854936)  can0  421   [2]  00 00 ::
GretaData(
    TelekBattery: 0 %,
    RxShifting: 0
)
 (010.925425)  can0  421   [2]  00 00 ::
GretaData(
    TelekBattery: 0 %,
    RxShifting: 0
)
 (010.995962)  can0  421   [2]  00 00 ::
GretaData(
    TelekBattery: 0 %,
    RxShifting: 0
)
 (011.066403)  can0  421   [2]  00 00 ::
GretaData(
    TelekBattery: 0 %,
    RxShifting: 0
)
 (011.136894)  can0  421   [2]  00 00 ::
GretaData(
    TelekBattery: 0 %,
    RxShifting: 0
)
 (011.157664)  can0  422   [1]  00 ::
GbData(
    GbGear: 0
)
 (011.207400)  can0  421   [2]  00 00 ::
GretaData(
    TelekBattery: 0 %,
    RxShifting: 0
)
 (011.277889)  can0  421   [2]  00 00 ::
GretaData(
    TelekBattery: 0 %,
    RxShifting: 0
)
 (011.348413)  can0  421   [2]  00 00 ::
GretaData(
    TelekBattery: 0 %,
    RxShifting: 0
)
 (011.418877)  can0  421   [2]  00 00 ::
GretaData(
    TelekBattery: 0 %,
    RxShifting: 0
)
 (011.489379)  can0  421   [2]  00 00 ::
GretaData(
    TelekBattery: 0 %,
    RxShifting: 0
)
 (011.559883)  can0  421   [2]  00 00 ::
GretaData(
    TelekBattery: 0 %,
    RxShifting: 0
)
 (011.630375)  can0  421   [2]  00 00 ::
GretaData(
    TelekBattery: 0 %,
    RxShifting: 0
)
 (011.700865)  can0  421   [2]  00 00 ::
GretaData(
    TelekBattery: 0 %,
    RxShifting: 0
)
 (011.771362)  can0  421   [2]  00 00 ::
GretaData(
    TelekBattery: 0 %,
    RxShifting: 0
)
 (011.841865)  can0  421   [2]  00 00 ::
GretaData(
    TelekBattery: 0 %,
    RxShifting: 0
)
 (011.912398)  can0  421   [2]  00 00 ::
GretaData(
    TelekBattery: 0 %,
    RxShifting: 0
)
 (011.982895)  can0  421   [2]  00 00 ::
GretaData(
    TelekBattery: 0 %,
    RxShifting: 0
)
 (012.053424)  can0  421   [2]  00 00 ::
GretaData(
    TelekBattery: 0 %,
    RxShifting: 0
)
 (012.123930)  can0  421   [2]  00 00 ::
GretaData(
    TelekBattery: 0 %,
    RxShifting: 0
)
 (012.157678)  can0  422   [1]  00 ::
GbData(
    GbGear: 0
)
 (012.194432)  can0  421   [2]  00 00 ::
GretaData(
    TelekBattery: 0 %,
    RxShifting: 0
)
 (012.264937)  can0  421   [2]  00 00 ::
GretaData(
    TelekBattery: 0 %,
    RxShifting: 0
)
 (012.335420)  can0  421   [2]  00 00 ::
GretaData(
    TelekBattery: 0 %,
    RxShifting: 0
)
 (012.405907)  can0  421   [2]  00 00 ::
GretaData(
    TelekBattery: 0 %,
    RxShifting: 0
)
 (012.476392)  can0  421   [2]  00 00 ::
GretaData(
    TelekBattery: 0 %,
    RxShifting: 0
)
 (012.546914)  can0  421   [2]  00 00 ::
GretaData(
    TelekBattery: 0 %,
    RxShifting: 0
)
 (012.617367)  can0  421   [2]  00 00 ::
GretaData(
    TelekBattery: 0 %,
    RxShifting: 0
)
 (012.687845)  can0  421   [2]  00 00 ::
GretaData(
    TelekBattery: 0 %,
    RxShifting: 0
)
 (012.758332)  can0  421   [2]  00 00 ::
GretaData(
    TelekBattery: 0 %,
    RxShifting: 0
)
 (012.828820)  can0  421   [2]  00 00 ::
GretaData(
    TelekBattery: 0 %,
    RxShifting: 0
)
 (012.899309)  can0  421   [2]  00 00 ::
GretaData(
    TelekBattery: 0 %,
    RxShifting: 0
)
 (012.969811)  can0  421   [2]  00 00 ::
GretaData(
    TelekBattery: 0 %,
    RxShifting: 0
)
 (013.040301)  can0  421   [2]  00 00 ::
GretaData(
    TelekBattery: 0 %,
    RxShifting: 0
)
 (013.110793)  can0  421   [2]  00 00 ::
GretaData(
    TelekBattery: 0 %,
    RxShifting: 0
)
 (013.157691)  can0  422   [1]  00 ::
GbData(
    GbGear: 0
)
 (013.181302)  can0  421   [2]  00 00 ::
GretaData(
    TelekBattery: 0 %,
    RxShifting: 0
)
 (013.251781)  can0  421   [2]  00 00 ::
GretaData(
    TelekBattery: 0 %,
    RxShifting: 0
)
 (013.322290)  can0  421   [2]  00 00 ::
GretaData(
    TelekBattery: 0 %,
    RxShifting: 0
)
 (013.392768)  can0  421   [2]  00 00 ::
GretaData(
    TelekBattery: 0 %,
    RxShifting: 0
)
 (013.463269)  can0  421   [2]  00 00 ::
GretaData(
    TelekBattery: 0 %,
    RxShifting: 0
)
 (013.533764)  can0  421   [2]  00 00 ::
GretaData(
    TelekBattery: 0 %,
    RxShifting: 0
)
 (013.604259)  can0  421   [2]  00 00 ::
GretaData(
    TelekBattery: 0 %,
    RxShifting: 0
)
 (013.674753)  can0  421   [2]  00 00 ::
GretaData(
    TelekBattery: 0 %,
    RxShifting: 0
)
 (013.745243)  can0  421   [2]  00 00 ::
GretaData(
    TelekBattery: 0 %,
    RxShifting: 0
)
 (013.815735)  can0  421   [2]  00 00 ::
GretaData(
    TelekBattery: 0 %,
    RxShifting: 0
)
 (013.886225)  can0  421   [2]  00 00 ::
GretaData(
    TelekBattery: 0 %,
    RxShifting: 0
)
 (013.956717)  can0  421   [2]  00 00 ::
GretaData(
    TelekBattery: 0 %,
    RxShifting: 0
)
 (014.027214)  can0  421   [2]  00 00 ::
GretaData(
    TelekBattery: 0 %,
    RxShifting: 0
)
 (014.097688)  can0  421   [2]  00 00 ::
GretaData(
    TelekBattery: 0 %,
    RxShifting: 0
)
 (014.157714)  can0  422   [1]  00 ::
GbData(
    GbGear: 0
)
 (014.168169)  can0  421   [2]  00 00 ::
GretaData(
    TelekBattery: 0 %,
    RxShifting: 0
)
 (014.238649)  can0  421   [2]  00 00 ::
GretaData(
    TelekBattery: 0 %,
    RxShifting: 0
)
 (014.309132)  can0  421   [2]  00 00 ::
GretaData(
    TelekBattery: 0 %,
    RxShifting: 0
)
 (014.379632)  can0  421   [2]  00 00 ::
GretaData(
    TelekBattery: 0 %,
    RxShifting: 0
)
 (014.450112)  can0  421   [2]  00 00 ::
GretaData(
    TelekBattery: 0 %,
    RxShifting: 0
)
 (014.520608)  can0  421   [2]  00 00 ::
GretaData(
    TelekBattery: 0 %,
    RxShifting: 0
)
 (014.591090)  can0  421   [2]  00 00 ::
GretaData(
    TelekBattery: 0 %,
    RxShifting: 0
)
 (014.661566)  can0  421   [2]  00 00 ::
GretaData(
    TelekBattery: 0 %,
    RxShifting: 0
)
 (014.732051)  can0  421   [2]  00 00 ::
GretaData(
    TelekBattery: 0 %,
    RxShifting: 0
)
 (014.802541)  can0  421   [2]  00 00 ::
GretaData(
    TelekBattery: 0 %,
    RxShifting: 0
)
 (014.873028)  can0  421   [2]  00 00 ::
GretaData(
    TelekBattery: 0 %,
    RxShifting: 0
)
 (014.943499)  can0  421   [2]  00 00 ::
GretaData(
    TelekBattery: 0 %,
    RxShifting: 0
)
 (015.013977)  can0  421   [2]  00 00 ::
GretaData(
    TelekBattery: 0 %,
    RxShifting: 0
)
 (015.084450)  can0  421   [2]  00 00 ::
GretaData(
    TelekBattery: 0 %,
    RxShifting: 0
)
 (015.154928)  can0  421   [2]  00 00 ::
GretaData(
    TelekBattery: 0 %,
    RxShifting: 0
)
 (015.157702)  can0  422   [1]  00 ::
GbData(
    GbGear: 0
)
 (015.225421)  can0  421   [2]  00 00 ::
GretaData(
    TelekBattery: 0 %,
    RxShifting: 0
)
 (015.295908)  can0  421   [2]  00 00 ::
GretaData(
    TelekBattery: 0 %,
    RxShifting: 0
)
 (015.366405)  can0  421   [2]  00 00 ::
GretaData(
    TelekBattery: 0 %,
    RxShifting: 0
)
 (015.436894)  can0  421   [2]  00 00 ::
GretaData(
    TelekBattery: 0 %,
    RxShifting: 0
)
 (015.507388)  can0  421   [2]  00 00 ::
GretaData(
    TelekBattery: 0 %,
    RxShifting: 0
)
 (015.577844)  can0  421   [2]  00 00 ::
GretaData(
    TelekBattery: 0 %,
    RxShifting: 0
)
 (015.648328)  can0  421   [2]  00 00 ::
GretaData(
    TelekBattery: 0 %,
    RxShifting: 0
)
 (015.718827)  can0  421   [2]  00 00 ::
GretaData(
    TelekBattery: 0 %,
    RxShifting: 0
)
 (015.789304)  can0  421   [2]  00 00 ::
GretaData(
    TelekBattery: 0 %,
    RxShifting: 0
)
 (015.859797)  can0  421   [2]  00 00 ::
GretaData(
    TelekBattery: 0 %,
    RxShifting: 0
)
 (015.930259)  can0  421   [2]  00 00 ::
GretaData(
    TelekBattery: 0 %,
    RxShifting: 0
)
 (016.000746)  can0  421   [2]  00 00 ::
GretaData(
    TelekBattery: 0 %,
    RxShifting: 0
)
 (016.071248)  can0  421   [2]  00 00 ::
GretaData(
    TelekBattery: 0 %,
    RxShifting: 0
)
 (016.141720)  can0  421   [2]  00 00 ::
GretaData(
    TelekBattery: 0 %,
    RxShifting: 0
)
 (016.157752)  can0  422   [1]  00 ::
GbData(
    GbGear: 0
)
 (016.212203)  can0  421   [2]  00 00 ::
GretaData(
    TelekBattery: 0 %,
    RxShifting: 0
)
 (016.282681)  can0  421   [2]  00 00 ::
GretaData(
    TelekBattery: 0 %,
    RxShifting: 0
)
 (016.353158)  can0  421   [2]  00 00 ::
GretaData(
    TelekBattery: 0 %,
    RxShifting: 0
)
 (016.423653)  can0  421   [2]  00 00 ::
GretaData(
    TelekBattery: 0 %,
    RxShifting: 0
)
 (016.494137)  can0  421   [2]  00 00 ::
GretaData(
    TelekBattery: 0 %,
    RxShifting: 0
)
 (016.564640)  can0  421   [2]  00 00 ::
GretaData(
    TelekBattery: 0 %,
    RxShifting: 0
)
 (016.635109)  can0  421   [2]  00 00 ::
GretaData(
    TelekBattery: 0 %,
    RxShifting: 0
)
 (016.705586)  can0  421   [2]  00 00 ::
GretaData(
    TelekBattery: 0 %,
    RxShifting: 0
)
 (016.776076)  can0  421   [2]  00 00 ::
GretaData(
    TelekBattery: 0 %,
    RxShifting: 0
)
 (016.846569)  can0  421   [2]  00 00 ::
GretaData(
    TelekBattery: 0 %,
    RxShifting: 0
)
 (016.917044)  can0  421   [2]  00 00 ::
GretaData(
    TelekBattery: 0 %,
    RxShifting: 0
)
 (016.987529)  can0  421   [2]  00 00 ::
GretaData(
    TelekBattery: 0 %,
    RxShifting: 0
)
 (017.058026)  can0  421   [2]  00 00 ::
GretaData(
    TelekBattery: 0 %,
    RxShifting: 0
)
 (017.128507)  can0  421   [2]  00 00 ::
GretaData(
    TelekBattery: 0 %,
    RxShifting: 0
)
 (017.157759)  can0  422   [1]  00 ::
GbData(
    GbGear: 0
)
 (017.198985)  can0  421   [2]  00 00 ::
GretaData(
    TelekBattery: 0 %,
    RxShifting: 0
)
 (017.269484)  can0  421   [2]  00 00 ::
GretaData(
    TelekBattery: 0 %,
    RxShifting: 0
)
 (017.339934)  can0  421   [2]  00 00 ::
GretaData(
    TelekBattery: 0 %,
    RxShifting: 0
)
 (017.410419)  can0  421   [2]  00 00 ::
GretaData(
    TelekBattery: 0 %,
    RxShifting: 0
)
 (017.480907)  can0  421   [2]  00 00 ::
GretaData(
    TelekBattery: 0 %,
    RxShifting: 0
)
 (017.551388)  can0  421   [2]  00 00 ::
GretaData(
    TelekBattery: 0 %,
    RxShifting: 0
)
 (017.621872)  can0  421   [2]  00 00 ::
GretaData(
    TelekBattery: 0 %,
    RxShifting: 0
)
