 (000.000000)  can0  422   [1]  00 ::
GbData(
    GbGear: 0
)
 (000.621127)  can0  460   [4]  04 00 27 00 ::
whereamiData(
    Speed: 0.04 km/h,
    Distance: 39 m
)
 (000.621334)  can0  462   [4]  04 00 27 00 ::
whereamiRawData(
    RawSpeed: 0.04 km/h,
    RawDistance: 39 m
)
 (000.621526)  can0  464   [8]  07 68 AF 02 B4 02 75 00 ::
whereamiCoords(
    Latitude: 45.049862999999995 °,
    Longitude: 7.668404 °
)
 (001.000205)  can0  422   [1]  00 ::
GbData(
    GbGear: 0
)
 (001.683185)  can0  460   [4]  00 00 27 00 ::
whereamiData(
    Speed: 0.0 km/h,
    Distance: 39 m
)
 (001.683396)  can0  462   [4]  00 00 27 00 ::
whereamiRawData(
    RawSpeed: 0.0 km/h,
    RawDistance: 39 m
)
 (001.683589)  can0  464   [8]  07 68 AF 02 B4 02 75 00 ::
whereamiCoords(
    Latitude: 45.049862999999995 °,
    Longitude: 7.668404 °
)
 (002.000391)  can0  422   [1]  00 ::
GbData(
    GbGear: 0
)
 (002.641629)  can0  460   [4]  04 00 27 00 ::
whereamiData(
    Speed: 0.04 km/h,
    Distance: 39 m
)
 (002.641847)  can0  462   [4]  04 00 27 00 ::
whereamiRawData(
    RawSpeed: 0.04 km/h,
    RawDistance: 39 m
)
 (002.642036)  can0  464   [8]  07 68 AF 02 B4 02 75 00 ::
whereamiCoords(
    Latitude: 45.049862999999995 °,
    Longitude: 7.668404 °
)
 (003.000571)  can0  422   [1]  00 ::
GbData(
    GbGear: 0
)
 (003.707061)  can0  460   [4]  04 00 27 00 ::
whereamiData(
    Speed: 0.04 km/h,
    Distance: 39 m
)
 (003.707271)  can0  462   [4]  04 00 27 00 ::
whereamiRawData(
    RawSpeed: 0.04 km/h,
    RawDistance: 39 m
)
 (003.707461)  can0  464   [8]  07 68 AF 02 B4 02 75 00 ::
whereamiCoords(
    Latitude: 45.049862999999995 °,
    Longitude: 7.668404 °
)
 (004.000737)  can0  422   [1]  00 ::
GbData(
    GbGear: 0
)
 (004.671177)  can0  460   [4]  00 00 27 00 ::
whereamiData(
    Speed: 0.0 km/h,
    Distance: 39 m
)
 (004.671386)  can0  462   [4]  00 00 27 00 ::
whereamiRawData(
    RawSpeed: 0.0 km/h,
    RawDistance: 39 m
)
 (004.671577)  can0  464   [8]  07 68 AF 02 B4 02 75 00 ::
whereamiCoords(
    Latitude: 45.049862999999995 °,
    Longitude: 7.668404 °
)
 (005.000905)  can0  422   [1]  00 ::
GbData(
    GbGear: 0
)
 (005.633230)  can0  460   [4]  36 00 28 00 ::
whereamiData(
    Speed: 0.54 km/h,
    Distance: 40 m
)
 (005.633440)  can0  462   [4]  36 00 28 00 ::
whereamiRawData(
    RawSpeed: 0.54 km/h,
    RawDistance: 40 m
)
 (005.633631)  can0  464   [8]  06 68 AF 02 B3 02 75 00 ::
whereamiCoords(
    Latitude: 45.049862 °,
    Longitude: 7.668403 °
)
 (006.001058)  can0  422   [1]  00 ::
GbData(
    GbGear: 0
)
 (006.699213)  can0  460   [4]  1B 00 28 00 ::
whereamiData(
    Speed: 0.27 km/h,
    Distance: 40 m
)
 (006.699421)  can0  462   [4]  1B 00 28 00 ::
whereamiRawData(
    RawSpeed: 0.27 km/h,
    RawDistance: 40 m
)
 (006.699613)  can0  464   [8]  05 68 AF 02 B3 02 75 00 ::
whereamiCoords(
    Latitude: 45.049861 °,
    Longitude: 7.668403 °
)
 (007.001203)  can0  422   [1]  00 ::
GbData(
    GbGear: 0
)
 (007.661169)  can0  460   [4]  0E 00 28 00 ::
whereamiData(
    Speed: 0.14 km/h,
    Distance: 40 m
)
 (007.661382)  can0  462   [4]  0E 00 28 00 ::
whereamiRawData(
    RawSpeed: 0.14 km/h,
    RawDistance: 40 m
)
 (007.661572)  can0  464   [8]  05 68 AF 02 B3 02 75 00 ::
whereamiCoords(
    Latitude: 45.049861 °,
    Longitude: 7.668403 °
)
 (008.001331)  can0  422   [1]  00 ::
GbData(
    GbGear: 0
)
 (008.623042)  can0  460   [4]  08 00 28 00 ::
whereamiData(
    Speed: 0.08 km/h,
    Distance: 40 m
)
 (008.623252)  can0  462   [4]  08 00 28 00 ::
whereamiRawData(
    RawSpeed: 0.08 km/h,
    RawDistance: 40 m
)
 (008.623444)  can0  464   [8]  04 68 AF 02 B2 02 75 00 ::
whereamiCoords(
    Latitude: 45.049859999999995 °,
    Longitude: 7.6684019999999995 °
)
 (009.001462)  can0  422   [1]  00 ::
GbData(
    GbGear: 0
)
 (009.687217)  can0  460   [4]  04 00 28 00 ::
whereamiData(
    Speed: 0.04 km/h,
    Distance: 40 m
)
 (009.687428)  can0  462   [4]  04 00 28 00 ::
whereamiRawData(
    RawSpeed: 0.04 km/h,
    RawDistance: 40 m
)
 (009.687619)  can0  464   [8]  04 68 AF 02 B2 02 75 00 ::
whereamiCoords(
    Latitude: 45.049859999999995 °,
    Longitude: 7.6684019999999995 °
)
 (010.001581)  can0  422   [1]  00 ::
GbData(
    GbGear: 0
)
 (010.649563)  can0  460   [4]  06 00 28 00 ::
whereamiData(
    Speed: 0.06 km/h,
    Distance: 40 m
)
 (010.649776)  can0  462   [4]  06 00 28 00 ::
whereamiRawData(
    RawSpeed: 0.06 km/h,
    RawDistance: 40 m
)
 (010.649968)  can0  464   [8]  04 68 AF 02 B2 02 75 00 ::
whereamiCoords(
    Latitude: 45.049859999999995 °,
    Longitude: 7.6684019999999995 °
)
 (011.001702)  can0  422   [1]  00 ::
GbData(
    GbGear: 0
)
 (011.717426)  can0  460   [4]  00 00 28 00 ::
whereamiData(
    Speed: 0.0 km/h,
    Distance: 40 m
)
 (011.717635)  can0  462   [4]  00 00 28 00 ::
whereamiRawData(
    RawSpeed: 0.0 km/h,
    RawDistance: 40 m
)
 (011.717825)  can0  464   [8]  04 68 AF 02 B2 02 75 00 ::
whereamiCoords(
    Latitude: 45.049859999999995 °,
    Longitude: 7.6684019999999995 °
)
 (012.001806)  can0  422   [1]  00 ::
GbData(
    GbGear: 0
)
 (012.679863)  can0  460   [4]  00 00 28 00 ::
whereamiData(
    Speed: 0.0 km/h,
    Distance: 40 m
)
 (012.680071)  can0  462   [4]  00 00 28 00 ::
whereamiRawData(
    RawSpeed: 0.0 km/h,
    RawDistance: 40 m
)
 (012.680261)  can0  464   [8]  04 68 AF 02 B2 02 75 00 ::
whereamiCoords(
    Latitude: 45.049859999999995 °,
    Longitude: 7.6684019999999995 °
)
 (013.001912)  can0  422   [1]  00 ::
GbData(
    GbGear: 0
)
 (013.639970)  can0  460   [4]  00 00 28 00 ::
whereamiData(
    Speed: 0.0 km/h,
    Distance: 40 m
)
 (013.640179)  can0  462   [4]  00 00 28 00 ::
whereamiRawData(
    RawSpeed: 0.0 km/h,
    RawDistance: 40 m
)
 (013.640370)  can0  464   [8]  04 68 AF 02 B2 02 75 00 ::
whereamiCoords(
    Latitude: 45.049859999999995 °,
    Longitude: 7.6684019999999995 °
)
 (014.002004)  can0  422   [1]  00 ::
GbData(
    GbGear: 0
)
 (014.704167)  can0  460   [4]  04 00 28 00 ::
whereamiData(
    Speed: 0.04 km/h,
    Distance: 40 m
)
 (014.704373)  can0  462   [4]  04 00 28 00 ::
whereamiRawData(
    RawSpeed: 0.04 km/h,
    RawDistance: 40 m
)
 (014.704562)  can0  464   [8]  04 68 AF 02 B2 02 75 00 ::
whereamiCoords(
    Latitude: 45.049859999999995 °,
    Longitude: 7.6684019999999995 °
)
 (015.002103)  can0  422   [1]  00 ::
GbData(
    GbGear: 0
)
 (015.668672)  can0  460   [4]  00 00 28 00 ::
whereamiData(
    Speed: 0.0 km/h,
    Distance: 40 m
)
 (015.668884)  can0  462   [4]  00 00 28 00 ::
whereamiRawData(
    RawSpeed: 0.0 km/h,
    RawDistance: 40 m
)
 (015.669074)  can0  464   [8]  04 68 AF 02 B2 02 75 00 ::
whereamiCoords(
    Latitude: 45.049859999999995 °,
    Longitude: 7.6684019999999995 °
)
 (016.002191)  can0  422   [1]  00 ::
GbData(
    GbGear: 0
)
 (016.629087)  can0  460   [4]  00 00 28 00 ::
whereamiData(
    Speed: 0.0 km/h,
    Distance: 40 m
)
 (016.629295)  can0  462   [4]  00 00 28 00 ::
whereamiRawData(
    RawSpeed: 0.0 km/h,
    RawDistance: 40 m
)
 (016.629487)  can0  464   [8]  04 68 AF 02 B2 02 75 00 ::
whereamiCoords(
    Latitude: 45.049859999999995 °,
    Longitude: 7.6684019999999995 °
)
 (017.002275)  can0  422   [1]  00 ::
GbData(
    GbGear: 0
)
 (017.693462)  can0  460   [4]  00 00 28 00 ::
whereamiData(
    Speed: 0.0 km/h,
    Distance: 40 m
)
 (017.693673)  can0  462   [4]  00 00 28 00 ::
whereamiRawData(
    RawSpeed: 0.0 km/h,
    RawDistance: 40 m
)
 (017.693867)  can0  464   [8]  04 68 AF 02 B2 02 75 00 ::
whereamiCoords(
    Latitude: 45.049859999999995 °,
    Longitude: 7.6684019999999995 °
)
 (018.002357)  can0  422   [1]  00 ::
GbData(
    GbGear: 0
)
 (018.657758)  can0  460   [4]  00 00 28 00 ::
whereamiData(
    Speed: 0.0 km/h,
    Distance: 40 m
)
 (018.658012)  can0  462   [4]  00 00 28 00 ::
whereamiRawData(
    RawSpeed: 0.0 km/h,
    RawDistance: 40 m
)
 (018.658237)  can0  464   [8]  04 68 AF 02 B2 02 75 00 ::
whereamiCoords(
    Latitude: 45.049859999999995 °,
    Longitude: 7.6684019999999995 °
)
 (019.002431)  can0  422   [1]  00 ::
GbData(
    GbGear: 0
)
 (019.717244)  can0  460   [4]  00 00 28 00 ::
whereamiData(
    Speed: 0.0 km/h,
    Distance: 40 m
)
 (019.717452)  can0  462   [4]  00 00 28 00 ::
whereamiRawData(
    RawSpeed: 0.0 km/h,
    RawDistance: 40 m
)
 (019.717642)  can0  464   [8]  04 68 AF 02 B2 02 75 00 ::
whereamiCoords(
    Latitude: 45.049859999999995 °,
    Longitude: 7.6684019999999995 °
)
 (020.002502)  can0  422   [1]  00 ::
GbData(
    GbGear: 0
)
 (020.675108)  can0  460   [4]  00 00 28 00 ::
whereamiData(
    Speed: 0.0 km/h,
    Distance: 40 m
)
 (020.675316)  can0  462   [4]  00 00 28 00 ::
whereamiRawData(
    RawSpeed: 0.0 km/h,
    RawDistance: 40 m
)
 (020.675504)  can0  464   [8]  04 68 AF 02 B2 02 75 00 ::
whereamiCoords(
    Latitude: 45.049859999999995 °,
    Longitude: 7.6684019999999995 °
)
 (021.002573)  can0  422   [1]  00 ::
GbData(
    GbGear: 0
)
 (021.632497)  can0  460   [4]  00 00 28 00 ::
whereamiData(
    Speed: 0.0 km/h,
    Distance: 40 m
)
 (021.632708)  can0  462   [4]  00 00 28 00 ::
whereamiRawData(
    RawSpeed: 0.0 km/h,
    RawDistance: 40 m
)
 (021.632897)  can0  464   [8]  04 68 AF 02 B2 02 75 00 ::
whereamiCoords(
    Latitude: 45.049859999999995 °,
    Longitude: 7.6684019999999995 °
)
 (022.002636)  can0  422   [1]  00 ::
GbData(
    GbGear: 0
)
 (022.693631)  can0  460   [4]  00 00 28 00 ::
whereamiData(
    Speed: 0.0 km/h,
    Distance: 40 m
)
 (022.693838)  can0  462   [4]  00 00 28 00 ::
whereamiRawData(
    RawSpeed: 0.0 km/h,
    RawDistance: 40 m
)
 (022.694025)  can0  464   [8]  04 68 AF 02 B2 02 75 00 ::
whereamiCoords(
    Latitude: 45.049859999999995 °,
    Longitude: 7.6684019999999995 °
)
 (023.002701)  can0  422   [1]  00 ::
GbData(
    GbGear: 0
)
 (023.651086)  can0  460   [4]  00 00 28 00 ::
whereamiData(
    Speed: 0.0 km/h,
    Distance: 40 m
)
 (023.651305)  can0  462   [4]  00 00 28 00 ::
whereamiRawData(
    RawSpeed: 0.0 km/h,
    RawDistance: 40 m
)
 (023.651500)  can0  464   [8]  04 68 AF 02 B2 02 75 00 ::
whereamiCoords(
    Latitude: 45.049859999999995 °,
    Longitude: 7.6684019999999995 °
)
 (024.002766)  can0  422   [1]  00 ::
GbData(
    GbGear: 0
)
 (024.714202)  can0  460   [4]  00 00 28 00 ::
whereamiData(
    Speed: 0.0 km/h,
    Distance: 40 m
)
 (024.714414)  can0  462   [4]  00 00 28 00 ::
whereamiRawData(
    RawSpeed: 0.0 km/h,
    RawDistance: 40 m
)
 (024.714607)  can0  464   [8]  04 68 AF 02 B2 02 75 00 ::
whereamiCoords(
    Latitude: 45.049859999999995 °,
    Longitude: 7.6684019999999995 °
)
 (025.002819)  can0  422   [1]  00 ::
GbData(
    GbGear: 0
)
 (025.674345)  can0  460   [4]  00 00 28 00 ::
whereamiData(
    Speed: 0.0 km/h,
    Distance: 40 m
)
 (025.674551)  can0  462   [4]  00 00 28 00 ::
whereamiRawData(
    RawSpeed: 0.0 km/h,
    RawDistance: 40 m
)
 (025.674741)  can0  464   [8]  04 68 AF 02 B2 02 75 00 ::
whereamiCoords(
    Latitude: 45.049859999999995 °,
    Longitude: 7.6684019999999995 °
)
 (026.002875)  can0  422   [1]  00 ::
GbData(
    GbGear: 0
)
 (026.634263)  can0  460   [4]  00 00 28 00 ::
whereamiData(
    Speed: 0.0 km/h,
    Distance: 40 m
)
 (026.634470)  can0  462   [4]  00 00 28 00 ::
whereamiRawData(
    RawSpeed: 0.0 km/h,
    RawDistance: 40 m
)
 (026.634668)  can0  464   [8]  04 68 AF 02 B2 02 75 00 ::
whereamiCoords(
    Latitude: 45.049859999999995 °,
    Longitude: 7.6684019999999995 °
)
 (027.002927)  can0  422   [1]  00 ::
GbData(
    GbGear: 0
)
 (027.694264)  can0  460   [4]  00 00 28 00 ::
whereamiData(
    Speed: 0.0 km/h,
    Distance: 40 m
)
 (027.694471)  can0  462   [4]  00 00 28 00 ::
whereamiRawData(
    RawSpeed: 0.0 km/h,
    RawDistance: 40 m
)
 (027.694669)  can0  464   [8]  04 68 AF 02 B2 02 75 00 ::
whereamiCoords(
    Latitude: 45.049859999999995 °,
    Longitude: 7.6684019999999995 °
)
 (028.002980)  can0  422   [1]  00 ::
GbData(
    GbGear: 0
)
 (028.656236)  can0  460   [4]  00 00 28 00 ::
whereamiData(
    Speed: 0.0 km/h,
    Distance: 40 m
)
 (028.656455)  can0  462   [4]  00 00 28 00 ::
whereamiRawData(
    RawSpeed: 0.0 km/h,
    RawDistance: 40 m
)
 (028.656649)  can0  464   [8]  04 68 AF 02 B2 02 75 00 ::
whereamiCoords(
    Latitude: 45.049859999999995 °,
    Longitude: 7.6684019999999995 °
)
 (029.003029)  can0  422   [1]  00 ::
GbData(
    GbGear: 0
)
 (029.717885)  can0  460   [4]  00 00 28 00 ::
whereamiData(
    Speed: 0.0 km/h,
    Distance: 40 m
)
 (029.718092)  can0  462   [4]  00 00 28 00 ::
whereamiRawData(
    RawSpeed: 0.0 km/h,
    RawDistance: 40 m
)
 (029.718287)  can0  464   [8]  04 68 AF 02 B2 02 75 00 ::
whereamiCoords(
    Latitude: 45.049859999999995 °,
    Longitude: 7.6684019999999995 °
)
 (030.003081)  can0  422   [1]  00 ::
GbData(
    GbGear: 0
)
 (030.678040)  can0  460   [4]  0D 00 28 00 ::
whereamiData(
    Speed: 0.13 km/h,
    Distance: 40 m
)
 (030.678247)  can0  462   [4]  0D 00 28 00 ::
whereamiRawData(
    RawSpeed: 0.13 km/h,
    RawDistance: 40 m
)
 (030.678437)  can0  464   [8]  05 68 AF 02 B2 02 75 00 ::
whereamiCoords(
    Latitude: 45.049861 °,
    Longitude: 7.6684019999999995 °
)
 (031.003121)  can0  422   [1]  00 ::
GbData(
    GbGear: 0
)
 (031.639615)  can0  460   [4]  06 00 28 00 ::
whereamiData(
    Speed: 0.06 km/h,
    Distance: 40 m
)
 (031.639826)  can0  462   [4]  06 00 28 00 ::
whereamiRawData(
    RawSpeed: 0.06 km/h,
    RawDistance: 40 m
)
 (031.640017)  can0  464   [8]  05 68 AF 02 B2 02 75 00 ::
whereamiCoords(
    Latitude: 45.049861 °,
    Longitude: 7.6684019999999995 °
)
 (032.003163)  can0  422   [1]  00 ::
GbData(
    GbGear: 0
)
 (032.698880)  can0  460   [4]  04 00 28 00 ::
whereamiData(
    Speed: 0.04 km/h,
    Distance: 40 m
)
 (032.699089)  can0  462   [4]  04 00 28 00 ::
whereamiRawData(
    RawSpeed: 0.04 km/h,
    RawDistance: 40 m
)
 (032.699278)  can0  464   [8]  05 68 AF 02 B2 02 75 00 ::
whereamiCoords(
    Latitude: 45.049861 °,
    Longitude: 7.6684019999999995 °
)
 (033.003205)  can0  422   [1]  00 ::
GbData(
    GbGear: 0
)
 (033.658772)  can0  460   [4]  00 00 28 00 ::
whereamiData(
    Speed: 0.0 km/h,
    Distance: 40 m
)
 (033.658981)  can0  462   [4]  00 00 28 00 ::
whereamiRawData(
    RawSpeed: 0.0 km/h,
    RawDistance: 40 m
)
 (033.659170)  can0  464   [8]  05 68 AF 02 B2 02 75 00 ::
whereamiCoords(
    Latitude: 45.049861 °,
    Longitude: 7.6684019999999995 °
)
 (034.003245)  can0  422   [1]  00 ::
GbData(
    GbGear: 0
)
 (034.718446)  can0  460   [4]  06 00 28 00 ::
whereamiData(
    Speed: 0.06 km/h,
    Distance: 40 m
)
 (034.718655)  can0  462   [4]  06 00 28 00 ::
whereamiRawData(
    RawSpeed: 0.06 km/h,
    RawDistance: 40 m
)
 (034.718851)  can0  464   [8]  05 68 AF 02 B2 02 75 00 ::
whereamiCoords(
    Latitude: 45.049861 °,
    Longitude: 7.6684019999999995 °
)
 (035.003288)  can0  422   [1]  00 ::
GbData(
    GbGear: 0
)
 (035.677902)  can0  460   [4]  06 00 28 00 ::
whereamiData(
    Speed: 0.06 km/h,
    Distance: 40 m
)
 (035.678113)  can0  462   [4]  06 00 28 00 ::
whereamiRawData(
    RawSpeed: 0.06 km/h,
    RawDistance: 40 m
)
 (035.678308)  can0  464   [8]  05 68 AF 02 B2 02 75 00 ::
whereamiCoords(
    Latitude: 45.049861 °,
    Longitude: 7.6684019999999995 °
)
 (036.003318)  can0  422   [1]  00 ::
GbData(
    GbGear: 0
)
 (036.637563)  can0  460   [4]  00 00 28 00 ::
whereamiData(
    Speed: 0.0 km/h,
    Distance: 40 m
)
 (036.637768)  can0  462   [4]  00 00 28 00 ::
whereamiRawData(
    RawSpeed: 0.0 km/h,
    RawDistance: 40 m
)
 (036.637964)  can0  464   [8]  05 68 AF 02 B2 02 75 00 ::
whereamiCoords(
    Latitude: 45.049861 °,
    Longitude: 7.6684019999999995 °
)
 (037.003362)  can0  422   [1]  00 ::
GbData(
    GbGear: 0
)
 (037.698247)  can0  460   [4]  00 00 28 00 ::
whereamiData(
    Speed: 0.0 km/h,
    Distance: 40 m
)
 (037.698454)  can0  462   [4]  00 00 28 00 ::
whereamiRawData(
    RawSpeed: 0.0 km/h,
    RawDistance: 40 m
)
 (037.698650)  can0  464   [8]  05 68 AF 02 B2 02 75 00 ::
whereamiCoords(
    Latitude: 45.049861 °,
    Longitude: 7.6684019999999995 °
)
 (038.003394)  can0  422   [1]  00 ::
GbData(
    GbGear: 0
)
 (038.656269)  can0  460   [4]  00 00 28 00 ::
whereamiData(
    Speed: 0.0 km/h,
    Distance: 40 m
)
 (038.656487)  can0  462   [4]  00 00 28 00 ::
whereamiRawData(
    RawSpeed: 0.0 km/h,
    RawDistance: 40 m
)
 (038.656692)  can0  464   [8]  05 68 AF 02 B2 02 75 00 ::
whereamiCoords(
    Latitude: 45.049861 °,
    Longitude: 7.6684019999999995 °
)
 (039.003434)  can0  422   [1]  00 ::
GbData(
    GbGear: 0
)
 (039.715909)  can0  460   [4]  06 00 28 00 ::
whereamiData(
    Speed: 0.06 km/h,
    Distance: 40 m
)
 (039.716119)  can0  462   [4]  06 00 28 00 ::
whereamiRawData(
    RawSpeed: 0.06 km/h,
    RawDistance: 40 m
)
 (039.716307)  can0  464   [8]  05 68 AF 02 B2 02 75 00 ::
whereamiCoords(
    Latitude: 45.049861 °,
    Longitude: 7.6684019999999995 °
)
 (040.003464)  can0  422   [1]  00 ::
GbData(
    GbGear: 0
)
 (040.677774)  can0  460   [4]  06 00 28 00 ::
whereamiData(
    Speed: 0.06 km/h,
    Distance: 40 m
)
 (040.677984)  can0  462   [4]  06 00 28 00 ::
whereamiRawData(
    RawSpeed: 0.06 km/h,
    RawDistance: 40 m
)
 (040.678170)  can0  464   [8]  05 68 AF 02 B2 02 75 00 ::
whereamiCoords(
    Latitude: 45.049861 °,
    Longitude: 7.6684019999999995 °
)
 (041.003503)  can0  422   [1]  00 ::
GbData(
    GbGear: 0
)
 (041.635653)  can0  460   [4]  06 00 28 00 ::
whereamiData(
    Speed: 0.06 km/h,
    Distance: 40 m
)
 (041.635863)  can0  462   [4]  06 00 28 00 ::
whereamiRawData(
    RawSpeed: 0.06 km/h,
    RawDistance: 40 m
)
 (041.636053)  can0  464   [8]  05 68 AF 02 B2 02 75 00 ::
whereamiCoords(
    Latitude: 45.049861 °,
    Longitude: 7.6684019999999995 °
)
 (042.003554)  can0  422   [1]  00 ::
GbData(
    GbGear: 0
)
 (042.697411)  can0  460   [4]  06 00 28 00 ::
whereamiData(
    Speed: 0.06 km/h,
    Distance: 40 m
)
 (042.697621)  can0  462   [4]  06 00 28 00 ::
whereamiRawData(
    RawSpeed: 0.06 km/h,
    RawDistance: 40 m
)
 (042.697817)  can0  464   [8]  05 68 AF 02 B2 02 75 00 ::
whereamiCoords(
    Latitude: 45.049861 °,
    Longitude: 7.6684019999999995 °
)
 (043.003562)  can0  422   [1]  00 ::
GbData(
    GbGear: 0
)
 (043.659408)  can0  460   [4]  06 00 28 00 ::
whereamiData(
    Speed: 0.06 km/h,
    Distance: 40 m
)
 (043.659622)  can0  462   [4]  06 00 28 00 ::
whereamiRawData(
    RawSpeed: 0.06 km/h,
    RawDistance: 40 m
)
 (043.659813)  can0  464   [8]  05 68 AF 02 B2 02 75 00 ::
whereamiCoords(
    Latitude: 45.049861 °,
    Longitude: 7.6684019999999995 °
)
 (044.003594)  can0  422   [1]  00 ::
GbData(
    GbGear: 0
)
 (044.717326)  can0  460   [4]  00 00 28 00 ::
whereamiData(
    Speed: 0.0 km/h,
    Distance: 40 m
)
 (044.717537)  can0  462   [4]  00 00 28 00 ::
whereamiRawData(
    RawSpeed: 0.0 km/h,
    RawDistance: 40 m
)
 (044.717730)  can0  464   [8]  05 68 AF 02 B2 02 75 00 ::
whereamiCoords(
    Latitude: 45.049861 °,
    Longitude: 7.6684019999999995 °
)
 (045.003628)  can0  422   [1]  00 ::
GbData(
    GbGear: 0
)
 (045.679793)  can0  460   [4]  1A 00 28 00 ::
whereamiData(
    Speed: 0.26 km/h,
    Distance: 40 m
)
 (045.680002)  can0  462   [4]  1A 00 28 00 ::
whereamiRawData(
    RawSpeed: 0.26 km/h,
    RawDistance: 40 m
)
 (045.680191)  can0  464   [8]  04 68 AF 02 B2 02 75 00 ::
whereamiCoords(
    Latitude: 45.049859999999995 °,
    Longitude: 7.6684019999999995 °
)
 (046.003665)  can0  422   [1]  00 ::
GbData(
    GbGear: 0
)
 (046.639896)  can0  460   [4]  0D 00 28 00 ::
whereamiData(
    Speed: 0.13 km/h,
    Distance: 40 m
)
 (046.640120)  can0  462   [4]  0D 00 28 00 ::
whereamiRawData(
    RawSpeed: 0.13 km/h,
    RawDistance: 40 m
)
 (046.640310)  can0  464   [8]  04 68 AF 02 B2 02 75 00 ::
whereamiCoords(
    Latitude: 45.049859999999995 °,
    Longitude: 7.6684019999999995 °
)
 (047.004065)  can0  422   [1]  00 ::
GbData(
    GbGear: 0
)
 (047.702444)  can0  460   [4]  06 00 28 00 ::
whereamiData(
    Speed: 0.06 km/h,
    Distance: 40 m
)
 (047.702661)  can0  462   [4]  06 00 28 00 ::
whereamiRawData(
    RawSpeed: 0.06 km/h,
    RawDistance: 40 m
)
 (047.702863)  can0  464   [8]  04 68 AF 02 B2 02 75 00 ::
whereamiCoords(
    Latitude: 45.049859999999995 °,
    Longitude: 7.6684019999999995 °
)
 (048.004949)  can0  422   [1]  00 ::
GbData(
    GbGear: 0
)
 (048.663309)  can0  460   [4]  06 00 28 00 ::
whereamiData(
    Speed: 0.06 km/h,
    Distance: 40 m
)
 (048.663520)  can0  462   [4]  06 00 28 00 ::
whereamiRawData(
    RawSpeed: 0.06 km/h,
    RawDistance: 40 m
)
 (048.663710)  can0  464   [8]  04 68 AF 02 B2 02 75 00 ::
whereamiCoords(
    Latitude: 45.049859999999995 °,
    Longitude: 7.6684019999999995 °
)
 (049.005818)  can0  422   [1]  00 ::
GbData(
    GbGear: 0
)
 (049.723783)  can0  460   [4]  06 00 28 00 ::
whereamiData(
    Speed: 0.06 km/h,
    Distance: 40 m
)
 (049.723996)  can0  462   [4]  06 00 28 00 ::
whereamiRawData(
    RawSpeed: 0.06 km/h,
    RawDistance: 40 m
)
 (049.724186)  can0  464   [8]  04 68 AF 02 B2 02 75 00 ::
whereamiCoords(
    Latitude: 45.049859999999995 °,
    Longitude: 7.6684019999999995 °
)
 (050.006674)  can0  422   [1]  00 ::
GbData(
    GbGear: 0
)
 (050.686605)  can0  460   [4]  00 00 28 00 ::
whereamiData(
    Speed: 0.0 km/h,
    Distance: 40 m
)
 (050.686815)  can0  462   [4]  00 00 28 00 ::
whereamiRawData(
    RawSpeed: 0.0 km/h,
    RawDistance: 40 m
)
 (050.687013)  can0  464   [8]  04 68 AF 02 B2 02 75 00 ::
whereamiCoords(
    Latitude: 45.049859999999995 °,
    Longitude: 7.6684019999999995 °
)
 (051.007484)  can0  422   [1]  00 ::
GbData(
    GbGear: 0
)
 (051.645379)  can0  460   [4]  00 00 28 00 ::
whereamiData(
    Speed: 0.0 km/h,
    Distance: 40 m
)
 (051.645617)  can0  462   [4]  00 00 28 00 ::
whereamiRawData(
    RawSpeed: 0.0 km/h,
    RawDistance: 40 m
)
 (051.645818)  can0  464   [8]  04 68 AF 02 B2 02 75 00 ::
whereamiCoords(
    Latitude: 45.049859999999995 °,
    Longitude: 7.6684019999999995 °
)
 (052.008286)  can0  422   [1]  00 ::
GbData(
    GbGear: 0
)
 (052.711962)  can0  460   [4]  0D 00 28 00 ::
whereamiData(
    Speed: 0.13 km/h,
    Distance: 40 m
)
 (052.712187)  can0  462   [4]  0D 00 28 00 ::
whereamiRawData(
    RawSpeed: 0.13 km/h,
    RawDistance: 40 m
)
 (052.712398)  can0  464   [8]  04 68 AF 02 B2 02 75 00 ::
whereamiCoords(
    Latitude: 45.049859999999995 °,
    Longitude: 7.6684019999999995 °
)
 (053.009058)  can0  422   [1]  00 ::
GbData(
    GbGear: 0
)
 (053.678927)  can0  460   [4]  0E 00 28 00 ::
whereamiData(
    Speed: 0.14 km/h,
    Distance: 40 m
)
 (053.679156)  can0  462   [4]  0E 00 28 00 ::
whereamiRawData(
    RawSpeed: 0.14 km/h,
    RawDistance: 40 m
)
 (053.679364)  can0  464   [8]  03 68 AF 02 B2 02 75 00 ::
whereamiCoords(
    Latitude: 45.049859 °,
    Longitude: 7.6684019999999995 °
)
 (054.009821)  can0  422   [1]  00 ::
GbData(
    GbGear: 0
)
 (054.658241)  can0  460   [4]  06 00 28 00 ::
whereamiData(
    Speed: 0.06 km/h,
    Distance: 40 m
)
 (054.658473)  can0  462   [4]  06 00 28 00 ::
whereamiRawData(
    RawSpeed: 0.06 km/h,
    RawDistance: 40 m
)
 (054.658692)  can0  464   [8]  03 68 AF 02 B2 02 75 00 ::
whereamiCoords(
    Latitude: 45.049859 °,
    Longitude: 7.6684019999999995 °
)
 (055.010561)  can0  422   [1]  00 ::
GbData(
    GbGear: 0
)
 (055.726968)  can0  460   [4]  04 00 28 00 ::
whereamiData(
    Speed: 0.04 km/h,
    Distance: 40 m
)
 (055.727189)  can0  462   [4]  04 00 28 00 ::
whereamiRawData(
    RawSpeed: 0.04 km/h,
    RawDistance: 40 m
)
 (055.727391)  can0  464   [8]  03 68 AF 02 B2 02 75 00 ::
whereamiCoords(
    Latitude: 45.049859 °,
    Longitude: 7.6684019999999995 °
)
 (056.011278)  can0  422   [1]  00 ::
GbData(
    GbGear: 0
)
 (056.692494)  can0  460   [4]  06 00 28 00 ::
whereamiData(
    Speed: 0.06 km/h,
    Distance: 40 m
)
 (056.692719)  can0  462   [4]  06 00 28 00 ::
whereamiRawData(
    RawSpeed: 0.06 km/h,
    RawDistance: 40 m
)
 (056.692920)  can0  464   [8]  03 68 AF 02 B2 02 75 00 ::
whereamiCoords(
    Latitude: 45.049859 °,
    Longitude: 7.6684019999999995 °
)
 (057.011977)  can0  422   [1]  00 ::
GbData(
    GbGear: 0
)
 (057.655815)  can0  460   [4]  00 00 28 00 ::
whereamiData(
    Speed: 0.0 km/h,
    Distance: 40 m
)
 (057.656043)  can0  462   [4]  00 00 28 00 ::
whereamiRawData(
    RawSpeed: 0.0 km/h,
    RawDistance: 40 m
)
 (057.656246)  can0  464   [8]  03 68 AF 02 B2 02 75 00 ::
whereamiCoords(
    Latitude: 45.049859 °,
    Longitude: 7.6684019999999995 °
)
 (058.012653)  can0  422   [1]  00 ::
GbData(
    GbGear: 0
)
 (058.718470)  can0  460   [4]  00 00 28 00 ::
whereamiData(
    Speed: 0.0 km/h,
    Distance: 40 m
)
 (058.718694)  can0  462   [4]  00 00 28 00 ::
whereamiRawData(
    RawSpeed: 0.0 km/h,
    RawDistance: 40 m
)
 (058.718897)  can0  464   [8]  03 68 AF 02 B2 02 75 00 ::
whereamiCoords(
    Latitude: 45.049859 °,
    Longitude: 7.6684019999999995 °
)
 (059.013315)  can0  422   [1]  00 ::
GbData(
    GbGear: 0
)
