 (000.000000)  can0  422   [1]  00 ::
GbData(
    GbGear: 0
)
 (000.758994)  can0  460   [4]  28 00 C6 C1 ::
whereamiData(
    Speed: 0.4 km/h,
    Distance: 49606 m
)
 (000.759216)  can0  462   [4]  39 00 C6 C1 ::
whereamiRawData(
    RawSpeed: 0.5700000000000001 km/h,
    RawDistance: 49606 m
)
 (000.759407)  can0  464   [8]  F1 67 AF 02 D6 02 75 00 ::
whereamiCoords(
    Latitude: 45.049841 °,
    Longitude: 7.668438 °
)
 (001.000013)  can0  422   [1]  00 ::
GbData(
    GbGear: 0
)
 (001.710836)  can0  460   [4]  23 00 C6 C1 ::
whereamiData(
    Speed: 0.35000000000000003 km/h,
    Distance: 49606 m
)
 (001.711062)  can0  462   [4]  33 00 C6 C1 ::
whereamiRawData(
    RawSpeed: 0.51 km/h,
    RawDistance: 49606 m
)
 (001.711263)  can0  464   [8]  F1 67 AF 02 D5 02 75 00 ::
whereamiCoords(
    Latitude: 45.049841 °,
    Longitude: 7.668437 °
)
 (002.000016)  can0  422   [1]  00 ::
GbData(
    GbGear: 0
)
 (002.762223)  can0  460   [4]  1B 00 C6 C1 ::
whereamiData(
    Speed: 0.27 km/h,
    Distance: 49606 m
)
 (002.762437)  can0  462   [4]  26 00 C6 C1 ::
whereamiRawData(
    RawSpeed: 0.38 km/h,
    RawDistance: 49606 m
)
 (002.762628)  can0  464   [8]  F0 67 AF 02 D4 02 75 00 ::
whereamiCoords(
    Latitude: 45.049839999999996 °,
    Longitude: 7.668436 °
)
 (003.000027)  can0  422   [1]  00 ::
GbData(
    GbGear: 0
)
 (003.714512)  can0  460   [4]  18 00 C6 C1 ::
whereamiData(
    Speed: 0.24 km/h,
    Distance: 49606 m
)
 (003.714739)  can0  462   [4]  22 00 C6 C1 ::
whereamiRawData(
    RawSpeed: 0.34 km/h,
    RawDistance: 49606 m
)
 (003.714938)  can0  464   [8]  EF 67 AF 02 D3 02 75 00 ::
whereamiCoords(
    Latitude: 45.049839 °,
    Longitude: 7.668435 °
)
 (004.000053)  can0  422   [1]  00 ::
GbData(
    GbGear: 0
)
 (004.764575)  can0  460   [4]  20 00 C6 C1 ::
whereamiData(
    Speed: 0.32 km/h,
    Distance: 49606 m
)
 (004.764794)  can0  462   [4]  2E 00 C6 C1 ::
whereamiRawData(
    RawSpeed: 0.46 km/h,
    RawDistance: 49606 m
)
 (004.764989)  can0  464   [8]  EE 67 AF 02 D3 02 75 00 ::
whereamiCoords(
    Latitude: 45.049838 °,
    Longitude: 7.668435 °
)
 (005.000059)  can0  422   [1]  00 ::
GbData(
    GbGear: 0
)
 (005.716769)  can0  460   [4]  29 00 C6 C1 ::
whereamiData(
    Speed: 0.41000000000000003 km/h,
    Distance: 49606 m
)
 (005.716981)  can0  462   [4]  3C 00 C6 C1 ::
whereamiRawData(
    RawSpeed: 0.6 km/h,
    RawDistance: 49606 m
)
 (005.717174)  can0  464   [8]  ED 67 AF 02 D4 02 75 00 ::
whereamiCoords(
    Latitude: 45.049837 °,
    Longitude: 7.668436 °
)
 (006.000067)  can0  422   [1]  00 ::
GbData(
    GbGear: 0
)
 (006.668910)  can0  460   [4]  1D 00 C6 C1 ::
whereamiData(
    Speed: 0.29 km/h,
    Distance: 49606 m
)
 (006.669132)  can0  462   [4]  2F 00 C6 C1 ::
whereamiRawData(
    RawSpeed: 0.47000000000000003 km/h,
    RawDistance: 49606 m
)
 (006.669321)  can0  464   [8]  EB 67 AF 02 D4 02 75 00 ::
whereamiCoords(
    Latitude: 45.049834999999995 °,
    Longitude: 7.668436 °
)
 (007.000083)  can0  422   [1]  00 ::
GbData(
    GbGear: 0
)
 (007.720697)  can0  460   [4]  2E 00 C7 C1 ::
whereamiData(
    Speed: 0.46 km/h,
    Distance: 49607 m
)
 (007.720910)  can0  462   [4]  4A 00 C7 C1 ::
whereamiRawData(
    RawSpeed: 0.74 km/h,
    RawDistance: 49607 m
)
 (007.721102)  can0  464   [8]  EA 67 AF 02 D5 02 75 00 ::
whereamiCoords(
    Latitude: 45.049834 °,
    Longitude: 7.668437 °
)
 (008.000105)  can0  422   [1]  00 ::
GbData(
    GbGear: 0
)
 (008.672536)  can0  460   [4]  44 00 C7 C1 ::
whereamiData(
    Speed: 0.68 km/h,
    Distance: 49607 m
)
 (008.672755)  can0  462   [4]  62 00 C7 C1 ::
whereamiRawData(
    RawSpeed: 0.98 km/h,
    RawDistance: 49607 m
)
 (008.672951)  can0  464   [8]  E8 67 AF 02 D7 02 75 00 ::
whereamiCoords(
    Latitude: 45.049831999999995 °,
    Longitude: 7.668438999999999 °
)
 (009.000105)  can0  422   [1]  00 ::
GbData(
    GbGear: 0
)
 (009.722387)  can0  460   [4]  3E 00 C7 C1 ::
whereamiData(
    Speed: 0.62 km/h,
    Distance: 49607 m
)
 (009.722618)  can0  462   [4]  64 00 C7 C1 ::
whereamiRawData(
    RawSpeed: 1.0 km/h,
    RawDistance: 49607 m
)
 (009.722808)  can0  464   [8]  E6 67 AF 02 D9 02 75 00 ::
whereamiCoords(
    Latitude: 45.04983 °,
    Longitude: 7.668441 °
)
 (010.000120)  can0  422   [1]  00 ::
GbData(
    GbGear: 0
)
 (010.672462)  can0  460   [4]  26 00 C7 C1 ::
whereamiData(
    Speed: 0.38 km/h,
    Distance: 49607 m
)
 (010.672684)  can0  462   [4]  3D 00 C7 C1 ::
whereamiRawData(
    RawSpeed: 0.61 km/h,
    RawDistance: 49607 m
)
 (010.672881)  can0  464   [8]  E5 67 AF 02 DB 02 75 00 ::
whereamiCoords(
    Latitude: 45.049828999999995 °,
    Longitude: 7.668443 °
)
 (011.000133)  can0  422   [1]  00 ::
GbData(
    GbGear: 0
)
 (011.728518)  can0  460   [4]  1A 00 C8 C1 ::
whereamiData(
    Speed: 0.26 km/h,
    Distance: 49608 m
)
 (011.728742)  can0  462   [4]  2A 00 C8 C1 ::
whereamiRawData(
    RawSpeed: 0.42 km/h,
    RawDistance: 49608 m
)
 (011.728935)  can0  464   [8]  E4 67 AF 02 DC 02 75 00 ::
whereamiCoords(
    Latitude: 45.049828 °,
    Longitude: 7.668444 °
)
 (012.000148)  can0  422   [1]  00 ::
GbData(
    GbGear: 0
)
 (012.678250)  can0  460   [4]  11 00 C8 C1 ::
whereamiData(
    Speed: 0.17 km/h,
    Distance: 49608 m
)
 (012.678464)  can0  462   [4]  1B 00 C8 C1 ::
whereamiRawData(
    RawSpeed: 0.27 km/h,
    RawDistance: 49608 m
)
 (012.678653)  can0  464   [8]  E5 67 AF 02 DD 02 75 00 ::
whereamiCoords(
    Latitude: 45.049828999999995 °,
    Longitude: 7.668444999999999 °
)
 (013.000161)  can0  422   [1]  00 ::
GbData(
    GbGear: 0
)
 (013.725868)  can0  460   [4]  19 00 C7 C1 ::
whereamiData(
    Speed: 0.25 km/h,
    Distance: 49607 m
)
 (013.726081)  can0  462   [4]  28 00 C7 C1 ::
whereamiRawData(
    RawSpeed: 0.4 km/h,
    RawDistance: 49607 m
)
 (013.726273)  can0  464   [8]  E6 67 AF 02 DD 02 75 00 ::
whereamiCoords(
    Latitude: 45.04983 °,
    Longitude: 7.668444999999999 °
)
 (014.000177)  can0  422   [1]  00 ::
GbData(
    GbGear: 0
)
 (014.676113)  can0  460   [4]  29 00 C7 C1 ::
whereamiData(
    Speed: 0.41000000000000003 km/h,
    Distance: 49607 m
)
 (014.676329)  can0  462   [4]  42 00 C7 C1 ::
whereamiRawData(
    RawSpeed: 0.66 km/h,
    RawDistance: 49607 m
)
 (014.676523)  can0  464   [8]  E7 67 AF 02 DD 02 75 00 ::
whereamiCoords(
    Latitude: 45.049831 °,
    Longitude: 7.668444999999999 °
)
 (015.000193)  can0  422   [1]  00 ::
GbData(
    GbGear: 0
)
 (015.726682)  can0  460   [4]  2D 00 C7 C1 ::
whereamiData(
    Speed: 0.45 km/h,
    Distance: 49607 m
)
 (015.726908)  can0  462   [4]  49 00 C7 C1 ::
whereamiRawData(
    RawSpeed: 0.73 km/h,
    RawDistance: 49607 m
)
 (015.727101)  can0  464   [8]  E9 67 AF 02 DD 02 75 00 ::
whereamiCoords(
    Latitude: 45.049833 °,
    Longitude: 7.668444999999999 °
)
 (016.000202)  can0  422   [1]  00 ::
GbData(
    GbGear: 0
)
 (016.677425)  can0  460   [4]  37 00 C7 C1 ::
whereamiData(
    Speed: 0.55 km/h,
    Distance: 49607 m
)
 (016.677647)  can0  462   [4]  50 00 C7 C1 ::
whereamiRawData(
    RawSpeed: 0.8 km/h,
    RawDistance: 49607 m
)
 (016.677844)  can0  464   [8]  EB 67 AF 02 DD 02 75 00 ::
whereamiCoords(
    Latitude: 45.049834999999995 °,
    Longitude: 7.668444999999999 °
)
 (017.000217)  can0  422   [1]  00 ::
GbData(
    GbGear: 0
)
 (017.732330)  can0  460   [4]  27 00 C7 C1 ::
whereamiData(
    Speed: 0.39 km/h,
    Distance: 49607 m
)
 (017.732543)  can0  462   [4]  38 00 C7 C1 ::
whereamiRawData(
    RawSpeed: 0.56 km/h,
    RawDistance: 49607 m
)
 (017.732734)  can0  464   [8]  EC 67 AF 02 DC 02 75 00 ::
whereamiCoords(
    Latitude: 45.049836 °,
    Longitude: 7.668444 °
)
 (018.000223)  can0  422   [1]  00 ::
GbData(
    GbGear: 0
)
 (018.682763)  can0  460   [4]  2B 00 C7 C1 ::
whereamiData(
    Speed: 0.43 km/h,
    Distance: 49607 m
)
 (018.682995)  can0  462   [4]  3D 00 C7 C1 ::
whereamiRawData(
    RawSpeed: 0.61 km/h,
    RawDistance: 49607 m
)
 (018.683188)  can0  464   [8]  ED 67 AF 02 DB 02 75 00 ::
whereamiCoords(
    Latitude: 45.049837 °,
    Longitude: 7.668443 °
)
 (019.000263)  can0  422   [1]  00 ::
GbData(
    GbGear: 0
)
 (019.732380)  can0  460   [4]  04 00 C7 C1 ::
whereamiData(
    Speed: 0.04 km/h,
    Distance: 49607 m
)
 (019.732602)  can0  462   [4]  06 00 C7 C1 ::
whereamiRawData(
    RawSpeed: 0.06 km/h,
    RawDistance: 49607 m
)
 (019.732799)  can0  464   [8]  EE 67 AF 02 DB 02 75 00 ::
whereamiCoords(
    Latitude: 45.049838 °,
    Longitude: 7.668443 °
)
 (020.000258)  can0  422   [1]  00 ::
GbData(
    GbGear: 0
)
 (058.800390)  can0  460   [4]  04 00 C7 C1 ::
whereamiData(
    Speed: 0.04 km/h,
    Distance: 49607 m
)
 (058.800609)  can0  462   [4]  06 00 C7 C1 ::
whereamiRawData(
    RawSpeed: 0.06 km/h,
    RawDistance: 49607 m
)
 (058.800807)  can0  464   [8]  EE 67 AF 02 DB 02 75 00 ::
whereamiCoords(
    Latitude: 45.049838 °,
    Longitude: 7.668443 °
)
 (059.119954)  can0  422   [1]  00 ::
GbData(
    GbGear: 0
)
 (059.849556)  can0  460   [4]  09 00 C7 C1 ::
whereamiData(
    Speed: 0.09 km/h,
    Distance: 49607 m
)
 (059.849768)  can0  462   [4]  0D 00 C7 C1 ::
whereamiRawData(
    RawSpeed: 0.13 km/h,
    RawDistance: 49607 m
)
 (059.849964)  can0  464   [8]  EE 67 AF 02 DB 02 75 00 ::
whereamiCoords(
    Latitude: 45.049838 °,
    Longitude: 7.668443 °
)
 (060.119973)  can0  422   [1]  00 ::
GbData(
    GbGear: 0
)
 (060.799449)  can0  460   [4]  09 00 C7 C1 ::
whereamiData(
    Speed: 0.09 km/h,
    Distance: 49607 m
)
 (060.799666)  can0  462   [4]  0E 00 C7 C1 ::
whereamiRawData(
    RawSpeed: 0.14 km/h,
    RawDistance: 49607 m
)
 (060.799856)  can0  464   [8]  EE 67 AF 02 DB 02 75 00 ::
whereamiCoords(
    Latitude: 45.049838 °,
    Longitude: 7.668443 °
)
 (061.119991)  can0  422   [1]  00 ::
GbData(
    GbGear: 0
)
 (061.852398)  can0  460   [4]  09 00 C7 C1 ::
whereamiData(
    Speed: 0.09 km/h,
    Distance: 49607 m
)
 (061.852614)  can0  462   [4]  0E 00 C7 C1 ::
whereamiRawData(
    RawSpeed: 0.14 km/h,
    RawDistance: 49607 m
)
 (061.852806)  can0  464   [8]  EF 67 AF 02 DA 02 75 00 ::
whereamiCoords(
    Latitude: 45.049839 °,
    Longitude: 7.668442 °
)
 (062.119991)  can0  422   [1]  00 ::
GbData(
    GbGear: 0
)
 (062.800397)  can0  460   [4]  2C 01 C6 C1 ::
whereamiData(
    Speed: 3.0 km/h,
    Distance: 49606 m
)
 (062.800622)  can0  462   [4]  E3 01 C6 C1 ::
whereamiRawData(
    RawSpeed: 4.83 km/h,
    RawDistance: 49606 m
)
 (062.800815)  can0  464   [8]  F1 67 AF 02 CA 02 75 00 ::
whereamiCoords(
    Latitude: 45.049841 °,
    Longitude: 7.668425999999999 °
)
 (063.120016)  can0  422   [1]  00 ::
GbData(
    GbGear: 0
)
 (063.850646)  can0  460   [4]  37 00 C5 C1 ::
whereamiData(
    Speed: 0.55 km/h,
    Distance: 49605 m
)
 (063.850870)  can0  462   [4]  58 00 C5 C1 ::
whereamiRawData(
    RawSpeed: 0.88 km/h,
    RawDistance: 49605 m
)
 (063.851067)  can0  464   [8]  F2 67 AF 02 C7 02 75 00 ::
whereamiCoords(
    Latitude: 45.049842 °,
    Longitude: 7.668423 °
)
 (064.120024)  can0  422   [1]  00 ::
GbData(
    GbGear: 0
)
 (064.800029)  can0  460   [4]  00 00 C5 C1 ::
whereamiData(
    Speed: 0.0 km/h,
    Distance: 49605 m
)
 (064.800279)  can0  462   [4]  00 00 C5 C1 ::
whereamiRawData(
    RawSpeed: 0.0 km/h,
    RawDistance: 49605 m
)
 (064.800475)  can0  464   [8]  F2 67 AF 02 C7 02 75 00 ::
whereamiCoords(
    Latitude: 45.049842 °,
    Longitude: 7.668423 °
)
 (065.120042)  can0  422   [1]  00 ::
GbData(
    GbGear: 0
)
 (065.849215)  can0  460   [4]  1D 00 C5 C1 ::
whereamiData(
    Speed: 0.29 km/h,
    Distance: 49605 m
)
 (065.849438)  can0  462   [4]  2E 00 C5 C1 ::
whereamiRawData(
    RawSpeed: 0.46 km/h,
    RawDistance: 49605 m
)
 (065.849636)  can0  464   [8]  F1 67 AF 02 C5 02 75 00 ::
whereamiCoords(
    Latitude: 45.049841 °,
    Longitude: 7.6684209999999995 °
)
 (066.120062)  can0  422   [1]  00 ::
GbData(
    GbGear: 0
)
 (066.799176)  can0  460   [4]  0C 00 C5 C1 ::
whereamiData(
    Speed: 0.12 km/h,
    Distance: 49605 m
)
 (066.799400)  can0  462   [4]  13 00 C5 C1 ::
whereamiRawData(
    RawSpeed: 0.19 km/h,
    RawDistance: 49605 m
)
 (066.799593)  can0  464   [8]  F0 67 AF 02 C5 02 75 00 ::
whereamiCoords(
    Latitude: 45.049839999999996 °,
    Longitude: 7.6684209999999995 °
)
 (067.120056)  can0  422   [1]  00 ::
GbData(
    GbGear: 0
)
 (067.848976)  can0  460   [4]  08 00 C5 C1 ::
whereamiData(
    Speed: 0.08 km/h,
    Distance: 49605 m
)
 (067.849196)  can0  462   [4]  0E 00 C5 C1 ::
whereamiRawData(
    RawSpeed: 0.14 km/h,
    RawDistance: 49605 m
)
 (067.849419)  can0  464   [8]  F0 67 AF 02 C4 02 75 00 ::
whereamiCoords(
    Latitude: 45.049839999999996 °,
    Longitude: 7.668419999999999 °
)
 (068.120075)  can0  422   [1]  00 ::
GbData(
    GbGear: 0
)
 (068.796013)  can0  460   [4]  10 00 C5 C1 ::
whereamiData(
    Speed: 0.16 km/h,
    Distance: 49605 m
)
 (068.796263)  can0  462   [4]  1B 00 C5 C1 ::
whereamiRawData(
    RawSpeed: 0.27 km/h,
    RawDistance: 49605 m
)
 (068.796463)  can0  464   [8]  F1 67 AF 02 C4 02 75 00 ::
whereamiCoords(
    Latitude: 45.049841 °,
    Longitude: 7.668419999999999 °
)
 (069.120139)  can0  422   [1]  00 ::
GbData(
    GbGear: 0
)
 (069.848227)  can0  460   [4]  2B 00 C5 C1 ::
whereamiData(
    Speed: 0.43 km/h,
    Distance: 49605 m
)
 (069.848444)  can0  462   [4]  45 00 C5 C1 ::
whereamiRawData(
    RawSpeed: 0.6900000000000001 km/h,
    RawDistance: 49605 m
)
 (069.848642)  can0  464   [8]  F2 67 AF 02 C3 02 75 00 ::
whereamiCoords(
    Latitude: 45.049842 °,
    Longitude: 7.668419 °
)
 (070.120130)  can0  422   [1]  00 ::
GbData(
    GbGear: 0
)
 (070.794888)  can0  460   [4]  21 00 C5 C1 ::
whereamiData(
    Speed: 0.33 km/h,
    Distance: 49605 m
)
 (070.795103)  can0  462   [4]  35 00 C5 C1 ::
whereamiRawData(
    RawSpeed: 0.53 km/h,
    RawDistance: 49605 m
)
 (070.795295)  can0  464   [8]  F4 67 AF 02 C3 02 75 00 ::
whereamiCoords(
    Latitude: 45.049844 °,
    Longitude: 7.668419 °
)
 (071.120122)  can0  422   [1]  00 ::
GbData(
    GbGear: 0
)
 (071.848154)  can0  460   [4]  00 00 C5 C1 ::
whereamiData(
    Speed: 0.0 km/h,
    Distance: 49605 m
)
 (071.848375)  can0  462   [4]  00 00 C5 C1 ::
whereamiRawData(
    RawSpeed: 0.0 km/h,
    RawDistance: 49605 m
)
 (071.848568)  can0  464   [8]  F4 67 AF 02 C3 02 75 00 ::
whereamiCoords(
    Latitude: 45.049844 °,
    Longitude: 7.668419 °
)
 (072.120133)  can0  422   [1]  00 ::
GbData(
    GbGear: 0
)
 (072.794516)  can0  460   [4]  00 00 C5 C1 ::
whereamiData(
    Speed: 0.0 km/h,
    Distance: 49605 m
)
 (072.794739)  can0  462   [4]  00 00 C5 C1 ::
whereamiRawData(
    RawSpeed: 0.0 km/h,
    RawDistance: 49605 m
)
 (072.794932)  can0  464   [8]  F4 67 AF 02 C3 02 75 00 ::
whereamiCoords(
    Latitude: 45.049844 °,
    Longitude: 7.668419 °
)
 (073.120156)  can0  422   [1]  00 ::
GbData(
    GbGear: 0
)
 (073.842573)  can0  460   [4]  00 00 C5 C1 ::
whereamiData(
    Speed: 0.0 km/h,
    Distance: 49605 m
)
 (073.842782)  can0  462   [4]  00 00 C5 C1 ::
whereamiRawData(
    RawSpeed: 0.0 km/h,
    RawDistance: 49605 m
)
 (073.842973)  can0  464   [8]  F4 67 AF 02 C3 02 75 00 ::
whereamiCoords(
    Latitude: 45.049844 °,
    Longitude: 7.668419 °
)
 (074.120159)  can0  422   [1]  00 ::
GbData(
    GbGear: 0
)
 (074.788772)  can0  460   [4]  00 00 C5 C1 ::
whereamiData(
    Speed: 0.0 km/h,
    Distance: 49605 m
)
 (074.788987)  can0  462   [4]  00 00 C5 C1 ::
whereamiRawData(
    RawSpeed: 0.0 km/h,
    RawDistance: 49605 m
)
 (074.789181)  can0  464   [8]  F4 67 AF 02 C3 02 75 00 ::
whereamiCoords(
    Latitude: 45.049844 °,
    Longitude: 7.668419 °
)
 (075.120179)  can0  422   [1]  00 ::
GbData(
    GbGear: 0
)
 (075.839365)  can0  460   [4]  00 00 C5 C1 ::
whereamiData(
    Speed: 0.0 km/h,
    Distance: 49605 m
)
 (075.839580)  can0  462   [4]  00 00 C5 C1 ::
whereamiRawData(
    RawSpeed: 0.0 km/h,
    RawDistance: 49605 m
)
 (075.839772)  can0  464   [8]  F4 67 AF 02 C3 02 75 00 ::
whereamiCoords(
    Latitude: 45.049844 °,
    Longitude: 7.668419 °
)
 (076.120187)  can0  422   [1]  00 ::
GbData(
    GbGear: 0
)
 (076.886157)  can0  460   [4]  00 00 C5 C1 ::
whereamiData(
    Speed: 0.0 km/h,
    Distance: 49605 m
)
 (076.886367)  can0  462   [4]  00 00 C5 C1 ::
whereamiRawData(
    RawSpeed: 0.0 km/h,
    RawDistance: 49605 m
)
 (076.886556)  can0  464   [8]  F4 67 AF 02 C3 02 75 00 ::
whereamiCoords(
    Latitude: 45.049844 °,
    Longitude: 7.668419 °
)
 (077.120196)  can0  422   [1]  00 ::
GbData(
    GbGear: 0
)
 (077.839696)  can0  460   [4]  00 00 C5 C1 ::
whereamiData(
    Speed: 0.0 km/h,
    Distance: 49605 m
)
 (077.839914)  can0  462   [4]  00 00 C5 C1 ::
whereamiRawData(
    RawSpeed: 0.0 km/h,
    RawDistance: 49605 m
)
 (077.840116)  can0  464   [8]  F4 67 AF 02 C3 02 75 00 ::
whereamiCoords(
    Latitude: 45.049844 °,
    Longitude: 7.668419 °
)
 (078.120213)  can0  422   [1]  00 ::
GbData(
    GbGear: 0
)
 (078.793058)  can0  460   [4]  00 00 C5 C1 ::
whereamiData(
    Speed: 0.0 km/h,
    Distance: 49605 m
)
 (078.793277)  can0  462   [4]  00 00 C5 C1 ::
whereamiRawData(
    RawSpeed: 0.0 km/h,
    RawDistance: 49605 m
)
 (078.793469)  can0  464   [8]  F4 67 AF 02 C3 02 75 00 ::
whereamiCoords(
    Latitude: 45.049844 °,
    Longitude: 7.668419 °
)
 (079.120250)  can0  422   [1]  00 ::
GbData(
    GbGear: 0
)
 (079.842740)  can0  460   [4]  00 00 C5 C1 ::
whereamiData(
    Speed: 0.0 km/h,
    Distance: 49605 m
)
 (079.842951)  can0  462   [4]  00 00 C5 C1 ::
whereamiRawData(
    RawSpeed: 0.0 km/h,
    RawDistance: 49605 m
)
 (079.843140)  can0  464   [8]  F4 67 AF 02 C3 02 75 00 ::
whereamiCoords(
    Latitude: 45.049844 °,
    Longitude: 7.668419 °
)
 (080.120246)  can0  422   [1]  00 ::
GbData(
    GbGear: 0
)
 (080.791376)  can0  460   [4]  00 00 C5 C1 ::
whereamiData(
    Speed: 0.0 km/h,
    Distance: 49605 m
)
 (080.791593)  can0  462   [4]  00 00 C5 C1 ::
whereamiRawData(
    RawSpeed: 0.0 km/h,
    RawDistance: 49605 m
)
 (080.791783)  can0  464   [8]  F4 67 AF 02 C3 02 75 00 ::
whereamiCoords(
    Latitude: 45.049844 °,
    Longitude: 7.668419 °
)
 (081.120267)  can0  422   [1]  00 ::
GbData(
    GbGear: 0
)
 (081.842717)  can0  460   [4]  00 00 C5 C1 ::
whereamiData(
    Speed: 0.0 km/h,
    Distance: 49605 m
)
 (081.842950)  can0  462   [4]  00 00 C5 C1 ::
whereamiRawData(
    RawSpeed: 0.0 km/h,
    RawDistance: 49605 m
)
 (081.843149)  can0  464   [8]  F4 67 AF 02 C3 02 75 00 ::
whereamiCoords(
    Latitude: 45.049844 °,
    Longitude: 7.668419 °
)
 (082.120268)  can0  422   [1]  00 ::
GbData(
    GbGear: 0
)
 (082.792971)  can0  460   [4]  00 00 C5 C1 ::
whereamiData(
    Speed: 0.0 km/h,
    Distance: 49605 m
)
 (082.793200)  can0  462   [4]  00 00 C5 C1 ::
whereamiRawData(
    RawSpeed: 0.0 km/h,
    RawDistance: 49605 m
)
 (082.793394)  can0  464   [8]  F4 67 AF 02 C3 02 75 00 ::
whereamiCoords(
    Latitude: 45.049844 °,
    Longitude: 7.668419 °
)
 (083.120288)  can0  422   [1]  00 ::
GbData(
    GbGear: 0
)
 (083.841927)  can0  460   [4]  00 00 C5 C1 ::
whereamiData(
    Speed: 0.0 km/h,
    Distance: 49605 m
)
 (083.842143)  can0  462   [4]  00 00 C5 C1 ::
whereamiRawData(
    RawSpeed: 0.0 km/h,
    RawDistance: 49605 m
)
 (083.842335)  can0  464   [8]  F4 67 AF 02 C3 02 75 00 ::
whereamiCoords(
    Latitude: 45.049844 °,
    Longitude: 7.668419 °
)
 (084.120311)  can0  422   [1]  00 ::
GbData(
    GbGear: 0
)
 (084.790746)  can0  460   [4]  00 00 C5 C1 ::
whereamiData(
    Speed: 0.0 km/h,
    Distance: 49605 m
)
 (084.790971)  can0  462   [4]  00 00 C5 C1 ::
whereamiRawData(
    RawSpeed: 0.0 km/h,
    RawDistance: 49605 m
)
 (084.791163)  can0  464   [8]  F4 67 AF 02 C3 02 75 00 ::
whereamiCoords(
    Latitude: 45.049844 °,
    Longitude: 7.668419 °
)
 (085.120315)  can0  422   [1]  00 ::
GbData(
    GbGear: 0
)
 (085.841690)  can0  460   [4]  00 00 C5 C1 ::
whereamiData(
    Speed: 0.0 km/h,
    Distance: 49605 m
)
 (085.841913)  can0  462   [4]  00 00 C5 C1 ::
whereamiRawData(
    RawSpeed: 0.0 km/h,
    RawDistance: 49605 m
)
 (085.842105)  can0  464   [8]  F4 67 AF 02 C3 02 75 00 ::
whereamiCoords(
    Latitude: 45.049844 °,
    Longitude: 7.668419 °
)
 (086.120312)  can0  422   [1]  00 ::
GbData(
    GbGear: 0
)
 (086.794633)  can0  460   [4]  00 00 C5 C1 ::
whereamiData(
    Speed: 0.0 km/h,
    Distance: 49605 m
)
 (086.794860)  can0  462   [4]  00 00 C5 C1 ::
whereamiRawData(
    RawSpeed: 0.0 km/h,
    RawDistance: 49605 m
)
 (086.795054)  can0  464   [8]  F4 67 AF 02 C3 02 75 00 ::
whereamiCoords(
    Latitude: 45.049844 °,
    Longitude: 7.668419 °
)
 (087.120327)  can0  422   [1]  00 ::
GbData(
    GbGear: 0
)
 (087.841324)  can0  460   [4]  00 00 C5 C1 ::
whereamiData(
    Speed: 0.0 km/h,
    Distance: 49605 m
)
 (087.841537)  can0  462   [4]  00 00 C5 C1 ::
whereamiRawData(
    RawSpeed: 0.0 km/h,
    RawDistance: 49605 m
)
 (087.841727)  can0  464   [8]  F4 67 AF 02 C3 02 75 00 ::
whereamiCoords(
    Latitude: 45.049844 °,
    Longitude: 7.668419 °
)
 (088.120341)  can0  422   [1]  00 ::
GbData(
    GbGear: 0
)
 (088.791818)  can0  460   [4]  00 00 C5 C1 ::
whereamiData(
    Speed: 0.0 km/h,
    Distance: 49605 m
)
 (088.792052)  can0  462   [4]  00 00 C5 C1 ::
whereamiRawData(
    RawSpeed: 0.0 km/h,
    RawDistance: 49605 m
)
 (088.792247)  can0  464   [8]  F4 67 AF 02 C3 02 75 00 ::
whereamiCoords(
    Latitude: 45.049844 °,
    Longitude: 7.668419 °
)
 (089.120353)  can0  422   [1]  00 ::
GbData(
    GbGear: 0
)
 (089.844338)  can0  460   [4]  04 00 C5 C1 ::
whereamiData(
    Speed: 0.04 km/h,
    Distance: 49605 m
)
 (089.844564)  can0  462   [4]  06 00 C5 C1 ::
whereamiRawData(
    RawSpeed: 0.06 km/h,
    RawDistance: 49605 m
)
 (089.844756)  can0  464   [8]  F4 67 AF 02 C3 02 75 00 ::
whereamiCoords(
    Latitude: 45.049844 °,
    Longitude: 7.668419 °
)
 (090.120368)  can0  422   [1]  00 ::
GbData(
    GbGear: 0
)
 (090.792737)  can0  460   [4]  00 00 C5 C1 ::
whereamiData(
    Speed: 0.0 km/h,
    Distance: 49605 m
)
 (090.792960)  can0  462   [4]  00 00 C5 C1 ::
whereamiRawData(
    RawSpeed: 0.0 km/h,
    RawDistance: 49605 m
)
 (090.793151)  can0  464   [8]  F4 67 AF 02 C3 02 75 00 ::
whereamiCoords(
    Latitude: 45.049844 °,
    Longitude: 7.668419 °
)
 (091.120575)  can0  422   [1]  00 ::
GbData(
    GbGear: 0
)
 (091.843936)  can0  460   [4]  00 00 C5 C1 ::
whereamiData(
    Speed: 0.0 km/h,
    Distance: 49605 m
)
 (091.844172)  can0  462   [4]  00 00 C5 C1 ::
whereamiRawData(
    RawSpeed: 0.0 km/h,
    RawDistance: 49605 m
)
 (091.844365)  can0  464   [8]  F4 67 AF 02 C3 02 75 00 ::
whereamiCoords(
    Latitude: 45.049844 °,
    Longitude: 7.668419 °
)
 (092.121112)  can0  422   [1]  00 ::
GbData(
    GbGear: 0
)
 (092.796888)  can0  460   [4]  00 00 C5 C1 ::
whereamiData(
    Speed: 0.0 km/h,
    Distance: 49605 m
)
 (092.797106)  can0  462   [4]  00 00 C5 C1 ::
whereamiRawData(
    RawSpeed: 0.0 km/h,
    RawDistance: 49605 m
)
 (092.797300)  can0  464   [8]  F4 67 AF 02 C3 02 75 00 ::
whereamiCoords(
    Latitude: 45.049844 °,
    Longitude: 7.668419 °
)
 (093.121604)  can0  422   [1]  00 ::
GbData(
    GbGear: 0
)
 (093.850054)  can0  460   [4]  00 00 C5 C1 ::
whereamiData(
    Speed: 0.0 km/h,
    Distance: 49605 m
)
 (093.850297)  can0  462   [4]  00 00 C5 C1 ::
whereamiRawData(
    RawSpeed: 0.0 km/h,
    RawDistance: 49605 m
)
 (093.850503)  can0  464   [8]  F4 67 AF 02 C3 02 75 00 ::
whereamiCoords(
    Latitude: 45.049844 °,
    Longitude: 7.668419 °
)
 (094.122075)  can0  422   [1]  00 ::
GbData(
    GbGear: 0
)
 (094.797736)  can0  460   [4]  00 00 C5 C1 ::
whereamiData(
    Speed: 0.0 km/h,
    Distance: 49605 m
)
 (094.797954)  can0  462   [4]  00 00 C5 C1 ::
whereamiRawData(
    RawSpeed: 0.0 km/h,
    RawDistance: 49605 m
)
 (094.798144)  can0  464   [8]  F4 67 AF 02 C3 02 75 00 ::
whereamiCoords(
    Latitude: 45.049844 °,
    Longitude: 7.668419 °
)
 (095.122522)  can0  422   [1]  00 ::
GbData(
    GbGear: 0
)
 (095.847134)  can0  460   [4]  00 00 C5 C1 ::
whereamiData(
    Speed: 0.0 km/h,
    Distance: 49605 m
)
 (095.847351)  can0  462   [4]  00 00 C5 C1 ::
whereamiRawData(
    RawSpeed: 0.0 km/h,
    RawDistance: 49605 m
)
 (095.847543)  can0  464   [8]  F4 67 AF 02 C3 02 75 00 ::
whereamiCoords(
    Latitude: 45.049844 °,
    Longitude: 7.668419 °
)
 (096.122940)  can0  422   [1]  00 ::
GbData(
    GbGear: 0
)
 (096.797464)  can0  460   [4]  00 00 C5 C1 ::
whereamiData(
    Speed: 0.0 km/h,
    Distance: 49605 m
)
 (096.797690)  can0  462   [4]  00 00 C5 C1 ::
whereamiRawData(
    RawSpeed: 0.0 km/h,
    RawDistance: 49605 m
)
 (096.797884)  can0  464   [8]  F4 67 AF 02 C3 02 75 00 ::
whereamiCoords(
    Latitude: 45.049844 °,
    Longitude: 7.668419 °
)
 (097.123327)  can0  422   [1]  00 ::
GbData(
    GbGear: 0
)
 (097.850416)  can0  460   [4]  00 00 C5 C1 ::
whereamiData(
    Speed: 0.0 km/h,
    Distance: 49605 m
)
 (097.850648)  can0  462   [4]  00 00 C5 C1 ::
whereamiRawData(
    RawSpeed: 0.0 km/h,
    RawDistance: 49605 m
)
