 (000.000000)  can0  460   [4]  00 00 00 00 ::
whereamiData(
    Speed: 0.0 km/h,
    Distance: 0 m
)
 (000.000220)  can0  462   [4]  00 00 00 00 ::
whereamiRawData(
    RawSpeed: 0.0 km/h,
    RawDistance: 0 m
)
 (000.000417)  can0  464   [8]  F7 66 AF 02 7F FF 74 00 ::
whereamiCoords(
    Latitude: 45.049591 °,
    Longitude: 7.667583 °
)
 (001.067873)  can0  460   [4]  00 00 00 00 ::
whereamiData(
    Speed: 0.0 km/h,
    Distance: 0 m
)
 (001.068095)  can0  462   [4]  00 00 00 00 ::
whereamiRawData(
    RawSpeed: 0.0 km/h,
    RawDistance: 0 m
)
 (001.068291)  can0  464   [8]  F7 66 AF 02 7F FF 74 00 ::
whereamiCoords(
    Latitude: 45.049591 °,
    Longitude: 7.667583 °
)
 (002.014476)  can0  460   [4]  00 00 00 00 ::
whereamiData(
    Speed: 0.0 km/h,
    Distance: 0 m
)
 (002.014697)  can0  462   [4]  00 00 00 00 ::
whereamiRawData(
    RawSpeed: 0.0 km/h,
    RawDistance: 0 m
)
 (002.014893)  can0  464   [8]  F7 66 AF 02 7F FF 74 00 ::
whereamiCoords(
    Latitude: 45.049591 °,
    Longitude: 7.667583 °
)
 (003.061512)  can0  460   [4]  00 00 00 00 ::
whereamiData(
    Speed: 0.0 km/h,
    Distance: 0 m
)
 (003.061734)  can0  462   [4]  00 00 00 00 ::
whereamiRawData(
    RawSpeed: 0.0 km/h,
    RawDistance: 0 m
)
 (003.061928)  can0  464   [8]  F7 66 AF 02 7F FF 74 00 ::
whereamiCoords(
    Latitude: 45.049591 °,
    Longitude: 7.667583 °
)
 (004.012296)  can0  460   [4]  00 00 00 00 ::
whereamiData(
    Speed: 0.0 km/h,
    Distance: 0 m
)
 (004.012516)  can0  462   [4]  00 00 00 00 ::
whereamiRawData(
    RawSpeed: 0.0 km/h,
    RawDistance: 0 m
)
 (004.012713)  can0  464   [8]  F7 66 AF 02 7F FF 74 00 ::
whereamiCoords(
    Latitude: 45.049591 °,
    Longitude: 7.667583 °
)
 (005.061945)  can0  460   [4]  00 00 00 00 ::
whereamiData(
    Speed: 0.0 km/h,
    Distance: 0 m
)
 (005.062162)  can0  462   [4]  00 00 00 00 ::
whereamiRawData(
    RawSpeed: 0.0 km/h,
    RawDistance: 0 m
)
 (005.062355)  can0  464   [8]  F7 66 AF 02 7F FF 74 00 ::
whereamiCoords(
    Latitude: 45.049591 °,
    Longitude: 7.667583 °
)
 (006.013629)  can0  460   [4]  00 00 00 00 ::
whereamiData(
    Speed: 0.0 km/h,
    Distance: 0 m
)
 (006.013851)  can0  462   [4]  00 00 00 00 ::
whereamiRawData(
    RawSpeed: 0.0 km/h,
    RawDistance: 0 m
)
 (006.014053)  can0  464   [8]  F8 66 AF 02 9A FF 74 00 ::
whereamiCoords(
    Latitude: 45.049592 °,
    Longitude: 7.66761 °
)
 (007.062272)  can0  460   [4]  00 00 00 00 ::
whereamiData(
    Speed: 0.0 km/h,
    Distance: 0 m
)
 (007.062486)  can0  462   [4]  00 00 00 00 ::
whereamiRawData(
    RawSpeed: 0.0 km/h,
    RawDistance: 0 m
)
 (007.062678)  can0  464   [8]  F9 66 AF 02 B3 FF 74 00 ::
whereamiCoords(
    Latitude: 45.049592999999994 °,
    Longitude: 7.667635 °
)
 (008.010909)  can0  460   [4]  00 00 00 00 ::
whereamiData(
    Speed: 0.0 km/h,
    Distance: 0 m
)
 (008.011122)  can0  462   [4]  00 00 00 00 ::
whereamiRawData(
    RawSpeed: 0.0 km/h,
    RawDistance: 0 m
)
 (008.011312)  can0  464   [8]  FB 66 AF 02 CB FF 74 00 ::
whereamiCoords(
    Latitude: 45.049595 °,
    Longitude: 7.667659 °
)
 (009.061669)  can0  460   [4]  00 00 00 00 ::
whereamiData(
    Speed: 0.0 km/h,
    Distance: 0 m
)
 (009.061888)  can0  462   [4]  00 00 00 00 ::
whereamiRawData(
    RawSpeed: 0.0 km/h,
    RawDistance: 0 m
)
 (009.062086)  can0  464   [8]  FC 66 AF 02 E2 FF 74 00 ::
whereamiCoords(
    Latitude: 45.049596 °,
    Longitude: 7.667681999999999 °
)
 (010.013639)  can0  460   [4]  00 00 00 00 ::
whereamiData(
    Speed: 0.0 km/h,
    Distance: 0 m
)
 (010.013856)  can0  462   [4]  00 00 00 00 ::
whereamiRawData(
    RawSpeed: 0.0 km/h,
    RawDistance: 0 m
)
 (010.014050)  can0  464   [8]  FD 66 AF 02 F8 FF 74 00 ::
whereamiCoords(
    Latitude: 45.049597 °,
    Longitude: 7.667704 °
)
 (011.065654)  can0  460   [4]  00 00 00 00 ::
whereamiData(
    Speed: 0.0 km/h,
    Distance: 0 m
)
 (011.065881)  can0  462   [4]  00 00 00 00 ::
whereamiRawData(
    RawSpeed: 0.0 km/h,
    RawDistance: 0 m
)
 (011.066083)  can0  464   [8]  FE 66 AF 02 0D 00 75 00 ::
whereamiCoords(
    Latitude: 45.049597999999996 °,
    Longitude: 7.667725 °
)
 (012.019488)  can0  460   [4]  00 00 00 00 ::
whereamiData(
    Speed: 0.0 km/h,
    Distance: 0 m
)
 (012.019706)  can0  462   [4]  00 00 00 00 ::
whereamiRawData(
    RawSpeed: 0.0 km/h,
    RawDistance: 0 m
)
 (012.019903)  can0  464   [8]  FF 66 AF 02 22 00 75 00 ::
whereamiCoords(
    Latitude: 45.049599 °,
    Longitude: 7.667745999999999 °
)
 (013.068136)  can0  460   [4]  00 00 00 00 ::
whereamiData(
    Speed: 0.0 km/h,
    Distance: 0 m
)
 (013.068355)  can0  462   [4]  00 00 00 00 ::
whereamiRawData(
    RawSpeed: 0.0 km/h,
    RawDistance: 0 m
)
 (013.068547)  can0  464   [8]  01 67 AF 02 37 00 75 00 ::
whereamiCoords(
    Latitude: 45.049600999999996 °,
    Longitude: 7.6677669999999996 °
)
 (014.015882)  can0  460   [4]  00 00 00 00 ::
whereamiData(
    Speed: 0.0 km/h,
    Distance: 0 m
)
 (014.016088)  can0  462   [4]  00 00 00 00 ::
whereamiRawData(
    RawSpeed: 0.0 km/h,
    RawDistance: 0 m
)
 (014.016269)  can0  464   [8]  02 67 AF 02 4B 00 75 00 ::
whereamiCoords(
    Latitude: 45.049602 °,
    Longitude: 7.667787 °
)
 (015.068510)  can0  460   [4]  00 00 00 00 ::
whereamiData(
    Speed: 0.0 km/h,
    Distance: 0 m
)
 (015.068728)  can0  462   [4]  00 00 00 00 ::
whereamiRawData(
    RawSpeed: 0.0 km/h,
    RawDistance: 0 m
)
 (015.068923)  can0  464   [8]  03 67 AF 02 60 00 75 00 ::
whereamiCoords(
    Latitude: 45.049603 °,
    Longitude: 7.667808 °
)
 (016.017112)  can0  460   [4]  00 00 00 00 ::
whereamiData(
    Speed: 0.0 km/h,
    Distance: 0 m
)
 (016.017331)  can0  462   [4]  00 00 00 00 ::
whereamiRawData(
    RawSpeed: 0.0 km/h,
    RawDistance: 0 m
)
 (016.017530)  can0  464   [8]  04 67 AF 02 74 00 75 00 ::
whereamiCoords(
    Latitude: 45.049603999999995 °,
    Longitude: 7.667828 °
)
 (017.064387)  can0  460   [4]  00 00 00 00 ::
whereamiData(
    Speed: 0.0 km/h,
    Distance: 0 m
)
 (017.064601)  can0  462   [4]  00 00 00 00 ::
whereamiRawData(
    RawSpeed: 0.0 km/h,
    RawDistance: 0 m
)
 (017.064797)  can0  464   [8]  06 67 AF 02 88 00 75 00 ::
whereamiCoords(
    Latitude: 45.049606 °,
    Longitude: 7.667847999999999 °
)
 (018.010946)  can0  460   [4]  00 00 00 00 ::
whereamiData(
    Speed: 0.0 km/h,
    Distance: 0 m
)
 (018.011156)  can0  462   [4]  00 00 00 00 ::
whereamiRawData(
    RawSpeed: 0.0 km/h,
    RawDistance: 0 m
)
 (018.011343)  can0  464   [8]  07 67 AF 02 9C 00 75 00 ::
whereamiCoords(
    Latitude: 45.049606999999995 °,
    Longitude: 7.6678679999999995 °
)
 (019.057553)  can0  460   [4]  00 00 00 00 ::
whereamiData(
    Speed: 0.0 km/h,
    Distance: 0 m
)
 (019.057789)  can0  462   [4]  00 00 00 00 ::
whereamiRawData(
    RawSpeed: 0.0 km/h,
    RawDistance: 0 m
)
 (019.057987)  can0  464   [8]  A4 67 AF 02 5A 02 75 00 ::
whereamiCoords(
    Latitude: 45.049763999999996 °,
    Longitude: 7.668314 °
)
 (020.010246)  can0  460   [4]  00 00 00 00 ::
whereamiData(
    Speed: 0.0 km/h,
    Distance: 0 m
)
 (020.010467)  can0  462   [4]  00 00 00 00 ::
whereamiRawData(
    RawSpeed: 0.0 km/h,
    RawDistance: 0 m
)
 (020.010668)  can0  464   [8]  A5 67 AF 02 5F 02 75 00 ::
whereamiCoords(
    Latitude: 45.049765 °,
    Longitude: 7.668318999999999 °
)
 (021.061866)  can0  460   [4]  00 00 00 00 ::
whereamiData(
    Speed: 0.0 km/h,
    Distance: 0 m
)
 (021.062095)  can0  462   [4]  00 00 00 00 ::
whereamiRawData(
    RawSpeed: 0.0 km/h,
    RawDistance: 0 m
)
 (021.062291)  can0  464   [8]  A5 67 AF 02 5F 02 75 00 ::
whereamiCoords(
    Latitude: 45.049765 °,
    Longitude: 7.668318999999999 °
)
 (022.006622)  can0  460   [4]  00 00 00 00 ::
whereamiData(
    Speed: 0.0 km/h,
    Distance: 0 m
)
 (022.006843)  can0  462   [4]  00 00 00 00 ::
whereamiRawData(
    RawSpeed: 0.0 km/h,
    RawDistance: 0 m
)
 (022.007041)  can0  464   [8]  A5 67 AF 02 5F 02 75 00 ::
whereamiCoords(
    Latitude: 45.049765 °,
    Longitude: 7.668318999999999 °
)
 (023.057406)  can0  460   [4]  00 00 00 00 ::
whereamiData(
    Speed: 0.0 km/h,
    Distance: 0 m
)
 (023.057617)  can0  462   [4]  00 00 00 00 ::
whereamiRawData(
    RawSpeed: 0.0 km/h,
    RawDistance: 0 m
)
 (023.057810)  can0  464   [8]  A5 67 AF 02 5F 02 75 00 ::
whereamiCoords(
    Latitude: 45.049765 °,
    Longitude: 7.668318999999999 °
)
 (024.006335)  can0  460   [4]  00 00 00 00 ::
whereamiData(
    Speed: 0.0 km/h,
    Distance: 0 m
)
 (024.006551)  can0  462   [4]  00 00 00 00 ::
whereamiRawData(
    RawSpeed: 0.0 km/h,
    RawDistance: 0 m
)
 (024.006745)  can0  464   [8]  A5 67 AF 02 5F 02 75 00 ::
whereamiCoords(
    Latitude: 45.049765 °,
    Longitude: 7.668318999999999 °
)
 (025.055381)  can0  460   [4]  00 00 00 00 ::
whereamiData(
    Speed: 0.0 km/h,
    Distance: 0 m
)
 (025.055596)  can0  462   [4]  00 00 00 00 ::
whereamiRawData(
    RawSpeed: 0.0 km/h,
    RawDistance: 0 m
)
 (025.055796)  can0  464   [8]  A5 67 AF 02 5F 02 75 00 ::
whereamiCoords(
    Latitude: 45.049765 °,
    Longitude: 7.668318999999999 °
)
 (026.003160)  can0  460   [4]  00 00 00 00 ::
whereamiData(
    Speed: 0.0 km/h,
    Distance: 0 m
)
 (026.003383)  can0  462   [4]  00 00 00 00 ::
whereamiRawData(
    RawSpeed: 0.0 km/h,
    RawDistance: 0 m
)
 (026.003580)  can0  464   [8]  A5 67 AF 02 5F 02 75 00 ::
whereamiCoords(
    Latitude: 45.049765 °,
    Longitude: 7.668318999999999 °
)
 (027.048906)  can0  460   [4]  00 00 00 00 ::
whereamiData(
    Speed: 0.0 km/h,
    Distance: 0 m
)
 (027.049126)  can0  462   [4]  00 00 00 00 ::
whereamiRawData(
    RawSpeed: 0.0 km/h,
    RawDistance: 0 m
)
 (027.049325)  can0  464   [8]  A5 67 AF 02 5F 02 75 00 ::
whereamiCoords(
    Latitude: 45.049765 °,
    Longitude: 7.668318999999999 °
)
 (027.993735)  can0  460   [4]  00 00 00 00 ::
whereamiData(
    Speed: 0.0 km/h,
    Distance: 0 m
)
 (027.993954)  can0  462   [4]  00 00 00 00 ::
whereamiRawData(
    RawSpeed: 0.0 km/h,
    RawDistance: 0 m
)
 (027.994145)  can0  464   [8]  A5 67 AF 02 5F 02 75 00 ::
whereamiCoords(
    Latitude: 45.049765 °,
    Longitude: 7.668318999999999 °
)
 (029.042951)  can0  460   [4]  00 00 00 00 ::
whereamiData(
    Speed: 0.0 km/h,
    Distance: 0 m
)
 (029.043173)  can0  462   [4]  00 00 00 00 ::
whereamiRawData(
    RawSpeed: 0.0 km/h,
    RawDistance: 0 m
)
 (029.043368)  can0  464   [8]  A5 67 AF 02 5F 02 75 00 ::
whereamiCoords(
    Latitude: 45.049765 °,
    Longitude: 7.668318999999999 °
)
 (029.986291)  can0  460   [4]  00 00 00 00 ::
whereamiData(
    Speed: 0.0 km/h,
    Distance: 0 m
)
 (029.986508)  can0  462   [4]  00 00 00 00 ::
whereamiRawData(
    RawSpeed: 0.0 km/h,
    RawDistance: 0 m
)
 (029.986707)  can0  464   [8]  A5 67 AF 02 5F 02 75 00 ::
whereamiCoords(
    Latitude: 45.049765 °,
    Longitude: 7.668318999999999 °
)
 (031.037179)  can0  460   [4]  00 00 00 00 ::
whereamiData(
    Speed: 0.0 km/h,
    Distance: 0 m
)
 (031.037401)  can0  462   [4]  00 00 00 00 ::
whereamiRawData(
    RawSpeed: 0.0 km/h,
    RawDistance: 0 m
)
 (031.037596)  can0  464   [8]  A5 67 AF 02 5F 02 75 00 ::
whereamiCoords(
    Latitude: 45.049765 °,
    Longitude: 7.668318999999999 °
)
 (031.981996)  can0  460   [4]  00 00 00 00 ::
whereamiData(
    Speed: 0.0 km/h,
    Distance: 0 m
)
 (031.982229)  can0  462   [4]  00 00 00 00 ::
whereamiRawData(
    RawSpeed: 0.0 km/h,
    RawDistance: 0 m
)
 (031.982426)  can0  464   [8]  A5 67 AF 02 5F 02 75 00 ::
whereamiCoords(
    Latitude: 45.049765 °,
    Longitude: 7.668318999999999 °
)
 (033.032196)  can0  460   [4]  00 00 00 00 ::
whereamiData(
    Speed: 0.0 km/h,
    Distance: 0 m
)
 (033.032412)  can0  462   [4]  00 00 00 00 ::
whereamiRawData(
    RawSpeed: 0.0 km/h,
    RawDistance: 0 m
)
 (033.032609)  can0  464   [8]  A5 67 AF 02 5F 02 75 00 ::
whereamiCoords(
    Latitude: 45.049765 °,
    Longitude: 7.668318999999999 °
)
 (033.979157)  can0  460   [4]  00 00 00 00 ::
whereamiData(
    Speed: 0.0 km/h,
    Distance: 0 m
)
 (033.979379)  can0  462   [4]  00 00 00 00 ::
whereamiRawData(
    RawSpeed: 0.0 km/h,
    RawDistance: 0 m
)
 (033.979572)  can0  464   [8]  A5 67 AF 02 5F 02 75 00 ::
whereamiCoords(
    Latitude: 45.049765 °,
    Longitude: 7.668318999999999 °
)
 (035.032206)  can0  460   [4]  00 00 00 00 ::
whereamiData(
    Speed: 0.0 km/h,
    Distance: 0 m
)
 (035.032426)  can0  462   [4]  00 00 00 00 ::
whereamiRawData(
    RawSpeed: 0.0 km/h,
    RawDistance: 0 m
)
 (035.032619)  can0  464   [8]  A5 67 AF 02 5F 02 75 00 ::
whereamiCoords(
    Latitude: 45.049765 °,
    Longitude: 7.668318999999999 °
)
 (035.978823)  can0  460   [4]  00 00 00 00 ::
whereamiData(
    Speed: 0.0 km/h,
    Distance: 0 m
)
 (035.979042)  can0  462   [4]  00 00 00 00 ::
whereamiRawData(
    RawSpeed: 0.0 km/h,
    RawDistance: 0 m
)
 (035.979242)  can0  464   [8]  A5 67 AF 02 5F 02 75 00 ::
whereamiCoords(
    Latitude: 45.049765 °,
    Longitude: 7.668318999999999 °
)
 (037.030920)  can0  460   [4]  00 00 00 00 ::
whereamiData(
    Speed: 0.0 km/h,
    Distance: 0 m
)
 (037.031176)  can0  462   [4]  00 00 00 00 ::
whereamiRawData(
    RawSpeed: 0.0 km/h,
    RawDistance: 0 m
)
 (037.031367)  can0  464   [8]  A5 67 AF 02 5F 02 75 00 ::
whereamiCoords(
    Latitude: 45.049765 °,
    Longitude: 7.668318999999999 °
)
 (037.977653)  can0  460   [4]  00 00 00 00 ::
whereamiData(
    Speed: 0.0 km/h,
    Distance: 0 m
)
 (037.977887)  can0  462   [4]  00 00 00 00 ::
whereamiRawData(
    RawSpeed: 0.0 km/h,
    RawDistance: 0 m
)
 (037.978084)  can0  464   [8]  A5 67 AF 02 5F 02 75 00 ::
whereamiCoords(
    Latitude: 45.049765 °,
    Longitude: 7.668318999999999 °
)
 (039.030088)  can0  460   [4]  00 00 00 00 ::
whereamiData(
    Speed: 0.0 km/h,
    Distance: 0 m
)
 (039.030318)  can0  462   [4]  00 00 00 00 ::
whereamiRawData(
    RawSpeed: 0.0 km/h,
    RawDistance: 0 m
)
 (039.030516)  can0  464   [8]  A5 67 AF 02 5F 02 75 00 ::
whereamiCoords(
    Latitude: 45.049765 °,
    Longitude: 7.668318999999999 °
)
 (039.976245)  can0  460   [4]  00 00 00 00 ::
whereamiData(
    Speed: 0.0 km/h,
    Distance: 0 m
)
 (039.976473)  can0  462   [4]  00 00 00 00 ::
whereamiRawData(
    RawSpeed: 0.0 km/h,
    RawDistance: 0 m
)
 (039.976663)  can0  464   [8]  A5 67 AF 02 5F 02 75 00 ::
whereamiCoords(
    Latitude: 45.049765 °,
    Longitude: 7.668318999999999 °
)
 (041.026740)  can0  460   [4]  00 00 00 00 ::
whereamiData(
    Speed: 0.0 km/h,
    Distance: 0 m
)
 (041.026956)  can0  462   [4]  00 00 00 00 ::
whereamiRawData(
    RawSpeed: 0.0 km/h,
    RawDistance: 0 m
)
 (041.027151)  can0  464   [8]  A5 67 AF 02 5F 02 75 00 ::
whereamiCoords(
    Latitude: 45.049765 °,
    Longitude: 7.668318999999999 °
)
 (041.969881)  can0  460   [4]  00 00 00 00 ::
whereamiData(
    Speed: 0.0 km/h,
    Distance: 0 m
)
 (041.970108)  can0  462   [4]  00 00 00 00 ::
whereamiRawData(
    RawSpeed: 0.0 km/h,
    RawDistance: 0 m
)
 (041.970307)  can0  464   [8]  A5 67 AF 02 5F 02 75 00 ::
whereamiCoords(
    Latitude: 45.049765 °,
    Longitude: 7.668318999999999 °
)
 (043.018252)  can0  460   [4]  00 00 00 00 ::
whereamiData(
    Speed: 0.0 km/h,
    Distance: 0 m
)
 (043.018467)  can0  462   [4]  00 00 00 00 ::
whereamiRawData(
    RawSpeed: 0.0 km/h,
    RawDistance: 0 m
)
 (043.018657)  can0  464   [8]  A5 67 AF 02 5F 02 75 00 ::
whereamiCoords(
    Latitude: 45.049765 °,
    Longitude: 7.668318999999999 °
)
 (044.067701)  can0  460   [4]  00 00 00 00 ::
whereamiData(
    Speed: 0.0 km/h,
    Distance: 0 m
)
 (044.067917)  can0  462   [4]  00 00 00 00 ::
whereamiRawData(
    RawSpeed: 0.0 km/h,
    RawDistance: 0 m
)
 (044.068112)  can0  464   [8]  A5 67 AF 02 5F 02 75 00 ::
whereamiCoords(
    Latitude: 45.049765 °,
    Longitude: 7.668318999999999 °
)
 (045.019309)  can0  460   [4]  00 00 00 00 ::
whereamiData(
    Speed: 0.0 km/h,
    Distance: 0 m
)
 (045.019528)  can0  462   [4]  00 00 00 00 ::
whereamiRawData(
    RawSpeed: 0.0 km/h,
    RawDistance: 0 m
)
 (045.019721)  can0  464   [8]  A5 67 AF 02 5F 02 75 00 ::
whereamiCoords(
    Latitude: 45.049765 °,
    Longitude: 7.668318999999999 °
)
 (045.972671)  can0  460   [4]  00 00 00 00 ::
whereamiData(
    Speed: 0.0 km/h,
    Distance: 0 m
)
 (045.972889)  can0  462   [4]  00 00 00 00 ::
whereamiRawData(
    RawSpeed: 0.0 km/h,
    RawDistance: 0 m
)
 (045.973086)  can0  464   [8]  A5 67 AF 02 5F 02 75 00 ::
whereamiCoords(
    Latitude: 45.049765 °,
    Longitude: 7.668318999999999 °
)
 (047.028460)  can0  460   [4]  00 00 00 00 ::
whereamiData(
    Speed: 0.0 km/h,
    Distance: 0 m
)
 (047.028690)  can0  462   [4]  00 00 00 00 ::
whereamiRawData(
    RawSpeed: 0.0 km/h,
    RawDistance: 0 m
)
 (047.028880)  can0  464   [8]  A5 67 AF 02 5F 02 75 00 ::
whereamiCoords(
    Latitude: 45.049765 °,
    Longitude: 7.668318999999999 °
)
 (047.982607)  can0  460   [4]  00 00 00 00 ::
whereamiData(
    Speed: 0.0 km/h,
    Distance: 0 m
)
 (047.982821)  can0  462   [4]  00 00 00 00 ::
whereamiRawData(
    RawSpeed: 0.0 km/h,
    RawDistance: 0 m
)
 (047.983026)  can0  464   [8]  A5 67 AF 02 5E 02 75 00 ::
whereamiCoords(
    Latitude: 45.049765 °,
    Longitude: 7.668317999999999 °
)
 (049.040247)  can0  460   [4]  12 00 00 00 ::
whereamiData(
    Speed: 0.18 km/h,
    Distance: 0 m
)
 (049.040463)  can0  462   [4]  12 00 00 00 ::
whereamiRawData(
    RawSpeed: 0.18 km/h,
    RawDistance: 0 m
)
 (049.040656)  can0  464   [8]  A5 67 AF 02 5E 02 75 00 ::
whereamiCoords(
    Latitude: 45.049765 °,
    Longitude: 7.668317999999999 °
)
 (049.993094)  can0  460   [4]  00 00 00 00 ::
whereamiData(
    Speed: 0.0 km/h,
    Distance: 0 m
)
 (049.993326)  can0  462   [4]  00 00 00 00 ::
whereamiRawData(
    RawSpeed: 0.0 km/h,
    RawDistance: 0 m
)
 (049.993522)  can0  464   [8]  A5 67 AF 02 5E 02 75 00 ::
whereamiCoords(
    Latitude: 45.049765 °,
    Longitude: 7.668317999999999 °
)
 (051.049411)  can0  460   [4]  00 00 00 00 ::
whereamiData(
    Speed: 0.0 km/h,
    Distance: 0 m
)
 (051.049646)  can0  462   [4]  00 00 00 00 ::
whereamiRawData(
    RawSpeed: 0.0 km/h,
    RawDistance: 0 m
)
 (051.049835)  can0  464   [8]  A5 67 AF 02 5E 02 75 00 ::
whereamiCoords(
    Latitude: 45.049765 °,
    Longitude: 7.668317999999999 °
)
 (052.026065)  can0  460   [4]  00 00 00 00 ::
whereamiData(
    Speed: 0.0 km/h,
    Distance: 0 m
)
 (052.026287)  can0  462   [4]  00 00 00 00 ::
whereamiRawData(
    RawSpeed: 0.0 km/h,
    RawDistance: 0 m
)
 (052.026488)  can0  464   [8]  A5 67 AF 02 5E 02 75 00 ::
whereamiCoords(
    Latitude: 45.049765 °,
    Longitude: 7.668317999999999 °
)
 (052.977432)  can0  460   [4]  00 00 00 00 ::
whereamiData(
    Speed: 0.0 km/h,
    Distance: 0 m
)
 (052.977656)  can0  462   [4]  00 00 00 00 ::
whereamiRawData(
    RawSpeed: 0.0 km/h,
    RawDistance: 0 m
)
 (052.977852)  can0  464   [8]  A5 67 AF 02 5E 02 75 00 ::
whereamiCoords(
    Latitude: 45.049765 °,
    Longitude: 7.668317999999999 °
)
 (054.034178)  can0  460   [4]  00 00 00 00 ::
whereamiData(
    Speed: 0.0 km/h,
    Distance: 0 m
)
 (054.034386)  can0  462   [4]  00 00 00 00 ::
whereamiRawData(
    RawSpeed: 0.0 km/h,
    RawDistance: 0 m
)
 (054.034578)  can0  464   [8]  A5 67 AF 02 5E 02 75 00 ::
whereamiCoords(
    Latitude: 45.049765 °,
    Longitude: 7.668317999999999 °
)
 (054.986925)  can0  460   [4]  00 00 00 00 ::
whereamiData(
    Speed: 0.0 km/h,
    Distance: 0 m
)
 (054.987153)  can0  462   [4]  00 00 00 00 ::
whereamiRawData(
    RawSpeed: 0.0 km/h,
    RawDistance: 0 m
)
 (054.987352)  can0  464   [8]  A5 67 AF 02 5E 02 75 00 ::
whereamiCoords(
    Latitude: 45.049765 °,
    Longitude: 7.668317999999999 °
)
 (056.043176)  can0  460   [4]  00 00 00 00 ::
whereamiData(
    Speed: 0.0 km/h,
    Distance: 0 m
)
 (056.043400)  can0  462   [4]  00 00 00 00 ::
whereamiRawData(
    RawSpeed: 0.0 km/h,
    RawDistance: 0 m
)
 (056.043595)  can0  464   [8]  A5 67 AF 02 5E 02 75 00 ::
whereamiCoords(
    Latitude: 45.049765 °,
    Longitude: 7.668317999999999 °
)
 (056.996059)  can0  460   [4]  00 00 00 00 ::
whereamiData(
    Speed: 0.0 km/h,
    Distance: 0 m
)
 (056.996286)  can0  462   [4]  00 00 00 00 ::
whereamiRawData(
    RawSpeed: 0.0 km/h,
    RawDistance: 0 m
)
 (056.996481)  can0  464   [8]  A5 67 AF 02 5E 02 75 00 ::
whereamiCoords(
    Latitude: 45.049765 °,
    Longitude: 7.668317999999999 °
)
 (058.054669)  can0  460   [4]  12 00 00 00 ::
whereamiData(
    Speed: 0.18 km/h,
    Distance: 0 m
)
 (058.054896)  can0  462   [4]  12 00 00 00 ::
whereamiRawData(
    RawSpeed: 0.18 km/h,
    RawDistance: 0 m
)
 (058.055092)  can0  464   [8]  A4 67 AF 02 5D 02 75 00 ::
whereamiCoords(
    Latitude: 45.049763999999996 °,
    Longitude: 7.668317 °
)
 (059.009039)  can0  460   [4]  00 00 00 00 ::
whereamiData(
    Speed: 0.0 km/h,
    Distance: 0 m
)
 (059.009256)  can0  462   [4]  00 00 00 00 ::
whereamiRawData(
    RawSpeed: 0.0 km/h,
    RawDistance: 0 m
)
 (059.009455)  can0  464   [8]  A4 67 AF 02 5D 02 75 00 ::
whereamiCoords(
    Latitude: 45.049763999999996 °,
    Longitude: 7.668317 °
)
 (060.063593)  can0  460   [4]  00 00 00 00 ::
whereamiData(
    Speed: 0.0 km/h,
    Distance: 0 m
)
 (060.063808)  can0  462   [4]  00 00 00 00 ::
whereamiRawData(
    RawSpeed: 0.0 km/h,
    RawDistance: 0 m
)
 (060.063998)  can0  464   [8]  A4 67 AF 02 5D 02 75 00 ::
whereamiCoords(
    Latitude: 45.049763999999996 °,
    Longitude: 7.668317 °
)
 (061.037924)  can0  460   [4]  00 00 00 00 ::
whereamiData(
    Speed: 0.0 km/h,
    Distance: 0 m
)
 (061.038142)  can0  462   [4]  00 00 00 00 ::
whereamiRawData(
    RawSpeed: 0.0 km/h,
    RawDistance: 0 m
)
 (061.038336)  can0  464   [8]  A4 67 AF 02 5D 02 75 00 ::
whereamiCoords(
    Latitude: 45.049763999999996 °,
    Longitude: 7.668317 °
)
 (061.994540)  can0  460   [4]  00 00 00 00 ::
whereamiData(
    Speed: 0.0 km/h,
    Distance: 0 m
)
 (061.994755)  can0  462   [4]  00 00 00 00 ::
whereamiRawData(
    RawSpeed: 0.0 km/h,
    RawDistance: 0 m
)
 (061.994950)  can0  464   [8]  A4 67 AF 02 5D 02 75 00 ::
whereamiCoords(
    Latitude: 45.049763999999996 °,
    Longitude: 7.668317 °
)
 (063.049234)  can0  460   [4]  12 00 00 00 ::
whereamiData(
    Speed: 0.18 km/h,
    Distance: 0 m
)
 (063.049443)  can0  462   [4]  12 00 00 00 ::
whereamiRawData(
    RawSpeed: 0.18 km/h,
    RawDistance: 0 m
)
 (063.049632)  can0  464   [8]  A4 67 AF 02 5C 02 75 00 ::
whereamiCoords(
    Latitude: 45.049763999999996 °,
    Longitude: 7.668316 °
)
 (064.003884)  can0  460   [4]  00 00 00 00 ::
whereamiData(
    Speed: 0.0 km/h,
    Distance: 0 m
)
 (064.004100)  can0  462   [4]  00 00 00 00 ::
whereamiRawData(
    RawSpeed: 0.0 km/h,
    RawDistance: 0 m
)
 (064.004288)  can0  464   [8]  A4 67 AF 02 5C 02 75 00 ::
whereamiCoords(
    Latitude: 45.049763999999996 °,
    Longitude: 7.668316 °
)
 (065.061450)  can0  460   [4]  00 00 00 00 ::
whereamiData(
    Speed: 0.0 km/h,
    Distance: 0 m
)
 (065.061668)  can0  462   [4]  00 00 00 00 ::
whereamiRawData(
    RawSpeed: 0.0 km/h,
    RawDistance: 0 m
)
 (065.061861)  can0  464   [8]  A4 67 AF 02 5C 02 75 00 ::
whereamiCoords(
    Latitude: 45.049763999999996 °,
    Longitude: 7.668316 °
)
 (066.017860)  can0  460   [4]  00 00 00 00 ::
whereamiData(
    Speed: 0.0 km/h,
    Distance: 0 m
)
 (066.018066)  can0  462   [4]  00 00 00 00 ::
whereamiRawData(
    RawSpeed: 0.0 km/h,
    RawDistance: 0 m
)
 (066.018247)  can0  464   [8]  A4 67 AF 02 5C 02 75 00 ::
whereamiCoords(
    Latitude: 45.049763999999996 °,
    Longitude: 7.668316 °
)
 (067.067457)  can0  460   [4]  00 00 00 00 ::
whereamiData(
    Speed: 0.0 km/h,
    Distance: 0 m
)
 (067.067689)  can0  462   [4]  00 00 00 00 ::
whereamiRawData(
    RawSpeed: 0.0 km/h,
    RawDistance: 0 m
)
 (067.067880)  can0  464   [8]  A4 67 AF 02 5C 02 75 00 ::
whereamiCoords(
    Latitude: 45.049763999999996 °,
    Longitude: 7.668316 °
)
 (068.019348)  can0  460   [4]  00 00 00 00 ::
whereamiData(
    Speed: 0.0 km/h,
    Distance: 0 m
)
 (068.019567)  can0  462   [4]  00 00 00 00 ::
whereamiRawData(
    RawSpeed: 0.0 km/h,
    RawDistance: 0 m
)
 (068.019760)  can0  464   [8]  A4 67 AF 02 5C 02 75 00 ::
whereamiCoords(
    Latitude: 45.049763999999996 °,
    Longitude: 7.668316 °
)
 (069.072277)  can0  460   [4]  00 00 00 00 ::
whereamiData(
    Speed: 0.0 km/h,
    Distance: 0 m
)
 (069.072508)  can0  462   [4]  00 00 00 00 ::
whereamiRawData(
    RawSpeed: 0.0 km/h,
    RawDistance: 0 m
)
 (069.072705)  can0  464   [8]  A4 67 AF 02 5B 02 75 00 ::
whereamiCoords(
    Latitude: 45.049763999999996 °,
    Longitude: 7.668315 °
)
 (070.025959)  can0  460   [4]  00 00 00 00 ::
whereamiData(
    Speed: 0.0 km/h,
    Distance: 0 m
)
 (070.026178)  can0  462   [4]  00 00 00 00 ::
whereamiRawData(
    RawSpeed: 0.0 km/h,
    RawDistance: 0 m
)
 (070.026376)  can0  464   [8]  A4 67 AF 02 5B 02 75 00 ::
whereamiCoords(
    Latitude: 45.049763999999996 °,
    Longitude: 7.668315 °
)
 (070.997651)  can0  460   [4]  00 00 00 00 ::
whereamiData(
    Speed: 0.0 km/h,
