 (000.000000)  can0  460   [4]  00 00 A7 C1 ::
whereamiData(
    Speed: 0.0 km/h,
    Distance: 49575 m
)
 (000.000217)  can0  462   [4]  00 00 A7 C1 ::
whereamiRawData(
    RawSpeed: 0.0 km/h,
    RawDistance: 49575 m
)
 (000.000408)  can0  464   [8]  3D 69 AF 02 A8 02 75 00 ::
whereamiCoords(
    Latitude: 45.050173 °,
    Longitude: 7.668392 °
)
 (000.996011)  can0  460   [4]  00 00 A7 C1 ::
whereamiData(
    Speed: 0.0 km/h,
    Distance: 49575 m
)
 (000.996220)  can0  462   [4]  00 00 A7 C1 ::
whereamiRawData(
    RawSpeed: 0.0 km/h,
    RawDistance: 49575 m
)
 (000.996408)  can0  464   [8]  40 69 AF 02 A8 02 75 00 ::
whereamiCoords(
    Latitude: 45.050176 °,
    Longitude: 7.668392 °
)
 (002.000047)  can0  460   [4]  00 00 A7 C1 ::
whereamiData(
    Speed: 0.0 km/h,
    Distance: 49575 m
)
 (002.000254)  can0  462   [4]  00 00 A7 C1 ::
whereamiRawData(
    RawSpeed: 0.0 km/h,
    RawDistance: 49575 m
)
 (002.000442)  can0  464   [8]  42 69 AF 02 A7 02 75 00 ::
whereamiCoords(
    Latitude: 45.050177999999995 °,
    Longitude: 7.668391 °
)
 (003.004153)  can0  460   [4]  00 00 A6 C1 ::
whereamiData(
    Speed: 0.0 km/h,
    Distance: 49574 m
)
 (003.004392)  can0  462   [4]  00 00 A6 C1 ::
whereamiRawData(
    RawSpeed: 0.0 km/h,
    RawDistance: 49574 m
)
 (003.004608)  can0  464   [8]  45 69 AF 02 A7 02 75 00 ::
whereamiCoords(
    Latitude: 45.050180999999995 °,
    Longitude: 7.668391 °
)
 (004.008115)  can0  460   [4]  00 00 A6 C1 ::
whereamiData(
    Speed: 0.0 km/h,
    Distance: 49574 m
)
 (004.008364)  can0  462   [4]  00 00 A6 C1 ::
whereamiRawData(
    RawSpeed: 0.0 km/h,
    RawDistance: 49574 m
)
 (004.008580)  can0  464   [8]  49 69 AF 02 A7 02 75 00 ::
whereamiCoords(
    Latitude: 45.050185 °,
    Longitude: 7.668391 °
)
 (005.012179)  can0  460   [4]  00 00 A6 C1 ::
whereamiData(
    Speed: 0.0 km/h,
    Distance: 49574 m
)
 (005.012388)  can0  462   [4]  00 00 A6 C1 ::
whereamiRawData(
    RawSpeed: 0.0 km/h,
    RawDistance: 49574 m
)
 (005.012578)  can0  464   [8]  4C 69 AF 02 A7 02 75 00 ::
whereamiCoords(
    Latitude: 45.050188 °,
    Longitude: 7.668391 °
)
 (006.016108)  can0  460   [4]  00 00 A6 C1 ::
whereamiData(
    Speed: 0.0 km/h,
    Distance: 49574 m
)
 (006.016314)  can0  462   [4]  00 00 A6 C1 ::
whereamiRawData(
    RawSpeed: 0.0 km/h,
    RawDistance: 49574 m
)
 (006.016501)  can0  464   [8]  4F 69 AF 02 A8 02 75 00 ::
whereamiCoords(
    Latitude: 45.050191 °,
    Longitude: 7.668392 °
)
 (007.024120)  can0  460   [4]  00 00 A6 C1 ::
whereamiData(
    Speed: 0.0 km/h,
    Distance: 49574 m
)
 (007.024339)  can0  462   [4]  00 00 A6 C1 ::
whereamiRawData(
    RawSpeed: 0.0 km/h,
    RawDistance: 49574 m
)
 (007.024539)  can0  464   [8]  4F 69 AF 02 A8 02 75 00 ::
whereamiCoords(
    Latitude: 45.050191 °,
    Longitude: 7.668392 °
)
 (008.028135)  can0  460   [4]  00 00 A6 C1 ::
whereamiData(
    Speed: 0.0 km/h,
    Distance: 49574 m
)
 (008.028350)  can0  462   [4]  00 00 A6 C1 ::
whereamiRawData(
    RawSpeed: 0.0 km/h,
    RawDistance: 49574 m
)
 (008.028545)  can0  464   [8]  4F 69 AF 02 A8 02 75 00 ::
whereamiCoords(
    Latitude: 45.050191 °,
    Longitude: 7.668392 °
)
 (009.036145)  can0  460   [4]  00 00 A6 C1 ::
whereamiData(
    Speed: 0.0 km/h,
    Distance: 49574 m
)
 (009.036359)  can0  462   [4]  00 00 A6 C1 ::
whereamiRawData(
    RawSpeed: 0.0 km/h,
    RawDistance: 49574 m
)
 (009.036551)  can0  464   [8]  4F 69 AF 02 A8 02 75 00 ::
whereamiCoords(
    Latitude: 45.050191 °,
    Longitude: 7.668392 °
)
 (010.042170)  can0  460   [4]  00 00 A6 C1 ::
whereamiData(
    Speed: 0.0 km/h,
    Distance: 49574 m
)
 (010.042384)  can0  462   [4]  00 00 A6 C1 ::
whereamiRawData(
    RawSpeed: 0.0 km/h,
    RawDistance: 49574 m
)
 (010.042577)  can0  464   [8]  4F 69 AF 02 A8 02 75 00 ::
whereamiCoords(
    Latitude: 45.050191 °,
    Longitude: 7.668392 °
)
 (011.046350)  can0  460   [4]  00 00 A6 C1 ::
whereamiData(
    Speed: 0.0 km/h,
    Distance: 49574 m
)
 (011.046572)  can0  462   [4]  00 00 A6 C1 ::
whereamiRawData(
    RawSpeed: 0.0 km/h,
    RawDistance: 49574 m
)
 (011.046772)  can0  464   [8]  4F 69 AF 02 A8 02 75 00 ::
whereamiCoords(
    Latitude: 45.050191 °,
    Longitude: 7.668392 °
)
 (012.052371)  can0  460   [4]  00 00 A6 C1 ::
whereamiData(
    Speed: 0.0 km/h,
    Distance: 49574 m
)
 (012.052584)  can0  462   [4]  00 00 A6 C1 ::
whereamiRawData(
    RawSpeed: 0.0 km/h,
    RawDistance: 49574 m
)
 (012.052781)  can0  464   [8]  4F 69 AF 02 A8 02 75 00 ::
whereamiCoords(
    Latitude: 45.050191 °,
    Longitude: 7.668392 °
)
 (013.060488)  can0  460   [4]  00 00 A6 C1 ::
whereamiData(
    Speed: 0.0 km/h,
    Distance: 49574 m
)
 (013.060708)  can0  462   [4]  12 00 A6 C1 ::
whereamiRawData(
    RawSpeed: 0.18 km/h,
    RawDistance: 49574 m
)
 (013.060902)  can0  464   [8]  4F 69 AF 02 A8 02 75 00 ::
whereamiCoords(
    Latitude: 45.050191 °,
    Longitude: 7.668392 °
)
 (014.066667)  can0  460   [4]  00 00 A6 C1 ::
whereamiData(
    Speed: 0.0 km/h,
    Distance: 49574 m
)
 (014.066874)  can0  462   [4]  12 00 A6 C1 ::
whereamiRawData(
    RawSpeed: 0.18 km/h,
    RawDistance: 49574 m
)
 (014.067064)  can0  464   [8]  4F 69 AF 02 A7 02 75 00 ::
whereamiCoords(
    Latitude: 45.050191 °,
    Longitude: 7.668391 °
)
 (015.070415)  can0  460   [4]  00 00 A6 C1 ::
whereamiData(
    Speed: 0.0 km/h,
    Distance: 49574 m
)
 (015.070621)  can0  462   [4]  00 00 A6 C1 ::
whereamiRawData(
    RawSpeed: 0.0 km/h,
    RawDistance: 49574 m
)
 (015.070813)  can0  464   [8]  50 69 AF 02 A7 02 75 00 ::
whereamiCoords(
    Latitude: 45.050191999999996 °,
    Longitude: 7.668391 °
)
 (015.977815)  can0  460   [4]  00 00 A6 C1 ::
whereamiData(
    Speed: 0.0 km/h,
    Distance: 49574 m
)
 (015.978022)  can0  462   [4]  00 00 A6 C1 ::
whereamiRawData(
    RawSpeed: 0.0 km/h,
    RawDistance: 49574 m
)
 (015.978211)  can0  464   [8]  50 69 AF 02 A7 02 75 00 ::
whereamiCoords(
    Latitude: 45.050191999999996 °,
    Longitude: 7.668391 °
)
 (016.979852)  can0  460   [4]  00 00 A6 C1 ::
whereamiData(
    Speed: 0.0 km/h,
    Distance: 49574 m
)
 (016.980072)  can0  462   [4]  00 00 A6 C1 ::
whereamiRawData(
    RawSpeed: 0.0 km/h,
    RawDistance: 49574 m
)
 (016.980274)  can0  464   [8]  50 69 AF 02 A7 02 75 00 ::
whereamiCoords(
    Latitude: 45.050191999999996 °,
    Longitude: 7.668391 °
)
 (017.983850)  can0  460   [4]  00 00 A6 C1 ::
whereamiData(
    Speed: 0.0 km/h,
    Distance: 49574 m
)
 (017.984065)  can0  462   [4]  00 00 A6 C1 ::
whereamiRawData(
    RawSpeed: 0.0 km/h,
    RawDistance: 49574 m
)
 (017.984257)  can0  464   [8]  50 69 AF 02 A7 02 75 00 ::
whereamiCoords(
    Latitude: 45.050191999999996 °,
    Longitude: 7.668391 °
)
 (018.994310)  can0  460   [4]  00 00 A6 C1 ::
whereamiData(
    Speed: 0.0 km/h,
    Distance: 49574 m
)
 (018.994520)  can0  462   [4]  00 00 A6 C1 ::
whereamiRawData(
    RawSpeed: 0.0 km/h,
    RawDistance: 49574 m
)
 (018.994710)  can0  464   [8]  50 69 AF 02 A7 02 75 00 ::
whereamiCoords(
    Latitude: 45.050191999999996 °,
    Longitude: 7.668391 °
)
 (019.998405)  can0  460   [4]  00 00 A6 C1 ::
whereamiData(
    Speed: 0.0 km/h,
    Distance: 49574 m
)
 (019.998614)  can0  462   [4]  00 00 A6 C1 ::
whereamiRawData(
    RawSpeed: 0.0 km/h,
    RawDistance: 49574 m
)
 (019.998804)  can0  464   [8]  50 69 AF 02 A7 02 75 00 ::
whereamiCoords(
    Latitude: 45.050191999999996 °,
    Longitude: 7.668391 °
)
 (304.709399)  can0  460   [4]  00 00 A6 C1 ::
whereamiData(
    Speed: 0.0 km/h,
    Distance: 49574 m
)
 (304.709609)  can0  462   [4]  00 00 A6 C1 ::
whereamiRawData(
    RawSpeed: 0.0 km/h,
    RawDistance: 49574 m
)
 (304.709800)  can0  464   [8]  50 69 AF 02 A7 02 75 00 ::
whereamiCoords(
    Latitude: 45.050191999999996 °,
    Longitude: 7.668391 °
)
 (305.717329)  can0  460   [4]  00 00 A6 C1 ::
whereamiData(
    Speed: 0.0 km/h,
    Distance: 49574 m
)
 (305.717540)  can0  462   [4]  00 00 A6 C1 ::
whereamiRawData(
    RawSpeed: 0.0 km/h,
    RawDistance: 49574 m
)
 (305.717737)  can0  464   [8]  58 69 AF 02 C3 02 75 00 ::
whereamiCoords(
    Latitude: 45.0502 °,
    Longitude: 7.668419 °
)
 (306.721444)  can0  460   [4]  00 00 A6 C1 ::
whereamiData(
    Speed: 0.0 km/h,
    Distance: 49574 m
)
 (306.721659)  can0  462   [4]  00 00 A6 C1 ::
whereamiRawData(
    RawSpeed: 0.0 km/h,
    RawDistance: 49574 m
)
 (306.721852)  can0  464   [8]  5A 69 AF 02 C6 02 75 00 ::
whereamiCoords(
    Latitude: 45.050202 °,
    Longitude: 7.668422 °
)
 (307.731532)  can0  460   [4]  00 00 A6 C1 ::
whereamiData(
    Speed: 0.0 km/h,
    Distance: 49574 m
)
 (307.731739)  can0  462   [4]  00 00 A6 C1 ::
whereamiRawData(
    RawSpeed: 0.0 km/h,
    RawDistance: 49574 m
)
 (307.731929)  can0  464   [8]  5C 69 AF 02 C8 02 75 00 ::
whereamiCoords(
    Latitude: 45.050204 °,
    Longitude: 7.668424 °
)
 (308.739375)  can0  460   [4]  00 00 A6 C1 ::
whereamiData(
    Speed: 0.0 km/h,
    Distance: 49574 m
)
 (308.739583)  can0  462   [4]  00 00 A6 C1 ::
whereamiRawData(
    RawSpeed: 0.0 km/h,
    RawDistance: 49574 m
)
 (308.739773)  can0  464   [8]  5E 69 AF 02 C9 02 75 00 ::
whereamiCoords(
    Latitude: 45.050205999999996 °,
    Longitude: 7.668425 °
)
 (309.747471)  can0  460   [4]  00 00 A6 C1 ::
whereamiData(
    Speed: 0.0 km/h,
    Distance: 49574 m
)
 (309.747679)  can0  462   [4]  00 00 A6 C1 ::
whereamiRawData(
    RawSpeed: 0.0 km/h,
    RawDistance: 49574 m
)
 (309.747869)  can0  464   [8]  60 69 AF 02 C9 02 75 00 ::
whereamiCoords(
    Latitude: 45.050208 °,
    Longitude: 7.668425 °
)
 (310.755423)  can0  460   [4]  00 00 A6 C1 ::
whereamiData(
    Speed: 0.0 km/h,
    Distance: 49574 m
)
 (310.755638)  can0  462   [4]  00 00 A6 C1 ::
whereamiRawData(
    RawSpeed: 0.0 km/h,
    RawDistance: 49574 m
)
 (310.755835)  can0  464   [8]  63 69 AF 02 C9 02 75 00 ::
whereamiCoords(
    Latitude: 45.050211 °,
    Longitude: 7.668425 °
)
 (311.763513)  can0  460   [4]  00 00 A5 C1 ::
whereamiData(
    Speed: 0.0 km/h,
    Distance: 49573 m
)
 (311.763724)  can0  462   [4]  00 00 A5 C1 ::
whereamiRawData(
    RawSpeed: 0.0 km/h,
    RawDistance: 49573 m
)
 (311.763915)  can0  464   [8]  65 69 AF 02 CA 02 75 00 ::
whereamiCoords(
    Latitude: 45.050213 °,
    Longitude: 7.668425999999999 °
)
 (312.771435)  can0  460   [4]  00 00 A5 C1 ::
whereamiData(
    Speed: 0.0 km/h,
    Distance: 49573 m
)
 (312.771640)  can0  462   [4]  00 00 A5 C1 ::
whereamiRawData(
    RawSpeed: 0.0 km/h,
    RawDistance: 49573 m
)
 (312.771831)  can0  464   [8]  68 69 AF 02 CB 02 75 00 ::
whereamiCoords(
    Latitude: 45.050216 °,
    Longitude: 7.668426999999999 °
)
 (313.777458)  can0  460   [4]  00 00 A5 C1 ::
whereamiData(
    Speed: 0.0 km/h,
    Distance: 49573 m
)
 (313.777665)  can0  462   [4]  00 00 A5 C1 ::
whereamiRawData(
    RawSpeed: 0.0 km/h,
    RawDistance: 49573 m
)
 (313.777855)  can0  464   [8]  69 69 AF 02 CB 02 75 00 ::
whereamiCoords(
    Latitude: 45.050216999999996 °,
    Longitude: 7.668426999999999 °
)
 (314.683640)  can0  460   [4]  00 00 A5 C1 ::
whereamiData(
    Speed: 0.0 km/h,
    Distance: 49573 m
)
 (314.683854)  can0  462   [4]  00 00 A5 C1 ::
whereamiRawData(
    RawSpeed: 0.0 km/h,
    RawDistance: 49573 m
)
 (314.684046)  can0  464   [8]  69 69 AF 02 CB 02 75 00 ::
whereamiCoords(
    Latitude: 45.050216999999996 °,
    Longitude: 7.668426999999999 °
)
 (315.695039)  can0  460   [4]  00 00 A5 C1 ::
whereamiData(
    Speed: 0.0 km/h,
    Distance: 49573 m
)
 (315.695247)  can0  462   [4]  00 00 A5 C1 ::
whereamiRawData(
    RawSpeed: 0.0 km/h,
    RawDistance: 49573 m
)
 (315.695436)  can0  464   [8]  69 69 AF 02 CA 02 75 00 ::
whereamiCoords(
    Latitude: 45.050216999999996 °,
    Longitude: 7.668425999999999 °
)
 (316.703518)  can0  460   [4]  00 00 A5 C1 ::
whereamiData(
    Speed: 0.0 km/h,
    Distance: 49573 m
)
 (316.703736)  can0  462   [4]  00 00 A5 C1 ::
whereamiRawData(
    RawSpeed: 0.0 km/h,
    RawDistance: 49573 m
)
 (316.703928)  can0  464   [8]  68 69 AF 02 C8 02 75 00 ::
whereamiCoords(
    Latitude: 45.050216 °,
    Longitude: 7.668424 °
)
 (317.711682)  can0  460   [4]  00 00 A5 C1 ::
whereamiData(
    Speed: 0.0 km/h,
    Distance: 49573 m
)
 (317.711894)  can0  462   [4]  00 00 A5 C1 ::
whereamiRawData(
    RawSpeed: 0.0 km/h,
    RawDistance: 49573 m
)
 (317.712091)  can0  464   [8]  68 69 AF 02 C5 02 75 00 ::
whereamiCoords(
    Latitude: 45.050216 °,
    Longitude: 7.6684209999999995 °
)
 (318.725705)  can0  460   [4]  00 00 A5 C1 ::
whereamiData(
    Speed: 0.0 km/h,
    Distance: 49573 m
)
 (318.725914)  can0  462   [4]  00 00 A5 C1 ::
whereamiRawData(
    RawSpeed: 0.0 km/h,
    RawDistance: 49573 m
)
 (318.726103)  can0  464   [8]  68 69 AF 02 C3 02 75 00 ::
whereamiCoords(
    Latitude: 45.050216 °,
    Longitude: 7.668419 °
)
 (319.739628)  can0  460   [4]  00 00 A5 C1 ::
whereamiData(
    Speed: 0.0 km/h,
    Distance: 49573 m
)
 (319.739836)  can0  462   [4]  00 00 A5 C1 ::
whereamiRawData(
    RawSpeed: 0.0 km/h,
    RawDistance: 49573 m
)
 (319.740025)  can0  464   [8]  6B 69 AF 02 C1 02 75 00 ::
whereamiCoords(
    Latitude: 45.050219 °,
    Longitude: 7.668417 °
)
 (320.751724)  can0  460   [4]  00 00 A4 C1 ::
whereamiData(
    Speed: 0.0 km/h,
    Distance: 49572 m
)
 (320.751931)  can0  462   [4]  00 00 A4 C1 ::
whereamiRawData(
    RawSpeed: 0.0 km/h,
    RawDistance: 49572 m
)
 (320.752127)  can0  464   [8]  6F 69 AF 02 C0 02 75 00 ::
whereamiCoords(
    Latitude: 45.050222999999995 °,
    Longitude: 7.668416 °
)
 (321.767826)  can0  460   [4]  00 00 A4 C1 ::
whereamiData(
    Speed: 0.0 km/h,
    Distance: 49572 m
)
 (321.768032)  can0  462   [4]  00 00 A4 C1 ::
whereamiRawData(
    RawSpeed: 0.0 km/h,
    RawDistance: 49572 m
)
 (321.768221)  can0  464   [8]  74 69 AF 02 BE 02 75 00 ::
whereamiCoords(
    Latitude: 45.050228 °,
    Longitude: 7.668413999999999 °
)
 (322.681151)  can0  460   [4]  00 00 A3 C1 ::
whereamiData(
    Speed: 0.0 km/h,
    Distance: 49571 m
)
 (322.681366)  can0  462   [4]  00 00 A3 C1 ::
whereamiRawData(
    RawSpeed: 0.0 km/h,
    RawDistance: 49571 m
)
 (322.681559)  can0  464   [8]  79 69 AF 02 BC 02 75 00 ::
whereamiCoords(
    Latitude: 45.050233 °,
    Longitude: 7.668412 °
)
 (323.689775)  can0  460   [4]  00 00 A3 C1 ::
whereamiData(
    Speed: 0.0 km/h,
    Distance: 49571 m
)
 (323.689987)  can0  462   [4]  00 00 A3 C1 ::
whereamiRawData(
    RawSpeed: 0.0 km/h,
    RawDistance: 49571 m
)
 (323.690183)  can0  464   [8]  7E 69 AF 02 B9 02 75 00 ::
whereamiCoords(
    Latitude: 45.050238 °,
    Longitude: 7.668409 °
)
 (324.697703)  can0  460   [4]  00 00 A2 C1 ::
whereamiData(
    Speed: 0.0 km/h,
    Distance: 49570 m
)
 (324.697913)  can0  462   [4]  00 00 A2 C1 ::
whereamiRawData(
    RawSpeed: 0.0 km/h,
    RawDistance: 49570 m
)
 (324.698102)  can0  464   [8]  81 69 AF 02 B6 02 75 00 ::
whereamiCoords(
    Latitude: 45.050241 °,
    Longitude: 7.668406 °
)
 (325.711801)  can0  460   [4]  00 00 A2 C1 ::
whereamiData(
    Speed: 0.0 km/h,
    Distance: 49570 m
)
 (325.712010)  can0  462   [4]  00 00 A2 C1 ::
whereamiRawData(
    RawSpeed: 0.0 km/h,
    RawDistance: 49570 m
)
 (325.712200)  can0  464   [8]  85 69 AF 02 B3 02 75 00 ::
whereamiCoords(
    Latitude: 45.050245 °,
    Longitude: 7.668403 °
)
 (326.727648)  can0  460   [4]  00 00 A1 C1 ::
whereamiData(
    Speed: 0.0 km/h,
    Distance: 49569 m
)
 (326.727869)  can0  462   [4]  00 00 A1 C1 ::
whereamiRawData(
    RawSpeed: 0.0 km/h,
    RawDistance: 49569 m
)
 (326.728058)  can0  464   [8]  87 69 AF 02 B2 02 75 00 ::
whereamiCoords(
    Latitude: 45.050247 °,
    Longitude: 7.6684019999999995 °
)
 (327.737745)  can0  460   [4]  00 00 A1 C1 ::
whereamiData(
    Speed: 0.0 km/h,
    Distance: 49569 m
)
 (327.737952)  can0  462   [4]  00 00 A1 C1 ::
whereamiRawData(
    RawSpeed: 0.0 km/h,
    RawDistance: 49569 m
)
 (327.738144)  can0  464   [8]  89 69 AF 02 B1 02 75 00 ::
whereamiCoords(
    Latitude: 45.050249 °,
    Longitude: 7.668400999999999 °
)
 (328.749668)  can0  460   [4]  00 00 A1 C1 ::
whereamiData(
    Speed: 0.0 km/h,
    Distance: 49569 m
)
 (328.749879)  can0  462   [4]  00 00 A1 C1 ::
whereamiRawData(
    RawSpeed: 0.0 km/h,
    RawDistance: 49569 m
)
 (328.750067)  can0  464   [8]  8B 69 AF 02 AF 02 75 00 ::
whereamiCoords(
    Latitude: 45.050250999999996 °,
    Longitude: 7.668399 °
)
 (329.759868)  can0  460   [4]  00 00 A0 C1 ::
whereamiData(
    Speed: 0.0 km/h,
    Distance: 49568 m
)
 (329.760082)  can0  462   [4]  00 00 A0 C1 ::
whereamiRawData(
    RawSpeed: 0.0 km/h,
    RawDistance: 49568 m
)
 (329.760273)  can0  464   [8]  8E 69 AF 02 AC 02 75 00 ::
whereamiCoords(
    Latitude: 45.050253999999995 °,
    Longitude: 7.6683959999999995 °
)
 (330.773799)  can0  460   [4]  00 00 A0 C1 ::
whereamiData(
    Speed: 0.0 km/h,
    Distance: 49568 m
)
 (330.774006)  can0  462   [4]  00 00 A0 C1 ::
whereamiRawData(
    RawSpeed: 0.0 km/h,
    RawDistance: 49568 m
)
 (330.774196)  can0  464   [8]  91 69 AF 02 A9 02 75 00 ::
whereamiCoords(
    Latitude: 45.050256999999995 °,
    Longitude: 7.668393 °
)
 (331.683281)  can0  460   [4]  00 00 A0 C1 ::
whereamiData(
    Speed: 0.0 km/h,
    Distance: 49568 m
)
 (331.683491)  can0  462   [4]  00 00 A0 C1 ::
whereamiRawData(
    RawSpeed: 0.0 km/h,
    RawDistance: 49568 m
)
 (331.683681)  can0  464   [8]  93 69 AF 02 A7 02 75 00 ::
whereamiCoords(
    Latitude: 45.050259 °,
    Longitude: 7.668391 °
)
 (332.695825)  can0  460   [4]  00 00 A0 C1 ::
whereamiData(
    Speed: 0.0 km/h,
    Distance: 49568 m
)
 (332.696035)  can0  462   [4]  00 00 A0 C1 ::
whereamiRawData(
    RawSpeed: 0.0 km/h,
    RawDistance: 49568 m
)
 (332.696227)  can0  464   [8]  94 69 AF 02 A4 02 75 00 ::
whereamiCoords(
    Latitude: 45.050259999999994 °,
    Longitude: 7.668387999999999 °
)
 (333.707923)  can0  460   [4]  00 00 9F C1 ::
whereamiData(
    Speed: 0.0 km/h,
    Distance: 49567 m
)
 (333.708140)  can0  462   [4]  00 00 9F C1 ::
whereamiRawData(
    RawSpeed: 0.0 km/h,
    RawDistance: 49567 m
)
 (333.708332)  can0  464   [8]  94 69 AF 02 A3 02 75 00 ::
whereamiCoords(
    Latitude: 45.050259999999994 °,
    Longitude: 7.668387 °
)
 (334.715936)  can0  460   [4]  00 00 A0 C1 ::
whereamiData(
    Speed: 0.0 km/h,
    Distance: 49568 m
)
 (334.716145)  can0  462   [4]  00 00 A0 C1 ::
whereamiRawData(
    RawSpeed: 0.0 km/h,
    RawDistance: 49568 m
)
 (334.716335)  can0  464   [8]  94 69 AF 02 A4 02 75 00 ::
whereamiCoords(
    Latitude: 45.050259999999994 °,
    Longitude: 7.668387999999999 °
)
 (335.729952)  can0  460   [4]  00 00 A0 C1 ::
whereamiData(
    Speed: 0.0 km/h,
    Distance: 49568 m
)
 (335.730159)  can0  462   [4]  00 00 A0 C1 ::
whereamiRawData(
    RawSpeed: 0.0 km/h,
    RawDistance: 49568 m
)
 (335.730349)  can0  464   [8]  94 69 AF 02 A5 02 75 00 ::
whereamiCoords(
    Latitude: 45.050259999999994 °,
    Longitude: 7.6683889999999995 °
)
 (336.742342)  can0  460   [4]  00 00 A0 C1 ::
whereamiData(
    Speed: 0.0 km/h,
    Distance: 49568 m
)
 (336.742549)  can0  462   [4]  00 00 A0 C1 ::
whereamiRawData(
    RawSpeed: 0.0 km/h,
    RawDistance: 49568 m
)
 (336.742741)  can0  464   [8]  94 69 AF 02 A7 02 75 00 ::
whereamiCoords(
    Latitude: 45.050259999999994 °,
    Longitude: 7.668391 °
)
 (337.761932)  can0  460   [4]  00 00 A0 C1 ::
whereamiData(
    Speed: 0.0 km/h,
    Distance: 49568 m
)
 (337.762143)  can0  462   [4]  00 00 A0 C1 ::
whereamiRawData(
    RawSpeed: 0.0 km/h,
    RawDistance: 49568 m
)
 (337.762335)  can0  464   [8]  93 69 AF 02 AA 02 75 00 ::
whereamiCoords(
    Latitude: 45.050259 °,
    Longitude: 7.668393999999999 °
)
 (338.784512)  can0  460   [4]  00 00 A0 C1 ::
whereamiData(
    Speed: 0.0 km/h,
    Distance: 49568 m
)
 (338.784732)  can0  462   [4]  00 00 A0 C1 ::
whereamiRawData(
    RawSpeed: 0.0 km/h,
    RawDistance: 49568 m
)
 (338.784930)  can0  464   [8]  91 69 AF 02 AD 02 75 00 ::
whereamiCoords(
    Latitude: 45.050256999999995 °,
    Longitude: 7.668397 °
)
 (339.798114)  can0  460   [4]  00 00 A1 C1 ::
whereamiData(
    Speed: 0.0 km/h,
    Distance: 49569 m
)
 (339.798326)  can0  462   [4]  00 00 A1 C1 ::
whereamiRawData(
    RawSpeed: 0.0 km/h,
    RawDistance: 49569 m
)
 (339.798519)  can0  464   [8]  8E 69 AF 02 B0 02 75 00 ::
whereamiCoords(
    Latitude: 45.050253999999995 °,
    Longitude: 7.668399999999999 °
)
 (340.710135)  can0  460   [4]  00 00 A1 C1 ::
whereamiData(
    Speed: 0.0 km/h,
    Distance: 49569 m
)
 (340.710349)  can0  462   [4]  00 00 A1 C1 ::
whereamiRawData(
    RawSpeed: 0.0 km/h,
    RawDistance: 49569 m
)
 (340.710543)  can0  464   [8]  8B 69 AF 02 B2 02 75 00 ::
whereamiCoords(
    Latitude: 45.050250999999996 °,
    Longitude: 7.6684019999999995 °
)
 (341.723156)  can0  460   [4]  00 00 A1 C1 ::
whereamiData(
    Speed: 0.0 km/h,
    Distance: 49569 m
)
 (341.723365)  can0  462   [4]  00 00 A1 C1 ::
whereamiRawData(
    RawSpeed: 0.0 km/h,
    RawDistance: 49569 m
)
 (341.723554)  can0  464   [8]  88 69 AF 02 B4 02 75 00 ::
whereamiCoords(
    Latitude: 45.050247999999996 °,
    Longitude: 7.668404 °
)
 (342.740859)  can0  460   [4]  00 00 A1 C1 ::
whereamiData(
    Speed: 0.0 km/h,
    Distance: 49569 m
)
 (342.741074)  can0  462   [4]  00 00 A1 C1 ::
whereamiRawData(
    RawSpeed: 0.0 km/h,
    RawDistance: 49569 m
)
 (342.741265)  can0  464   [8]  87 69 AF 02 B4 02 75 00 ::
whereamiCoords(
    Latitude: 45.050247 °,
    Longitude: 7.668404 °
)
 (343.756410)  can0  460   [4]  00 00 A2 C1 ::
whereamiData(
    Speed: 0.0 km/h,
    Distance: 49570 m
)
 (343.756619)  can0  462   [4]  00 00 A2 C1 ::
whereamiRawData(
    RawSpeed: 0.0 km/h,
    RawDistance: 49570 m
)
 (343.756810)  can0  464   [8]  86 69 AF 02 B5 02 75 00 ::
whereamiCoords(
    Latitude: 45.050246 °,
    Longitude: 7.668405 °
)
 (344.769276)  can0  460   [4]  00 00 A2 C1 ::
whereamiData(
    Speed: 0.0 km/h,
    Distance: 49570 m
)
 (344.769490)  can0  462   [4]  00 00 A2 C1 ::
whereamiRawData(
    RawSpeed: 0.0 km/h,
    RawDistance: 49570 m
)
 (344.769682)  can0  464   [8]  86 69 AF 02 B6 02 75 00 ::
whereamiCoords(
    Latitude: 45.050246 °,
    Longitude: 7.668406 °
)
 (345.783764)  can0  460   [4]  00 00 A2 C1 ::
whereamiData(
    Speed: 0.0 km/h,
    Distance: 49570 m
)
 (345.783973)  can0  462   [4]  00 00 A2 C1 ::
whereamiRawData(
    RawSpeed: 0.0 km/h,
    RawDistance: 49570 m
)
 (345.784166)  can0  464   [8]  85 69 AF 02 B6 02 75 00 ::
whereamiCoords(
    Latitude: 45.050245 °,
    Longitude: 7.668406 °
)
 (346.798199)  can0  460   [4]  00 00 A2 C1 ::
whereamiData(
    Speed: 0.0 km/h,
    Distance: 49570 m
)
 (346.798409)  can0  462   [4]  00 00 A2 C1 ::
whereamiRawData(
    RawSpeed: 0.0 km/h,
    RawDistance: 49570 m
)
 (346.798599)  can0  464   [8]  85 69 AF 02 B6 02 75 00 ::
whereamiCoords(
    Latitude: 45.050245 °,
    Longitude: 7.668406 °
)
 (347.810346)  can0  460   [4]  00 00 A2 C1 ::
whereamiData(
    Speed: 0.0 km/h,
    Distance: 49570 m
)
 (347.810559)  can0  462   [4]  00 00 A2 C1 ::
whereamiRawData(
    RawSpeed: 0.0 km/h,
    RawDistance: 49570 m
)
 (347.810751)  can0  464   [8]  84 69 AF 02 B6 02 75 00 ::
whereamiCoords(
    Latitude: 45.050244 °,
    Longitude: 7.668406 °
)
 (348.823818)  can0  460   [4]  00 00 A2 C1 ::
whereamiData(
    Speed: 0.0 km/h,
    Distance: 49570 m
)
 (348.824039)  can0  462   [4]  00 00 A2 C1 ::
whereamiRawData(
    RawSpeed: 0.0 km/h,
    RawDistance: 49570 m
)
 (348.824233)  can0  464   [8]  84 69 AF 02 B6 02 75 00 ::
whereamiCoords(
    Latitude: 45.050244 °,
    Longitude: 7.668406 °
)
 (349.736657)  can0  460   [4]  00 00 A2 C1 ::
whereamiData(
    Speed: 0.0 km/h,
    Distance: 49570 m
)
 (349.736865)  can0  462   [4]  00 00 A2 C1 ::
whereamiRawData(
    RawSpeed: 0.0 km/h,
    RawDistance: 49570 m
)
 (349.737064)  can0  464   [8]  83 69 AF 02 B6 02 75 00 ::
whereamiCoords(
    Latitude: 45.050242999999995 °,
    Longitude: 7.668406 °
)
 (350.752431)  can0  460   [4]  00 00 A2 C1 ::
whereamiData(
    Speed: 0.0 km/h,
    Distance: 49570 m
)
 (350.752642)  can0  462   [4]  00 00 A2 C1 ::
whereamiRawData(
    RawSpeed: 0.0 km/h,
    RawDistance: 49570 m
)
 (350.752836)  can0  464   [8]  83 69 AF 02 B6 02 75 00 ::
whereamiCoords(
    Latitude: 45.050242999999995 °,
    Longitude: 7.668406 °
)
 (351.767780)  can0  460   [4]  00 00 A2 C1 ::
whereamiData(
    Speed: 0.0 km/h,
    Distance: 49570 m
)
 (351.767991)  can0  462   [4]  00 00 A2 C1 ::
whereamiRawData(
    RawSpeed: 0.0 km/h,
    RawDistance: 49570 m
)
 (351.768181)  can0  464   [8]  83 69 AF 02 B6 02 75 00 ::
whereamiCoords(
    Latitude: 45.050242999999995 °,
    Longitude: 7.668406 °
)
 (352.778725)  can0  460   [4]  00 00 A2 C1 ::
whereamiData(
    Speed: 0.0 km/h,
    Distance: 49570 m
)
 (352.778935)  can0  462   [4]  00 00 A2 C1 ::
whereamiRawData(
    RawSpeed: 0.0 km/h,
    RawDistance: 49570 m
)
 (352.779127)  can0  464   [8]  83 69 AF 02 B6 02 75 00 ::
whereamiCoords(
    Latitude: 45.050242999999995 °,
    Longitude: 7.668406 °
)
