 (000.000000)  can0  460   [4]  00 00 30 00 ::
whereamiData(
    Speed: 0.0 km/h,
    Distance: 48 m
)
 (000.000209)  can0  462   [4]  00 00 30 00 ::
whereamiRawData(
    RawSpeed: 0.0 km/h,
    RawDistance: 48 m
)
 (000.000401)  can0  464   [8]  60 69 AF 02 B7 02 75 00 ::
whereamiCoords(
    Latitude: 45.050208 °,
    Longitude: 7.668406999999999 °
)
 (001.004029)  can0  460   [4]  00 00 30 00 ::
whereamiData(
    Speed: 0.0 km/h,
    Distance: 48 m
)
 (001.004251)  can0  462   [4]  00 00 30 00 ::
whereamiRawData(
    RawSpeed: 0.0 km/h,
    RawDistance: 48 m
)
 (001.004456)  can0  464   [8]  60 69 AF 02 B8 02 75 00 ::
whereamiCoords(
    Latitude: 45.050208 °,
    Longitude: 7.6684079999999994 °
)
 (002.006032)  can0  460   [4]  00 00 30 00 ::
whereamiData(
    Speed: 0.0 km/h,
    Distance: 48 m
)
 (002.006245)  can0  462   [4]  00 00 30 00 ::
whereamiRawData(
    RawSpeed: 0.0 km/h,
    RawDistance: 48 m
)
 (002.006437)  can0  464   [8]  60 69 AF 02 B9 02 75 00 ::
whereamiCoords(
    Latitude: 45.050208 °,
    Longitude: 7.668409 °
)
 (003.006040)  can0  460   [4]  00 00 30 00 ::
whereamiData(
    Speed: 0.0 km/h,
    Distance: 48 m
)
 (003.006256)  can0  462   [4]  00 00 30 00 ::
whereamiRawData(
    RawSpeed: 0.0 km/h,
    RawDistance: 48 m
)
 (003.006448)  can0  464   [8]  60 69 AF 02 BA 02 75 00 ::
whereamiCoords(
    Latitude: 45.050208 °,
    Longitude: 7.66841 °
)
 (004.006266)  can0  460   [4]  12 00 30 00 ::
whereamiData(
    Speed: 0.18 km/h,
    Distance: 48 m
)
 (004.006494)  can0  462   [4]  12 00 30 00 ::
whereamiRawData(
    RawSpeed: 0.18 km/h,
    RawDistance: 48 m
)
 (004.006712)  can0  464   [8]  5F 69 AF 02 BC 02 75 00 ::
whereamiCoords(
    Latitude: 45.050207 °,
    Longitude: 7.668412 °
)
 (005.009919)  can0  460   [4]  00 00 30 00 ::
whereamiData(
    Speed: 0.0 km/h,
    Distance: 48 m
)
 (005.010144)  can0  462   [4]  00 00 30 00 ::
whereamiRawData(
    RawSpeed: 0.0 km/h,
    RawDistance: 48 m
)
 (005.010352)  can0  464   [8]  5E 69 AF 02 BD 02 75 00 ::
whereamiCoords(
    Latitude: 45.050205999999996 °,
    Longitude: 7.668412999999999 °
)
 (006.010092)  can0  460   [4]  00 00 30 00 ::
whereamiData(
    Speed: 0.0 km/h,
    Distance: 48 m
)
 (006.010302)  can0  462   [4]  00 00 30 00 ::
whereamiRawData(
    RawSpeed: 0.0 km/h,
    RawDistance: 48 m
)
 (006.010490)  can0  464   [8]  5D 69 AF 02 BF 02 75 00 ::
whereamiCoords(
    Latitude: 45.050205 °,
    Longitude: 7.6684149999999995 °
)
 (007.009933)  can0  460   [4]  00 00 30 00 ::
whereamiData(
    Speed: 0.0 km/h,
    Distance: 48 m
)
 (007.010143)  can0  462   [4]  00 00 30 00 ::
whereamiRawData(
    RawSpeed: 0.0 km/h,
    RawDistance: 48 m
)
 (007.010339)  can0  464   [8]  5C 69 AF 02 C1 02 75 00 ::
whereamiCoords(
    Latitude: 45.050204 °,
    Longitude: 7.668417 °
)
 (008.010121)  can0  460   [4]  00 00 2F 00 ::
whereamiData(
    Speed: 0.0 km/h,
    Distance: 47 m
)
 (008.010334)  can0  462   [4]  00 00 2F 00 ::
whereamiRawData(
    RawSpeed: 0.0 km/h,
    RawDistance: 47 m
)
 (008.010524)  can0  464   [8]  5B 69 AF 02 C3 02 75 00 ::
whereamiCoords(
    Latitude: 45.050202999999996 °,
    Longitude: 7.668419 °
)
 (009.009965)  can0  460   [4]  00 00 2F 00 ::
whereamiData(
    Speed: 0.0 km/h,
    Distance: 47 m
)
 (009.010174)  can0  462   [4]  00 00 2F 00 ::
whereamiRawData(
    RawSpeed: 0.0 km/h,
    RawDistance: 47 m
)
 (009.010368)  can0  464   [8]  5A 69 AF 02 C6 02 75 00 ::
whereamiCoords(
    Latitude: 45.050202 °,
    Longitude: 7.668422 °
)
 (010.016166)  can0  460   [4]  12 00 2F 00 ::
whereamiData(
    Speed: 0.18 km/h,
    Distance: 47 m
)
 (010.016385)  can0  462   [4]  12 00 2F 00 ::
whereamiRawData(
    RawSpeed: 0.18 km/h,
    RawDistance: 47 m
)
 (010.016582)  can0  464   [8]  59 69 AF 02 C8 02 75 00 ::
whereamiCoords(
    Latitude: 45.050201 °,
    Longitude: 7.668424 °
)
 (011.020188)  can0  460   [4]  12 00 2F 00 ::
whereamiData(
    Speed: 0.18 km/h,
    Distance: 47 m
)
 (011.020398)  can0  462   [4]  12 00 2F 00 ::
whereamiRawData(
    RawSpeed: 0.18 km/h,
    RawDistance: 47 m
)
 (011.020595)  can0  464   [8]  59 69 AF 02 C9 02 75 00 ::
whereamiCoords(
    Latitude: 45.050201 °,
    Longitude: 7.668425 °
)
 (012.026008)  can0  460   [4]  12 00 2F 00 ::
whereamiData(
    Speed: 0.18 km/h,
    Distance: 47 m
)
 (012.026218)  can0  462   [4]  12 00 2F 00 ::
whereamiRawData(
    RawSpeed: 0.18 km/h,
    RawDistance: 47 m
)
 (012.026409)  can0  464   [8]  59 69 AF 02 CA 02 75 00 ::
whereamiCoords(
    Latitude: 45.050201 °,
    Longitude: 7.668425999999999 °
)
 (013.030248)  can0  460   [4]  12 00 2F 00 ::
whereamiData(
    Speed: 0.18 km/h,
    Distance: 47 m
)
 (013.030462)  can0  462   [4]  12 00 2F 00 ::
whereamiRawData(
    RawSpeed: 0.18 km/h,
    RawDistance: 47 m
)
 (013.030653)  can0  464   [8]  5A 69 AF 02 C9 02 75 00 ::
whereamiCoords(
    Latitude: 45.050202 °,
    Longitude: 7.668425 °
)
 (014.034045)  can0  460   [4]  00 00 2F 00 ::
whereamiData(
    Speed: 0.0 km/h,
    Distance: 47 m
)
 (014.034250)  can0  462   [4]  00 00 2F 00 ::
whereamiRawData(
    RawSpeed: 0.0 km/h,
    RawDistance: 47 m
)
 (014.034439)  can0  464   [8]  5A 69 AF 02 C8 02 75 00 ::
whereamiCoords(
    Latitude: 45.050202 °,
    Longitude: 7.668424 °
)
 (015.043969)  can0  460   [4]  00 00 2F 00 ::
whereamiData(
    Speed: 0.0 km/h,
    Distance: 47 m
)
 (015.044182)  can0  462   [4]  00 00 2F 00 ::
whereamiRawData(
    RawSpeed: 0.0 km/h,
    RawDistance: 47 m
)
 (015.044374)  can0  464   [8]  5A 69 AF 02 C8 02 75 00 ::
whereamiCoords(
    Latitude: 45.050202 °,
    Longitude: 7.668424 °
)
 (016.047984)  can0  460   [4]  00 00 2F 00 ::
whereamiData(
    Speed: 0.0 km/h,
    Distance: 47 m
)
 (016.048213)  can0  462   [4]  00 00 2F 00 ::
whereamiRawData(
    RawSpeed: 0.0 km/h,
    RawDistance: 47 m
)
 (016.048417)  can0  464   [8]  59 69 AF 02 C7 02 75 00 ::
whereamiCoords(
    Latitude: 45.050201 °,
    Longitude: 7.668423 °
)
 (017.051996)  can0  460   [4]  00 00 2F 00 ::
whereamiData(
    Speed: 0.0 km/h,
    Distance: 47 m
)
 (017.052213)  can0  462   [4]  00 00 2F 00 ::
whereamiRawData(
    RawSpeed: 0.0 km/h,
    RawDistance: 47 m
)
 (017.052412)  can0  464   [8]  57 69 AF 02 C5 02 75 00 ::
whereamiCoords(
    Latitude: 45.050199 °,
    Longitude: 7.6684209999999995 °
)
 (018.056102)  can0  460   [4]  00 00 30 00 ::
whereamiData(
    Speed: 0.0 km/h,
    Distance: 48 m
)
 (018.056315)  can0  462   [4]  00 00 30 00 ::
whereamiRawData(
    RawSpeed: 0.0 km/h,
    RawDistance: 48 m
)
 (018.056511)  can0  464   [8]  54 69 AF 02 C3 02 75 00 ::
whereamiCoords(
    Latitude: 45.050196 °,
    Longitude: 7.668419 °
)
 (019.068301)  can0  460   [4]  00 00 30 00 ::
whereamiData(
    Speed: 0.0 km/h,
    Distance: 48 m
)
 (019.068522)  can0  462   [4]  00 00 30 00 ::
whereamiRawData(
    RawSpeed: 0.0 km/h,
    RawDistance: 48 m
)
 (019.068723)  can0  464   [8]  52 69 AF 02 C1 02 75 00 ::
whereamiCoords(
    Latitude: 45.050194 °,
    Longitude: 7.668417 °
)
 (020.078306)  can0  460   [4]  12 00 30 00 ::
whereamiData(
    Speed: 0.18 km/h,
    Distance: 48 m
)
 (020.078520)  can0  462   [4]  12 00 30 00 ::
whereamiRawData(
    RawSpeed: 0.18 km/h,
    RawDistance: 48 m
)
 (020.078715)  can0  464   [8]  51 69 AF 02 C0 02 75 00 ::
whereamiCoords(
    Latitude: 45.050193 °,
    Longitude: 7.668416 °
)
 (021.090143)  can0  460   [4]  00 00 30 00 ::
whereamiData(
    Speed: 0.0 km/h,
    Distance: 48 m
)
 (021.090356)  can0  462   [4]  00 00 30 00 ::
whereamiRawData(
    RawSpeed: 0.0 km/h,
    RawDistance: 48 m
)
 (021.090551)  can0  464   [8]  51 69 AF 02 C0 02 75 00 ::
whereamiCoords(
    Latitude: 45.050193 °,
    Longitude: 7.668416 °
)
 (022.096600)  can0  460   [4]  12 00 30 00 ::
whereamiData(
    Speed: 0.18 km/h,
    Distance: 48 m
)
 (022.096818)  can0  462   [4]  12 00 30 00 ::
whereamiRawData(
    RawSpeed: 0.18 km/h,
    RawDistance: 48 m
)
 (022.097013)  can0  464   [8]  51 69 AF 02 C1 02 75 00 ::
whereamiCoords(
    Latitude: 45.050193 °,
    Longitude: 7.668417 °
)
 (023.004335)  can0  460   [4]  00 00 30 00 ::
whereamiData(
    Speed: 0.0 km/h,
    Distance: 48 m
)
 (023.004547)  can0  462   [4]  00 00 30 00 ::
whereamiRawData(
    RawSpeed: 0.0 km/h,
    RawDistance: 48 m
)
 (023.004742)  can0  464   [8]  52 69 AF 02 C0 02 75 00 ::
whereamiCoords(
    Latitude: 45.050194 °,
    Longitude: 7.668416 °
)
 (024.018354)  can0  460   [4]  00 00 30 00 ::
whereamiData(
    Speed: 0.0 km/h,
    Distance: 48 m
)
 (024.018578)  can0  462   [4]  00 00 30 00 ::
whereamiRawData(
    RawSpeed: 0.0 km/h,
    RawDistance: 48 m
)
 (024.018776)  can0  464   [8]  55 69 AF 02 C1 02 75 00 ::
whereamiCoords(
    Latitude: 45.050197 °,
    Longitude: 7.668417 °
)
 (025.030207)  can0  460   [4]  00 00 30 00 ::
whereamiData(
    Speed: 0.0 km/h,
    Distance: 48 m
)
 (025.030437)  can0  462   [4]  00 00 30 00 ::
whereamiRawData(
    RawSpeed: 0.0 km/h,
    RawDistance: 48 m
)
 (025.030631)  can0  464   [8]  59 69 AF 02 C1 02 75 00 ::
whereamiCoords(
    Latitude: 45.050201 °,
    Longitude: 7.668417 °
)
 (026.042390)  can0  460   [4]  12 00 30 00 ::
whereamiData(
    Speed: 0.18 km/h,
    Distance: 48 m
)
 (026.042603)  can0  462   [4]  12 00 30 00 ::
whereamiRawData(
    RawSpeed: 0.18 km/h,
    RawDistance: 48 m
)
 (026.042808)  can0  464   [8]  5C 69 AF 02 C0 02 75 00 ::
whereamiCoords(
    Latitude: 45.050204 °,
    Longitude: 7.668416 °
)
 (027.050234)  can0  460   [4]  24 00 2F 00 ::
whereamiData(
    Speed: 0.36 km/h,
    Distance: 47 m
)
 (027.050453)  can0  462   [4]  25 00 2F 00 ::
whereamiRawData(
    RawSpeed: 0.37 km/h,
    RawDistance: 47 m
)
 (027.050653)  can0  464   [8]  5E 69 AF 02 C0 02 75 00 ::
whereamiCoords(
    Latitude: 45.050205999999996 °,
    Longitude: 7.668416 °
)
 (028.056423)  can0  460   [4]  24 00 2F 00 ::
whereamiData(
    Speed: 0.36 km/h,
    Distance: 47 m
)
 (028.056637)  can0  462   [4]  25 00 2F 00 ::
whereamiRawData(
    RawSpeed: 0.37 km/h,
    RawDistance: 47 m
)
 (028.056831)  can0  464   [8]  5F 69 AF 02 C0 02 75 00 ::
whereamiCoords(
    Latitude: 45.050207 °,
    Longitude: 7.668416 °
)
 (029.064620)  can0  460   [4]  24 00 2F 00 ::
whereamiData(
    Speed: 0.36 km/h,
    Distance: 47 m
)
 (029.064842)  can0  462   [4]  25 00 2F 00 ::
whereamiRawData(
    RawSpeed: 0.37 km/h,
    RawDistance: 47 m
)
 (029.065033)  can0  464   [8]  60 69 AF 02 C1 02 75 00 ::
whereamiCoords(
    Latitude: 45.050208 °,
    Longitude: 7.668417 °
)
 (030.072442)  can0  460   [4]  00 00 2F 00 ::
whereamiData(
    Speed: 0.0 km/h,
    Distance: 47 m
)
 (030.072649)  can0  462   [4]  00 00 2F 00 ::
whereamiRawData(
    RawSpeed: 0.0 km/h,
    RawDistance: 47 m
)
 (030.072840)  can0  464   [8]  5F 69 AF 02 C0 02 75 00 ::
whereamiCoords(
    Latitude: 45.050207 °,
    Longitude: 7.668416 °
)
 (031.080522)  can0  460   [4]  24 00 2F 00 ::
whereamiData(
    Speed: 0.36 km/h,
    Distance: 47 m
)
 (031.080790)  can0  462   [4]  25 00 2F 00 ::
whereamiRawData(
    RawSpeed: 0.37 km/h,
    RawDistance: 47 m
)
 (031.080993)  can0  464   [8]  60 69 AF 02 C1 02 75 00 ::
whereamiCoords(
    Latitude: 45.050208 °,
    Longitude: 7.668417 °
)
 (032.090483)  can0  460   [4]  12 00 2F 00 ::
whereamiData(
    Speed: 0.18 km/h,
    Distance: 47 m
)
 (032.090705)  can0  462   [4]  12 00 2F 00 ::
whereamiRawData(
    RawSpeed: 0.18 km/h,
    RawDistance: 47 m
)
 (032.090899)  can0  464   [8]  62 69 AF 02 C2 02 75 00 ::
whereamiCoords(
    Latitude: 45.05021 °,
    Longitude: 7.668418 °
)
 (033.098761)  can0  460   [4]  6D 00 2E 00 ::
whereamiData(
    Speed: 1.09 km/h,
    Distance: 46 m
)
 (033.098982)  can0  462   [4]  6F 00 2E 00 ::
whereamiRawData(
    RawSpeed: 1.11 km/h,
    RawDistance: 46 m
)
 (033.099175)  can0  464   [8]  65 69 AF 02 C9 02 75 00 ::
whereamiCoords(
    Latitude: 45.050213 °,
    Longitude: 7.668425 °
)
 (034.006504)  can0  460   [4]  6D 00 2E 00 ::
whereamiData(
    Speed: 1.09 km/h,
    Distance: 46 m
)
 (034.006717)  can0  462   [4]  6F 00 2E 00 ::
whereamiRawData(
    RawSpeed: 1.11 km/h,
    RawDistance: 46 m
)
 (034.006907)  can0  464   [8]  69 69 AF 02 D0 02 75 00 ::
whereamiCoords(
    Latitude: 45.050216999999996 °,
    Longitude: 7.668431999999999 °
)
 (035.024697)  can0  460   [4]  7F 00 2E 00 ::
whereamiData(
    Speed: 1.27 km/h,
    Distance: 46 m
)
 (035.024917)  can0  462   [4]  81 00 2E 00 ::
whereamiRawData(
    RawSpeed: 1.29 km/h,
    RawDistance: 46 m
)
 (035.025111)  can0  464   [8]  69 69 AF 02 D4 02 75 00 ::
whereamiCoords(
    Latitude: 45.050216999999996 °,
    Longitude: 7.668436 °
)
 (036.030554)  can0  460   [4]  24 00 2E 00 ::
whereamiData(
    Speed: 0.36 km/h,
    Distance: 46 m
)
 (036.030771)  can0  462   [4]  25 00 2E 00 ::
whereamiRawData(
    RawSpeed: 0.37 km/h,
    RawDistance: 46 m
)
 (036.030962)  can0  464   [8]  66 69 AF 02 D4 02 75 00 ::
whereamiCoords(
    Latitude: 45.050214 °,
    Longitude: 7.668436 °
)
 (037.038554)  can0  460   [4]  36 00 2E 00 ::
whereamiData(
    Speed: 0.54 km/h,
    Distance: 46 m
)
 (037.038763)  can0  462   [4]  37 00 2E 00 ::
whereamiRawData(
    RawSpeed: 0.55 km/h,
    RawDistance: 46 m
)
 (037.038952)  can0  464   [8]  65 69 AF 02 D5 02 75 00 ::
whereamiCoords(
    Latitude: 45.050213 °,
    Longitude: 7.668437 °
)
 (038.044396)  can0  460   [4]  36 00 2E 00 ::
whereamiData(
    Speed: 0.54 km/h,
    Distance: 46 m
)
 (038.044615)  can0  462   [4]  37 00 2E 00 ::
whereamiRawData(
    RawSpeed: 0.55 km/h,
    RawDistance: 46 m
)
 (038.044814)  can0  464   [8]  64 69 AF 02 D5 02 75 00 ::
whereamiCoords(
    Latitude: 45.050211999999995 °,
    Longitude: 7.668437 °
)
 (039.050580)  can0  460   [4]  49 00 2E 00 ::
whereamiData(
    Speed: 0.73 km/h,
    Distance: 46 m
)
 (039.050787)  can0  462   [4]  4A 00 2E 00 ::
whereamiRawData(
    RawSpeed: 0.74 km/h,
    RawDistance: 46 m
)
 (039.050980)  can0  464   [8]  65 69 AF 02 D5 02 75 00 ::
whereamiCoords(
    Latitude: 45.050213 °,
    Longitude: 7.668437 °
)
 (040.060583)  can0  460   [4]  49 00 2E 00 ::
whereamiData(
    Speed: 0.73 km/h,
    Distance: 46 m
)
 (040.060786)  can0  462   [4]  4A 00 2E 00 ::
whereamiRawData(
    RawSpeed: 0.74 km/h,
    RawDistance: 46 m
)
 (040.060975)  can0  464   [8]  68 69 AF 02 D4 02 75 00 ::
whereamiCoords(
    Latitude: 45.050216 °,
    Longitude: 7.668436 °
)
 (041.068798)  can0  460   [4]  49 00 2E 00 ::
whereamiData(
    Speed: 0.73 km/h,
    Distance: 46 m
)
 (041.069009)  can0  462   [4]  4A 00 2E 00 ::
whereamiRawData(
    RawSpeed: 0.74 km/h,
    RawDistance: 46 m
)
 (041.069205)  can0  464   [8]  6B 69 AF 02 D2 02 75 00 ::
whereamiCoords(
    Latitude: 45.050219 °,
    Longitude: 7.6684339999999995 °
)
 (042.074807)  can0  460   [4]  12 00 2E 00 ::
whereamiData(
    Speed: 0.18 km/h,
    Distance: 46 m
)
 (042.075031)  can0  462   [4]  12 00 2E 00 ::
whereamiRawData(
    RawSpeed: 0.18 km/h,
    RawDistance: 46 m
)
 (042.075223)  can0  464   [8]  6F 69 AF 02 D1 02 75 00 ::
whereamiCoords(
    Latitude: 45.050222999999995 °,
    Longitude: 7.668432999999999 °
)
 (043.080383)  can0  460   [4]  24 00 2D 00 ::
whereamiData(
    Speed: 0.36 km/h,
    Distance: 45 m
)
 (043.080603)  can0  462   [4]  25 00 2D 00 ::
whereamiRawData(
    RawSpeed: 0.37 km/h,
    RawDistance: 45 m
)
 (043.080800)  can0  464   [8]  6F 69 AF 02 D2 02 75 00 ::
whereamiCoords(
    Latitude: 45.050222999999995 °,
    Longitude: 7.6684339999999995 °
)
 (044.086673)  can0  460   [4]  37 00 2D 00 ::
whereamiData(
    Speed: 0.55 km/h,
    Distance: 45 m
)
 (044.086907)  can0  462   [4]  37 00 2D 00 ::
whereamiRawData(
    RawSpeed: 0.55 km/h,
    RawDistance: 45 m
)
 (044.087101)  can0  464   [8]  70 69 AF 02 D3 02 75 00 ::
whereamiCoords(
    Latitude: 45.050224 °,
    Longitude: 7.668435 °
)
 (045.092680)  can0  460   [4]  24 00 2D 00 ::
whereamiData(
    Speed: 0.36 km/h,
    Distance: 45 m
)
 (045.092896)  can0  462   [4]  25 00 2D 00 ::
whereamiRawData(
    RawSpeed: 0.37 km/h,
    RawDistance: 45 m
)
 (045.093093)  can0  464   [8]  70 69 AF 02 D4 02 75 00 ::
whereamiCoords(
    Latitude: 45.050224 °,
    Longitude: 7.668436 °
)
 (046.096770)  can0  460   [4]  24 00 2D 00 ::
whereamiData(
    Speed: 0.36 km/h,
    Distance: 45 m
)
 (046.096982)  can0  462   [4]  25 00 2D 00 ::
whereamiRawData(
    RawSpeed: 0.37 km/h,
    RawDistance: 45 m
)
 (046.097181)  can0  464   [8]  71 69 AF 02 D6 02 75 00 ::
whereamiCoords(
    Latitude: 45.050225 °,
    Longitude: 7.668438 °
)
 (047.000880)  can0  460   [4]  25 00 2D 00 ::
whereamiData(
    Speed: 0.37 km/h,
    Distance: 45 m
)
 (047.001105)  can0  462   [4]  25 00 2D 00 ::
whereamiRawData(
    RawSpeed: 0.37 km/h,
    RawDistance: 45 m
)
 (047.001298)  can0  464   [8]  71 69 AF 02 D7 02 75 00 ::
whereamiCoords(
    Latitude: 45.050225 °,
    Longitude: 7.668438999999999 °
)
 (048.008725)  can0  460   [4]  6E 00 2E 00 ::
whereamiData(
    Speed: 1.1 km/h,
    Distance: 46 m
)
 (048.008938)  can0  462   [4]  6F 00 2E 00 ::
whereamiRawData(
    RawSpeed: 1.11 km/h,
    RawDistance: 46 m
)
 (048.009138)  can0  464   [8]  A5 69 AF 02 AF 02 75 00 ::
whereamiCoords(
    Latitude: 45.050277 °,
    Longitude: 7.668399 °
)
 (049.012724)  can0  460   [4]  37 00 2E 00 ::
whereamiData(
    Speed: 0.55 km/h,
    Distance: 46 m
)
 (049.012935)  can0  462   [4]  37 00 2E 00 ::
whereamiRawData(
    RawSpeed: 0.55 km/h,
    RawDistance: 46 m
)
 (049.013135)  can0  464   [8]  AD 69 AF 02 A7 02 75 00 ::
whereamiCoords(
    Latitude: 45.050284999999995 °,
    Longitude: 7.668391 °
)
 (050.018768)  can0  460   [4]  25 00 2F 00 ::
whereamiData(
    Speed: 0.37 km/h,
    Distance: 47 m
)
 (050.018992)  can0  462   [4]  25 00 2F 00 ::
whereamiRawData(
    RawSpeed: 0.37 km/h,
    RawDistance: 47 m
)
 (050.019189)  can0  464   [8]  AF 69 AF 02 A4 02 75 00 ::
whereamiCoords(
    Latitude: 45.050287 °,
    Longitude: 7.668387999999999 °
)
 (051.024770)  can0  460   [4]  4A 00 2F 00 ::
whereamiData(
    Speed: 0.74 km/h,
    Distance: 47 m
)
 (051.024988)  can0  462   [4]  4A 00 2F 00 ::
whereamiRawData(
    RawSpeed: 0.74 km/h,
    RawDistance: 47 m
)
 (051.025188)  can0  464   [8]  AD 69 AF 02 A5 02 75 00 ::
whereamiCoords(
    Latitude: 45.050284999999995 °,
    Longitude: 7.6683889999999995 °
)
 (052.036961)  can0  460   [4]  37 00 2E 00 ::
whereamiData(
    Speed: 0.55 km/h,
    Distance: 46 m
)
 (052.037187)  can0  462   [4]  37 00 2E 00 ::
whereamiRawData(
    RawSpeed: 0.55 km/h,
    RawDistance: 46 m
)
 (052.037384)  can0  464   [8]  AA 69 AF 02 A8 02 75 00 ::
whereamiCoords(
    Latitude: 45.050281999999996 °,
    Longitude: 7.668392 °
)
 (053.040796)  can0  460   [4]  37 00 2E 00 ::
whereamiData(
    Speed: 0.55 km/h,
    Distance: 46 m
)
 (053.041010)  can0  462   [4]  37 00 2E 00 ::
whereamiRawData(
    RawSpeed: 0.55 km/h,
    RawDistance: 46 m
)
 (053.041206)  can0  464   [8]  A5 69 AF 02 AD 02 75 00 ::
whereamiCoords(
    Latitude: 45.050277 °,
    Longitude: 7.668397 °
)
 (054.046814)  can0  460   [4]  25 00 2E 00 ::
whereamiData(
    Speed: 0.37 km/h,
    Distance: 46 m
)
 (054.047027)  can0  462   [4]  25 00 2E 00 ::
whereamiRawData(
    RawSpeed: 0.37 km/h,
    RawDistance: 46 m
)
 (054.047218)  can0  464   [8]  9F 69 AF 02 B1 02 75 00 ::
whereamiCoords(
    Latitude: 45.050270999999995 °,
    Longitude: 7.668400999999999 °
)
 (055.050814)  can0  460   [4]  49 00 2E 00 ::
whereamiData(
    Speed: 0.73 km/h,
    Distance: 46 m
)
 (055.051030)  can0  462   [4]  4A 00 2E 00 ::
whereamiRawData(
    RawSpeed: 0.74 km/h,
    RawDistance: 46 m
)
 (055.051222)  can0  464   [8]  9B 69 AF 02 B8 02 75 00 ::
whereamiCoords(
    Latitude: 45.050267 °,
    Longitude: 7.6684079999999994 °
)
 (056.056846)  can0  460   [4]  24 00 2E 00 ::
whereamiData(
    Speed: 0.36 km/h,
    Distance: 46 m
)
 (056.057072)  can0  462   [4]  25 00 2E 00 ::
whereamiRawData(
    RawSpeed: 0.37 km/h,
    RawDistance: 46 m
)
 (056.057263)  can0  464   [8]  96 69 AF 02 BB 02 75 00 ::
whereamiCoords(
    Latitude: 45.050262 °,
    Longitude: 7.668411 °
)
 (057.066856)  can0  460   [4]  12 00 2E 00 ::
whereamiData(
    Speed: 0.18 km/h,
    Distance: 46 m
)
 (057.067068)  can0  462   [4]  12 00 2E 00 ::
whereamiRawData(
    RawSpeed: 0.18 km/h,
    RawDistance: 46 m
)
 (057.067260)  can0  464   [8]  93 69 AF 02 BD 02 75 00 ::
whereamiCoords(
    Latitude: 45.050259 °,
    Longitude: 7.668412999999999 °
)
 (058.072865)  can0  460   [4]  12 00 2E 00 ::
whereamiData(
    Speed: 0.18 km/h,
    Distance: 46 m
)
 (058.073076)  can0  462   [4]  12 00 2E 00 ::
whereamiRawData(
    RawSpeed: 0.18 km/h,
    RawDistance: 46 m
)
 (058.073267)  can0  464   [8]  90 69 AF 02 BC 02 75 00 ::
whereamiCoords(
    Latitude: 45.050256 °,
    Longitude: 7.668412 °
)
 (059.086967)  can0  460   [4]  11 00 2E 00 ::
whereamiData(
    Speed: 0.17 km/h,
    Distance: 46 m
)
 (059.087176)  can0  462   [4]  12 00 2E 00 ::
whereamiRawData(
    RawSpeed: 0.18 km/h,
    RawDistance: 46 m
)
 (059.087365)  can0  464   [8]  8D 69 AF 02 BC 02 75 00 ::
whereamiCoords(
    Latitude: 45.050253 °,
    Longitude: 7.668412 °
)
 (060.090899)  can0  460   [4]  00 00 2E 00 ::
whereamiData(
    Speed: 0.0 km/h,
    Distance: 46 m
)
 (060.091125)  can0  462   [4]  00 00 2E 00 ::
whereamiRawData(
    RawSpeed: 0.0 km/h,
    RawDistance: 46 m
)
 (060.091317)  can0  464   [8]  8B 69 AF 02 BC 02 75 00 ::
whereamiCoords(
    Latitude: 45.050250999999996 °,
    Longitude: 7.668412 °
)
 (061.100909)  can0  460   [4]  10 00 2E 00 ::
whereamiData(
    Speed: 0.16 km/h,
    Distance: 46 m
)
 (061.101117)  can0  462   [4]  12 00 2E 00 ::
whereamiRawData(
    RawSpeed: 0.18 km/h,
    RawDistance: 46 m
)
 (061.101307)  can0  464   [8]  89 69 AF 02 BC 02 75 00 ::
whereamiCoords(
    Latitude: 45.050249 °,
    Longitude: 7.668412 °
)
 (062.004911)  can0  460   [4]  5F 00 2E 00 ::
whereamiData(
    Speed: 0.9500000000000001 km/h,
    Distance: 46 m
)
 (062.005130)  can0  462   [4]  6F 00 2E 00 ::
whereamiRawData(
    RawSpeed: 1.11 km/h,
    RawDistance: 46 m
)
 (062.005324)  can0  464   [8]  89 69 AF 02 C0 02 75 00 ::
whereamiCoords(
    Latitude: 45.050249 °,
    Longitude: 7.668416 °
)
 (063.011106)  can0  460   [4]  3B 00 2E 00 ::
whereamiData(
    Speed: 0.59 km/h,
    Distance: 46 m
)
 (063.011315)  can0  462   [4]  4A 00 2E 00 ::
whereamiRawData(
    RawSpeed: 0.74 km/h,
    RawDistance: 46 m
)
 (063.011505)  can0  464   [8]  88 69 AF 02 C1 02 75 00 ::
whereamiCoords(
    Latitude: 45.050247999999996 °,
    Longitude: 7.668417 °
)
 (064.018955)  can0  460   [4]  29 00 2E 00 ::
whereamiData(
    Speed: 0.41000000000000003 km/h,
    Distance: 46 m
)
 (064.019171)  can0  462   [4]  37 00 2E 00 ::
whereamiRawData(
    RawSpeed: 0.55 km/h,
    RawDistance: 46 m
)
 (064.019363)  can0  464   [8]  85 69 AF 02 C1 02 75 00 ::
whereamiCoords(
    Latitude: 45.050245 °,
    Longitude: 7.668417 °
)
 (065.032828)  can0  460   [4]  15 00 2E 00 ::
whereamiData(
    Speed: 0.21 km/h,
    Distance: 46 m
)
 (065.033044)  can0  462   [4]  25 00 2E 00 ::
whereamiRawData(
    RawSpeed: 0.37 km/h,
    RawDistance: 46 m
)
 (065.033237)  can0  464   [8]  83 69 AF 02 C1 02 75 00 ::
whereamiCoords(
    Latitude: 45.050242999999995 °,
    Longitude: 7.668417 °
)
 (066.035144)  can0  460   [4]  17 00 2E 00 ::
whereamiData(
    Speed: 0.23 km/h,
    Distance: 46 m
)
 (066.035356)  can0  462   [4]  37 00 2E 00 ::
whereamiRawData(
    RawSpeed: 0.55 km/h,
    RawDistance: 46 m
)
 (066.035550)  can0  464   [8]  82 69 AF 02 C1 02 75 00 ::
whereamiCoords(
    Latitude: 45.050242 °,
    Longitude: 7.668417 °
)
 (067.042815)  can0  460   [4]  0C 00 2E 00 ::
whereamiData(
    Speed: 0.12 km/h,
    Distance: 46 m
)
 (067.043031)  can0  462   [4]  5C 00 2E 00 ::
whereamiRawData(
    RawSpeed: 0.92 km/h,
    RawDistance: 46 m
)
 (067.043230)  can0  464   [8]  82 69 AF 02 C2 02 75 00 ::
whereamiCoords(
    Latitude: 45.050242 °,
    Longitude: 7.668418 °
)
 (068.051005)  can0  460   [4]  00 00 2D 00 ::
whereamiData(
    Speed: 0.0 km/h,
    Distance: 45 m
)
 (068.051214)  can0  462   [4]  A6 00 2D 00 ::
whereamiRawData(
    RawSpeed: 1.6600000000000001 km/h,
    RawDistance: 45 m
)
 (068.051401)  can0  464   [8]  82 69 AF 02 CA 02 75 00 ::
whereamiCoords(
    Latitude: 45.050242 °,
    Longitude: 7.668425999999999 °
)
 (069.057031)  can0  460   [4]  00 00 2D 00 ::
whereamiData(
    Speed: 0.0 km/h,
    Distance: 45 m
)
 (069.057252)  can0  462   [4]  CB 00 2D 00 ::
whereamiRawData(
    RawSpeed: 2.0300000000000002 km/h,
    RawDistance: 45 m
)
 (069.057442)  can0  464   [8]  81 69 AF 02 D2 02 75 00 ::
whereamiCoords(
    Latitude: 45.050241 °,
    Longitude: 7.6684339999999995 °
)
 (070.067301)  can0  460   [4]  00 00 2C 00 ::
whereamiData(
    Speed: 0.0 km/h,
    Distance: 44 m
)
 (070.067517)  can0  462   [4]  F0 00 2C 00 ::
whereamiRawData(
    RawSpeed: 2.4 km/h,
    RawDistance: 44 m
)
 (070.067706)  can0  464   [8]  81 69 AF 02 DD 02 75 00 ::
whereamiCoords(
    Latitude: 45.050241 °,
    Longitude: 7.668444999999999 °
)
 (071.077062)  can0  460   [4]  00 00 2B 00 ::
whereamiData(
    Speed: 0.0 km/h,
    Distance: 43 m
)
 (071.077272)  can0  462   [4]  F0 00 2B 00 ::
whereamiRawData(
    RawSpeed: 2.4 km/h,
    RawDistance: 43 m
)
 (071.077464)  can0  464   [8]  83 69 AF 02 E7 02 75 00 ::
whereamiCoords(
    Latitude: 45.050242999999995 °,
    Longitude: 7.668455 °
)
 (072.087245)  can0  460   [4]  00 00 2A 00 ::
whereamiData(
    Speed: 0.0 km/h,
    Distance: 42 m
)
 (072.087458)  can0  462   [4]  F0 00 2A 00 ::
whereamiRawData(
    RawSpeed: 2.4 km/h,
    RawDistance: 42 m
)
 (072.087657)  can0  464   [8]  86 69 AF 02 F0 02 75 00 ::
whereamiCoords(
    Latitude: 45.050246 °,
    Longitude: 7.668463999999999 °
)
 (073.095256)  can0  460   [4]  00 00 29 00 ::
whereamiData(
    Speed: 0.0 km/h,
    Distance: 41 m
)
 (073.095464)  can0  462   [4]  15 01 29 00 ::
whereamiRawData(
    RawSpeed: 2.77 km/h,
    RawDistance: 41 m
)
 (073.095652)  can0  464   [8]  8A 69 AF 02 F9 02 75 00 ::
whereamiCoords(
    Latitude: 45.05025 °,
    Longitude: 7.668473 °
)
 (074.005266)  can0  460   [4]  00 00 29 00 ::
whereamiData(
    Speed: 0.0 km/h,
    Distance: 41 m
)
 (074.005475)  can0  462   [4]  15 01 29 00 ::
whereamiRawData(
    RawSpeed: 2.77 km/h,
    RawDistance: 41 m
)
 (074.005664)  can0  464   [8]  8D 69 AF 02 03 03 75 00 ::
whereamiCoords(
    Latitude: 45.050253 °,
    Longitude: 7.668482999999999 °
)
 (075.013298)  can0  460   [4]  00 00 28 00 ::
whereamiData(
    Speed: 0.0 km/h,
    Distance: 40 m
)
 (075.013524)  can0  462   [4]  28 01 28 00 ::
whereamiRawData(
    RawSpeed: 2.96 km/h,
    RawDistance: 40 m
)
 (075.013723)  can0  464   [8]  8F 69 AF 02 0E 03 75 00 ::
whereamiCoords(
    Latitude: 45.050255 °,
    Longitude: 7.668494 °
)
 (076.023382)  can0  460   [4]  00 00 27 00 ::
whereamiData(
    Speed: 0.0 km/h,
    Distance: 39 m
)
 (076.023593)  can0  462   [4]  03 01 27 00 ::
whereamiRawData(
    RawSpeed: 2.59 km/h,
    RawDistance: 39 m
)
 (076.023785)  can0  464   [8]  93 69 AF 02 17 03 75 00 ::
whereamiCoords(
    Latitude: 45.050259 °,
    Longitude: 7.668502999999999 °
)
 (077.031328)  can0  460   [4]  00 00 26 00 ::
whereamiData(
    Speed: 0.0 km/h,
    Distance: 38 m
)
 (077.031542)  can0  462   [4]  DE 00 26 00 ::
whereamiRawData(
    RawSpeed: 2.22 km/h,
    RawDistance: 38 m
)
 (077.031733)  can0  464   [8]  96 69 AF 02 1F 03 75 00 ::
whereamiCoords(
    Latitude: 45.050262 °,
    Longitude: 7.668511 °
)
 (078.037161)  can0  460   [4]  00 00 25 00 ::
whereamiData(
    Speed: 0.0 km/h,
    Distance: 37 m
)
 (078.037383)  can0  462   [4]  CB 00 25 00 ::
whereamiRawData(
    RawSpeed: 2.0300000000000002 km/h,
    RawDistance: 37 m
)
 (078.037577)  can0  464   [8]  9B 69 AF 02 27 03 75 00 ::
whereamiCoords(
    Latitude: 45.050267 °,
    Longitude: 7.668519 °
)
 (079.051355)  can0  460   [4]  1C 00 25 00 ::
whereamiData(
    Speed: 0.28 km/h,
    Distance: 37 m
)
 (079.051576)  can0  462   [4]  DE 00 25 00 ::
whereamiRawData(
    RawSpeed: 2.22 km/h,
    RawDistance: 37 m
)
 (079.051778)  can0  464   [8]  9F 69 AF 02 2E 03 75 00 ::
whereamiCoords(
    Latitude: 45.050270999999995 °,
    Longitude: 7.668526 °
)
 (080.057350)  can0  460   [4]  63 00 24 00 ::
whereamiData(
    Speed: 0.99 km/h,
    Distance: 36 m
)
 (080.057563)  can0  462   [4]  F0 00 24 00 ::
whereamiRawData(
    RawSpeed: 2.4 km/h,
    RawDistance: 36 m
)
 (080.057757)  can0  464   [8]  A4 69 AF 02 36 03 75 00 ::
whereamiCoords(
    Latitude: 45.050276 °,
    Longitude: 7.668533999999999 °
)
 (081.067193)  can0  460   [4]  98 00 23 00 ::
whereamiData(
    Speed: 1.52 km/h,
    Distance: 35 m
)
 (081.067403)  can0  462   [4]  03 01 23 00 ::
whereamiRawData(
    RawSpeed: 2.59 km/h,
    RawDistance: 35 m
)
 (081.067602)  can0  464   [8]  A8 69 AF 02 3C 03 75 00 ::
whereamiCoords(
    Latitude: 45.05028 °,
    Longitude: 7.668539999999999 °
)
 (082.077377)  can0  460   [4]  6E 00 23 00 ::
whereamiData(
    Speed: 1.1 km/h,
    Distance: 35 m
)
 (082.077588)  can0  462   [4]  A6 00 23 00 ::
whereamiRawData(
    RawSpeed: 1.6600000000000001 km/h,
    RawDistance: 35 m
)
 (082.077788)  can0  464   [8]  AB 69 AF 02 41 03 75 00 ::
whereamiCoords(
    Latitude: 45.050283 °,
    Longitude: 7.668545 °
)
 (083.087228)  can0  460   [4]  2F 00 23 00 ::
whereamiData(
    Speed: 0.47000000000000003 km/h,
    Distance: 35 m
)
 (083.087437)  can0  462   [4]  37 00 23 00 ::
whereamiRawData(
    RawSpeed: 0.55 km/h,
    RawDistance: 35 m
)
 (083.087633)  can0  464   [8]  AC 69 AF 02 43 03 75 00 ::
whereamiCoords(
    Latitude: 45.050284 °,
    Longitude: 7.668546999999999 °
)
 (084.097420)  can0  460   [4]  8F 00 22 00 ::
whereamiData(
    Speed: 1.43 km/h,
    Distance: 34 m
)
 (084.097636)  can0  462   [4]  94 00 22 00 ::
whereamiRawData(
    RawSpeed: 1.48 km/h,
    RawDistance: 34 m
)
 (084.097840)  can0  464   [8]  AF 69 AF 02 49 03 75 00 ::
whereamiCoords(
    Latitude: 45.050287 °,
    Longitude: 7.668552999999999 °
)
 (085.003432)  can0  460   [4]  38 01 21 00 ::
whereamiData(
    Speed: 3.12 km/h,
    Distance: 33 m
)
 (085.003647)  can0  462   [4]  4D 01 21 00 ::
whereamiRawData(
    RawSpeed: 3.33 km/h,
    RawDistance: 33 m
)
 (085.003842)  can0  464   [8]  B5 69 AF 02 54 03 75 00 ::
whereamiCoords(
    Latitude: 45.050292999999996 °,
    Longitude: 7.668564 °
)
 (086.011450)  can0  460   [4]  25 01 20 00 ::
whereamiData(
    Speed: 2.93 km/h,
    Distance: 32 m
)
 (086.011661)  can0  462   [4]  72 01 20 00 ::
whereamiRawData(
    RawSpeed: 3.7 km/h,
    RawDistance: 32 m
)
 (086.011854)  can0  464   [8]  BC 69 AF 02 60 03 75 00 ::
whereamiCoords(
    Latitude: 45.0503 °,
    Longitude: 7.668576 °
)
 (087.023473)  can0  460   [4]  9B 00 1F 00 ::
whereamiData(
    Speed: 1.55 km/h,
    Distance: 31 m
)
 (087.023684)  can0  462   [4]  3A 01 1F 00 ::
whereamiRawData(
    RawSpeed: 3.14 km/h,
    RawDistance: 31 m
)
 (087.023872)  can0  464   [8]  C1 69 AF 02 6A 03 75 00 ::
whereamiCoords(
    Latitude: 45.050304999999994 °,
    Longitude: 7.6685859999999995 °
)
 (088.031488)  can0  460   [4]  22 00 1E 00 ::
whereamiData(
    Speed: 0.34 km/h,
    Distance: 30 m
)
 (088.031702)  can0  462   [4]  28 01 1E 00 ::
whereamiRawData(
    RawSpeed: 2.96 km/h,
    RawDistance: 30 m
)
 (088.031894)  can0  464   [8]  C4 69 AF 02 73 03 75 00 ::
whereamiCoords(
    Latitude: 45.050308 °,
    Longitude: 7.668595 °
)
 (089.047498)  can0  460   [4]  00 00 1E 00 ::
whereamiData(
    Speed: 0.0 km/h,
    Distance: 30 m
)
 (089.047720)  can0  462   [4]  DE 00 1E 00 ::
whereamiRawData(
    RawSpeed: 2.22 km/h,
    RawDistance: 30 m
)
 (089.047913)  can0  464   [8]  C6 69 AF 02 7A 03 75 00 ::
whereamiCoords(
    Latitude: 45.050309999999996 °,
    Longitude: 7.668602 °
)
 (090.059345)  can0  460   [4]  00 00 1D 00 ::
whereamiData(
    Speed: 0.0 km/h,
    Distance: 29 m
)
 (090.059569)  can0  462   [4]  28 01 1D 00 ::
whereamiRawData(
    RawSpeed: 2.96 km/h,
    RawDistance: 29 m
)
 (090.059758)  can0  464   [8]  CA 69 AF 02 83 03 75 00 ::
whereamiCoords(
    Latitude: 45.050314 °,
    Longitude: 7.668610999999999 °
)
 (091.069609)  can0  460   [4]  00 00 1C 00 ::
whereamiData(
    Speed: 0.0 km/h,
    Distance: 28 m
)
 (091.069820)  can0  462   [4]  5F 01 1C 00 ::
whereamiRawData(
    RawSpeed: 3.5100000000000002 km/h,
    RawDistance: 28 m
)
 (091.070013)  can0  464   [8]  CF 69 AF 02 8D 03 75 00 ::
whereamiCoords(
    Latitude: 45.050318999999995 °,
    Longitude: 7.668621 °
)
 (092.079382)  can0  460   [4]  00 00 1B 00 ::
whereamiData(
    Speed: 0.0 km/h,
    Distance: 27 m
)
 (092.079598)  can0  462   [4]  3A 01 1B 00 ::
whereamiRawData(
    RawSpeed: 3.14 km/h,
    RawDistance: 27 m
)
 (092.079791)  can0  464   [8]  D3 69 AF 02 96 03 75 00 ::
whereamiCoords(
    Latitude: 45.050323 °,
    Longitude: 7.668629999999999 °
)
 (093.089559)  can0  460   [4]  00 00 1B 00 ::
whereamiData(
    Speed: 0.0 km/h,
    Distance: 27 m
)
 (093.089769)  can0  462   [4]  28 01 1B 00 ::
whereamiRawData(
    RawSpeed: 2.96 km/h,
    RawDistance: 27 m
)
 (093.089960)  can0  464   [8]  D7 69 AF 02 9C 03 75 00 ::
whereamiCoords(
    Latitude: 45.050326999999996 °,
    Longitude: 7.668635999999999 °
)
 (094.097755)  can0  460   [4]  00 00 1A 00 ::
whereamiData(
    Speed: 0.0 km/h,
    Distance: 26 m
)
 (094.097970)  can0  462   [4]  28 01 1A 00 ::
whereamiRawData(
    RawSpeed: 2.96 km/h,
    RawDistance: 26 m
)
 (094.098166)  can0  464   [8]  DA 69 AF 02 A2 03 75 00 ::
whereamiCoords(
    Latitude: 45.050329999999995 °,
    Longitude: 7.668641999999999 °
)
 (095.003594)  can0  460   [4]  00 00 1A 00 ::
whereamiData(
    Speed: 0.0 km/h,
    Distance: 26 m
)
 (095.003811)  can0  462   [4]  3A 01 1A 00 ::
whereamiRawData(
    RawSpeed: 3.14 km/h,
    RawDistance: 26 m
)
 (095.004002)  can0  464   [8]  DE 69 AF 02 A7 03 75 00 ::
whereamiCoords(
    Latitude: 45.050334 °,
    Longitude: 7.668647 °
)
 (096.011592)  can0  460   [4]  00 00 1A 00 ::
whereamiData(
    Speed: 0.0 km/h,
    Distance: 26 m
)
 (096.011798)  can0  462   [4]  6F 00 1A 00 ::
whereamiRawData(
    RawSpeed: 1.11 km/h,
    RawDistance: 26 m
)
 (096.011986)  can0  464   [8]  DD 69 AF 02 A7 03 75 00 ::
whereamiCoords(
    Latitude: 45.050332999999995 °,
    Longitude: 7.668647 °
)
 (097.019647)  can0  460   [4]  00 00 1A 00 ::
whereamiData(
    Speed: 0.0 km/h,
    Distance: 26 m
)
 (097.019870)  can0  462   [4]  25 00 1A 00 ::
whereamiRawData(
    RawSpeed: 0.37 km/h,
    RawDistance: 26 m
)
 (097.020067)  can0  464   [8]  DB 69 AF 02 A4 03 75 00 ::
whereamiCoords(
    Latitude: 45.050331 °,
    Longitude: 7.668644 °
)
 (098.027644)  can0  460   [4]  00 00 1A 00 ::
whereamiData(
    Speed: 0.0 km/h,
    Distance: 26 m
)
 (098.027858)  can0  462   [4]  37 00 1A 00 ::
whereamiRawData(
    RawSpeed: 0.55 km/h,
    RawDistance: 26 m
)
 (098.028048)  can0  464   [8]  DA 69 AF 02 A2 03 75 00 ::
whereamiCoords(
    Latitude: 45.050329999999995 °,
    Longitude: 7.668641999999999 °
)
 (099.035469)  can0  460   [4]  00 00 1A 00 ::
whereamiData(
    Speed: 0.0 km/h,
    Distance: 26 m
)
 (099.035678)  can0  462   [4]  00 00 1A 00 ::
whereamiRawData(
    RawSpeed: 0.0 km/h,
    RawDistance: 26 m
)
 (099.035867)  can0  464   [8]  D9 69 AF 02 A1 03 75 00 ::
whereamiCoords(
    Latitude: 45.050329 °,
    Longitude: 7.668641 °
)
 (100.049668)  can0  460   [4]  00 00 1A 00 ::
whereamiData(
    Speed: 0.0 km/h,
    Distance: 26 m
)
 (100.049881)  can0  462   [4]  12 00 1A 00 ::
whereamiRawData(
    RawSpeed: 0.18 km/h,
    RawDistance: 26 m
)
 (100.050073)  can0  464   [8]  D8 69 AF 02 A0 03 75 00 ::
whereamiCoords(
    Latitude: 45.050328 °,
    Longitude: 7.66864 °
)
 (101.059503)  can0  460   [4]  00 00 1A 00 ::
whereamiData(
    Speed: 0.0 km/h,
    Distance: 26 m
)
 (101.059728)  can0  462   [4]  12 00 1A 00 ::
whereamiRawData(
    RawSpeed: 0.18 km/h,
    RawDistance: 26 m
)
 (101.059917)  can0  464   [8]  D8 69 AF 02 A0 03 75 00 ::
whereamiCoords(
    Latitude: 45.050328 °,
    Longitude: 7.66864 °
)
 (102.067525)  can0  460   [4]  00 00 1A 00 ::
whereamiData(
    Speed: 0.0 km/h,
    Distance: 26 m
)
 (102.067736)  can0  462   [4]  25 00 1A 00 ::
whereamiRawData(
    RawSpeed: 0.37 km/h,
    RawDistance: 26 m
)
 (102.067925)  can0  464   [8]  D9 69 AF 02 A0 03 75 00 ::
whereamiCoords(
    Latitude: 45.050329 °,
    Longitude: 7.66864 °
)
 (103.079697)  can0  460   [4]  12 00 1A 00 ::
whereamiData(
    Speed: 0.18 km/h,
    Distance: 26 m
)
 (103.079907)  can0  462   [4]  25 00 1A 00 ::
whereamiRawData(
    RawSpeed: 0.37 km/h,
    RawDistance: 26 m
)
 (103.080097)  can0  464   [8]  D8 69 AF 02 A0 03 75 00 ::
whereamiCoords(
    Latitude: 45.050328 °,
    Longitude: 7.66864 °
)
 (104.087540)  can0  460   [4]  24 00 1A 00 ::
whereamiData(
    Speed: 0.36 km/h,
    Distance: 26 m
)
 (104.087748)  can0  462   [4]  37 00 1A 00 ::
whereamiRawData(
    RawSpeed: 0.55 km/h,
    RawDistance: 26 m
)
 (104.087935)  can0  464   [8]  D8 69 AF 02 A1 03 75 00 ::
whereamiCoords(
    Latitude: 45.050328 °,
    Longitude: 7.668641 °
)
 (105.097557)  can0  460   [4]  0C 00 1A 00 ::
whereamiData(
    Speed: 0.12 km/h,
    Distance: 26 m
)
 (105.097765)  can0  462   [4]  12 00 1A 00 ::
whereamiRawData(
    RawSpeed: 0.18 km/h,
    RawDistance: 26 m
)
 (105.097955)  can0  464   [8]  D8 69 AF 02 A1 03 75 00 ::
whereamiCoords(
    Latitude: 45.050328 °,
    Longitude: 7.668641 °
)
 (106.001763)  can0  460   [4]  12 00 1A 00 ::
whereamiData(
    Speed: 0.18 km/h,
    Distance: 26 m
)
 (106.001984)  can0  462   [4]  25 00 1A 00 ::
whereamiRawData(
    RawSpeed: 0.37 km/h,
    RawDistance: 26 m
)
 (106.002175)  can0  464   [8]  D8 69 AF 02 A1 03 75 00 ::
whereamiCoords(
    Latitude: 45.050328 °,
    Longitude: 7.668641 °
)
 (107.013760)  can0  460   [4]  1B 00 1A 00 ::
whereamiData(
    Speed: 0.27 km/h,
    Distance: 26 m
)
 (107.013978)  can0  462   [4]  37 00 1A 00 ::
whereamiRawData(
    RawSpeed: 0.55 km/h,
    RawDistance: 26 m
)
 (107.014170)  can0  464   [8]  D9 69 AF 02 A1 03 75 00 ::
whereamiCoords(
    Latitude: 45.050329 °,
    Longitude: 7.668641 °
)
 (108.025782)  can0  460   [4]  0E 00 1A 00 ::
whereamiData(
    Speed: 0.14 km/h,
    Distance: 26 m
)
 (108.025991)  can0  462   [4]  25 00 1A 00 ::
whereamiRawData(
    RawSpeed: 0.37 km/h,
    RawDistance: 26 m
)
 (108.026189)  can0  464   [8]  D9 69 AF 02 A1 03 75 00 ::
whereamiCoords(
    Latitude: 45.050329 °,
    Longitude: 7.668641 °
)
 (109.031802)  can0  460   [4]  12 00 1A 00 ::
whereamiData(
    Speed: 0.18 km/h,
    Distance: 26 m
)
 (109.032027)  can0  462   [4]  25 00 1A 00 ::
whereamiRawData(
    RawSpeed: 0.37 km/h,
    RawDistance: 26 m
)
 (109.032216)  can0  464   [8]  D8 69 AF 02 A1 03 75 00 ::
whereamiCoords(
    Latitude: 45.050328 °,
    Longitude: 7.668641 °
)
 (110.041447)  can0  460   [4]  09 00 1A 00 ::
whereamiData(
    Speed: 0.09 km/h,
    Distance: 26 m
)
 (110.041655)  can0  462   [4]  12 00 1A 00 ::
whereamiRawData(
    RawSpeed: 0.18 km/h,
    RawDistance: 26 m
)
 (110.041844)  can0  464   [8]  D9 69 AF 02 A2 03 75 00 ::
whereamiCoords(
    Latitude: 45.050329 °,
    Longitude: 7.668641999999999 °
)
 (111.047652)  can0  460   [4]  12 00 1A 00 ::
whereamiData(
    Speed: 0.18 km/h,
    Distance: 26 m
)
 (111.047867)  can0  462   [4]  25 00 1A 00 ::
whereamiRawData(
    RawSpeed: 0.37 km/h,
    RawDistance: 26 m
)
 (111.048062)  can0  464   [8]  D9 69 AF 02 A1 03 75 00 ::
whereamiCoords(
    Latitude: 45.050329 °,
    Longitude: 7.668641 °
)
 (112.055679)  can0  460   [4]  1B 00 1A 00 ::
whereamiData(
    Speed: 0.27 km/h,
    Distance: 26 m
)
 (112.055898)  can0  462   [4]  37 00 1A 00 ::
whereamiRawData(
    RawSpeed: 0.55 km/h,
    RawDistance: 26 m
)
 (112.056089)  can0  464   [8]  DB 69 AF 02 A5 03 75 00 ::
whereamiCoords(
    Latitude: 45.050331 °,
    Longitude: 7.668645 °
)
 (113.063853)  can0  460   [4]  78 00 19 00 ::
whereamiData(
    Speed: 1.2 km/h,
    Distance: 25 m
)
 (113.064060)  can0  462   [4]  B9 00 19 00 ::
whereamiRawData(
    RawSpeed: 1.85 km/h,
    RawDistance: 25 m
)
 (113.064249)  can0  464   [8]  DF 69 AF 02 AF 03 75 00 ::
whereamiCoords(
    Latitude: 45.050335 °,
    Longitude: 7.668654999999999 °
)
 (114.071698)  can0  460   [4]  CD 00 18 00 ::
whereamiData(
    Speed: 2.05 km/h,
    Distance: 24 m
)
 (114.071922)  can0  462   [4]  3A 01 18 00 ::
whereamiRawData(
    RawSpeed: 3.14 km/h,
    RawDistance: 24 m
)
 (114.072110)  can0  464   [8]  E4 69 AF 02 BC 03 75 00 ::
whereamiCoords(
    Latitude: 45.05034 °,
    Longitude: 7.668667999999999 °
)
 (115.083710)  can0  460   [4]  5E 01 17 00 ::
whereamiData(
    Speed: 3.5 km/h,
    Distance: 23 m
)
 (115.084019)  can0  462   [4]  BC 01 17 00 ::
whereamiRawData(
    RawSpeed: 4.44 km/h,
    RawDistance: 23 m
)
 (115.084214)  can0  464   [8]  EB 69 AF 02 CC 03 75 00 ::
whereamiCoords(
    Latitude: 45.050346999999995 °,
    Longitude: 7.668684 °
)
 (116.095715)  can0  460   [4]  B7 01 15 00 ::
whereamiData(
    Speed: 4.39 km/h,
    Distance: 21 m
)
 (116.095927)  can0  462   [4]  06 02 15 00 ::
whereamiRawData(
    RawSpeed: 5.18 km/h,
    RawDistance: 21 m
)
 (116.096127)  can0  464   [8]  F2 69 AF 02 DF 03 75 00 ::
whereamiCoords(
    Latitude: 45.050354 °,
    Longitude: 7.668703 °
)
 (117.001896)  can0  460   [4]  C6 01 13 00 ::
whereamiData(
    Speed: 4.54 km/h,
    Distance: 19 m
)
 (117.002116)  can0  462   [4]  19 02 13 00 ::
whereamiRawData(
    RawSpeed: 5.37 km/h,
    RawDistance: 19 m
)
 (117.002320)  can0  464   [8]  F8 69 AF 02 F1 03 75 00 ::
whereamiCoords(
    Latitude: 45.05036 °,
    Longitude: 7.668721 °
)
 (118.011942)  can0  460   [4]  02 02 12 00 ::
whereamiData(
    Speed: 5.14 km/h,
    Distance: 18 m
)
 (118.012173)  can0  462   [4]  3E 02 12 00 ::
whereamiRawData(
    RawSpeed: 5.74 km/h,
    RawDistance: 18 m
)
 (118.012375)  can0  464   [8]  FD 69 AF 02 05 04 75 00 ::
whereamiCoords(
    Latitude: 45.050365 °,
    Longitude: 7.668741 °
)
 (119.025765)  can0  460   [4]  12 02 10 00 ::
whereamiData(
    Speed: 5.3 km/h,
    Distance: 16 m
)
 (119.025979)  can0  462   [4]  50 02 10 00 ::
whereamiRawData(
    RawSpeed: 5.92 km/h,
    RawDistance: 16 m
)
 (119.026179)  can0  464   [8]  02 6A AF 02 1C 04 75 00 ::
whereamiCoords(
    Latitude: 45.05037 °,
    Longitude: 7.6687639999999995 °
)
 (120.031958)  can0  460   [4]  F1 01 0E 00 ::
whereamiData(
    Speed: 4.97 km/h,
    Distance: 14 m
)
 (120.032169)  can0  462   [4]  2B 02 0E 00 ::
whereamiRawData(
    RawSpeed: 5.55 km/h,
    RawDistance: 14 m
)
 (120.032359)  can0  464   [8]  06 6A AF 02 32 04 75 00 ::
whereamiCoords(
    Latitude: 45.050374 °,
    Longitude: 7.668786 °
)
 (121.039627)  can0  460   [4]  F5 01 0C 00 ::
whereamiData(
    Speed: 5.01 km/h,
    Distance: 12 m
)
 (121.039848)  can0  462   [4]  50 02 0C 00 ::
whereamiRawData(
    RawSpeed: 5.92 km/h,
    RawDistance: 12 m
)
 (121.040043)  can0  464   [8]  0A 6A AF 02 4A 04 75 00 ::
whereamiCoords(
    Latitude: 45.050377999999995 °,
    Longitude: 7.66881 °
)
 (122.049804)  can0  460   [4]  05 02 0B 00 ::
whereamiData(
    Speed: 5.17 km/h,
    Distance: 11 m
)
 (122.050021)  can0  462   [4]  63 02 0B 00 ::
whereamiRawData(
    RawSpeed: 6.11 km/h,
    RawDistance: 11 m
)
 (122.050226)  can0  464   [8]  0E 6A AF 02 61 04 75 00 ::
whereamiCoords(
    Latitude: 45.050382 °,
    Longitude: 7.668832999999999 °
)
 (123.057661)  can0  460   [4]  34 02 09 00 ::
whereamiData(
    Speed: 5.64 km/h,
    Distance: 9 m
)
 (123.057882)  can0  462   [4]  9A 02 09 00 ::
whereamiRawData(
    RawSpeed: 6.66 km/h,
    RawDistance: 9 m
)
 (123.058087)  can0  464   [8]  14 6A AF 02 79 04 75 00 ::
whereamiCoords(
    Latitude: 45.050388 °,
    Longitude: 7.668857 °
)
 (124.067861)  can0  460   [4]  DC 00 07 00 ::
whereamiData(
    Speed: 2.2 km/h,
    Distance: 7 m
)
 (124.068086)  can0  462   [4]  D2 02 07 00 ::
whereamiRawData(
    RawSpeed: 7.22 km/h,
    RawDistance: 7 m
)
 (124.068277)  can0  464   [8]  1A 6A AF 02 92 04 75 00 ::
whereamiCoords(
    Latitude: 45.050394 °,
    Longitude: 7.668882 °
)
 (125.076029)  can0  460   [4]  00 00 05 00 ::
whereamiData(
    Speed: 0.0 km/h,
    Distance: 5 m
)
 (125.076245)  can0  462   [4]  D2 02 05 00 ::
whereamiRawData(
    RawSpeed: 7.22 km/h,
    RawDistance: 5 m
)
 (125.076440)  can0  464   [8]  20 6A AF 02 AA 04 75 00 ::
whereamiCoords(
    Latitude: 45.050399999999996 °,
    Longitude: 7.668906 °
)
 (126.088054)  can0  460   [4]  00 00 04 00 ::
whereamiData(
    Speed: 0.0 km/h,
    Distance: 4 m
)
 (126.088271)  can0  462   [4]  F7 02 04 00 ::
whereamiRawData(
    RawSpeed: 7.59 km/h,
    RawDistance: 4 m
)
 (126.088470)  can0  464   [8]  28 6A AF 02 C0 04 75 00 ::
whereamiCoords(
    Latitude: 45.050408 °,
    Longitude: 7.668927999999999 °
)
 (127.096069)  can0  460   [4]  00 00 04 00 ::
whereamiData(
    Speed: 0.0 km/h,
    Distance: 4 m
)
 (127.096291)  can0  462   [4]  09 03 04 00 ::
whereamiRawData(
    RawSpeed: 7.7700000000000005 km/h,
    RawDistance: 4 m
)
 (127.096497)  can0  464   [8]  2F 6A AF 02 D5 04 75 00 ::
whereamiCoords(
    Latitude: 45.050415 °,
    Longitude: 7.668949 °
)
 (128.102088)  can0  460   [4]  00 00 04 00 ::
whereamiData(
    Speed: 0.0 km/h,
    Distance: 4 m
)
 (128.102298)  can0  462   [4]  BF 02 04 00 ::
whereamiRawData(
    RawSpeed: 7.03 km/h,
    RawDistance: 4 m
)
 (128.102498)  can0  464   [8]  35 6A AF 02 E6 04 75 00 ::
whereamiCoords(
    Latitude: 45.050421 °,
    Longitude: 7.668965999999999 °
)
 (129.008102)  can0  460   [4]  00 00 04 00 ::
whereamiData(
    Speed: 0.0 km/h,
    Distance: 4 m
)
 (129.008325)  can0  462   [4]  3E 02 04 00 ::
whereamiRawData(
    RawSpeed: 5.74 km/h,
    RawDistance: 4 m
)
 (129.008617)  can0  464   [8]  38 6A AF 02 F2 04 75 00 ::
whereamiCoords(
    Latitude: 45.050424 °,
    Longitude: 7.668978 °
)
 (130.016114)  can0  460   [4]  00 00 04 00 ::
whereamiData(
    Speed: 0.0 km/h,
    Distance: 4 m
)
 (130.016332)  can0  462   [4]  28 01 04 00 ::
whereamiRawData(
    RawSpeed: 2.96 km/h,
    RawDistance: 4 m
)
 (130.016525)  can0  464   [8]  3A 6A AF 02 F4 04 75 00 ::
whereamiCoords(
    Latitude: 45.050425999999995 °,
    Longitude: 7.6689799999999995 °
)
 (131.025969)  can0  460   [4]  00 00 04 00 ::
whereamiData(
    Speed: 0.0 km/h,
    Distance: 4 m
)
 (131.026196)  can0  462   [4]  6F 00 04 00 ::
whereamiRawData(
    RawSpeed: 1.11 km/h,
    RawDistance: 4 m
)
 (131.026407)  can0  464   [8]  38 6A AF 02 EF 04 75 00 ::
whereamiCoords(
    Latitude: 45.050424 °,
    Longitude: 7.668975 °
)
 (132.034135)  can0  460   [4]  00 00 04 00 ::
whereamiData(
    Speed: 0.0 km/h,
    Distance: 4 m
)
 (132.034357)  can0  462   [4]  37 00 04 00 ::
whereamiRawData(
    RawSpeed: 0.55 km/h,
    RawDistance: 4 m
)
 (132.034545)  can0  464   [8]  37 6A AF 02 EA 04 75 00 ::
whereamiCoords(
    Latitude: 45.050422999999995 °,
    Longitude: 7.66897 °
)
 (133.039810)  can0  460   [4]  00 00 04 00 ::
whereamiData(
    Speed: 0.0 km/h,
    Distance: 4 m
)
 (133.040027)  can0  462   [4]  12 00 04 00 ::
whereamiRawData(
    RawSpeed: 0.18 km/h,
    RawDistance: 4 m
)
 (133.040219)  can0  464   [8]  36 6A AF 02 E7 04 75 00 ::
whereamiCoords(
    Latitude: 45.050422 °,
    Longitude: 7.668966999999999 °
)
 (134.045836)  can0  460   [4]  00 00 04 00 ::
whereamiData(
    Speed: 0.0 km/h,
    Distance: 4 m
)
 (134.046080)  can0  462   [4]  12 00 04 00 ::
whereamiRawData(
    RawSpeed: 0.18 km/h,
    RawDistance: 4 m
)
 (134.046284)  can0  464   [8]  35 6A AF 02 E4 04 75 00 ::
whereamiCoords(
    Latitude: 45.050421 °,
    Longitude: 7.668964 °
)
 (135.056015)  can0  460   [4]  00 00 04 00 ::
whereamiData(
    Speed: 0.0 km/h,
    Distance: 4 m
)
 (135.056241)  can0  462   [4]  12 00 04 00 ::
whereamiRawData(
    RawSpeed: 0.18 km/h,
    RawDistance: 4 m
)
 (135.056445)  can0  464   [8]  35 6A AF 02 E4 04 75 00 ::
whereamiCoords(
    Latitude: 45.050421 °,
    Longitude: 7.668964 °
)
 (136.063756)  can0  460   [4]  00 00 04 00 ::
whereamiData(
    Speed: 0.0 km/h,
    Distance: 4 m
)
 (136.063993)  can0  462   [4]  00 00 04 00 ::
whereamiRawData(
    RawSpeed: 0.0 km/h,
    RawDistance: 4 m
)
 (136.064197)  can0  464   [8]  35 6A AF 02 E3 04 75 00 ::
whereamiCoords(
    Latitude: 45.050421 °,
    Longitude: 7.668963 °
)
 (137.070046)  can0  460   [4]  00 00 04 00 ::
whereamiData(
    Speed: 0.0 km/h,
    Distance: 4 m
)
 (137.070262)  can0  462   [4]  25 00 04 00 ::
whereamiRawData(
    RawSpeed: 0.37 km/h,
    RawDistance: 4 m
)
 (137.070465)  can0  464   [8]  35 6A AF 02 E4 04 75 00 ::
whereamiCoords(
    Latitude: 45.050421 °,
    Longitude: 7.668964 °
)
 (138.076069)  can0  460   [4]  00 00 04 00 ::
whereamiData(
    Speed: 0.0 km/h,
    Distance: 4 m
)
 (138.076288)  can0  462   [4]  37 00 04 00 ::
whereamiRawData(
    RawSpeed: 0.55 km/h,
    RawDistance: 4 m
)
 (138.076481)  can0  464   [8]  35 6A AF 02 E4 04 75 00 ::
whereamiCoords(
    Latitude: 45.050421 °,
    Longitude: 7.668964 °
)
 (139.084076)  can0  460   [4]  00 00 04 00 ::
whereamiData(
    Speed: 0.0 km/h,
    Distance: 4 m
)
 (139.084301)  can0  462   [4]  37 00 04 00 ::
whereamiRawData(
    RawSpeed: 0.55 km/h,
    RawDistance: 4 m
)
 (139.084498)  can0  464   [8]  35 6A AF 02 E4 04 75 00 ::
whereamiCoords(
    Latitude: 45.050421 °,
    Longitude: 7.668964 °
)
 (140.098214)  can0  460   [4]  00 00 04 00 ::
whereamiData(
    Speed: 0.0 km/h,
    Distance: 4 m
)
 (140.098446)  can0  462   [4]  25 00 04 00 ::
whereamiRawData(
    RawSpeed: 0.37 km/h,
    RawDistance: 4 m
)
 (140.098648)  can0  464   [8]  35 6A AF 02 E4 04 75 00 ::
whereamiCoords(
    Latitude: 45.050421 °,
    Longitude: 7.668964 °
)
 (141.007931)  can0  460   [4]  00 00 04 00 ::
whereamiData(
    Speed: 0.0 km/h,
    Distance: 4 m
)
 (141.008149)  can0  462   [4]  00 00 04 00 ::
whereamiRawData(
    RawSpeed: 0.0 km/h,
    RawDistance: 4 m
)
 (141.008351)  can0  464   [8]  35 6A AF 02 E3 04 75 00 ::
whereamiCoords(
    Latitude: 45.050421 °,
    Longitude: 7.668963 °
)
 (142.016113)  can0  460   [4]  00 00 04 00 ::
whereamiData(
    Speed: 0.0 km/h,
    Distance: 4 m
)
 (142.016336)  can0  462   [4]  12 00 04 00 ::
whereamiRawData(
    RawSpeed: 0.18 km/h,
    RawDistance: 4 m
)
 (142.016531)  can0  464   [8]  35 6A AF 02 E3 04 75 00 ::
whereamiCoords(
    Latitude: 45.050421 °,
    Longitude: 7.668963 °
)
 (143.032300)  can0  460   [4]  00 00 04 00 ::
whereamiData(
    Speed: 0.0 km/h,
    Distance: 4 m
)
 (143.032515)  can0  462   [4]  12 00 04 00 ::
whereamiRawData(
    RawSpeed: 0.18 km/h,
    RawDistance: 4 m
)
 (143.032714)  can0  464   [8]  35 6A AF 02 E2 04 75 00 ::
whereamiCoords(
    Latitude: 45.050421 °,
    Longitude: 7.668962 °
)
 (144.039982)  can0  460   [4]  00 00 04 00 ::
whereamiData(
    Speed: 0.0 km/h,
    Distance: 4 m
)
 (144.040203)  can0  462   [4]  25 00 04 00 ::
whereamiRawData(
    RawSpeed: 0.37 km/h,
    RawDistance: 4 m
)
 (144.040397)  can0  464   [8]  35 6A AF 02 E2 04 75 00 ::
whereamiCoords(
    Latitude: 45.050421 °,
    Longitude: 7.668962 °
)
 (145.052167)  can0  460   [4]  00 00 04 00 ::
whereamiData(
    Speed: 0.0 km/h,
    Distance: 4 m
)
 (145.052388)  can0  462   [4]  12 00 04 00 ::
whereamiRawData(
    RawSpeed: 0.18 km/h,
    RawDistance: 4 m
)
 (145.052588)  can0  464   [8]  35 6A AF 02 E2 04 75 00 ::
whereamiCoords(
    Latitude: 45.050421 °,
    Longitude: 7.668962 °
)
 (146.059917)  can0  460   [4]  00 00 04 00 ::
whereamiData(
    Speed: 0.0 km/h,
    Distance: 4 m
)
 (146.060141)  can0  462   [4]  00 00 04 00 ::
whereamiRawData(
    RawSpeed: 0.0 km/h,
    RawDistance: 4 m
)
 (146.060336)  can0  464   [8]  35 6A AF 02 E2 04 75 00 ::
whereamiCoords(
    Latitude: 45.050421 °,
    Longitude: 7.668962 °
)
 (147.070381)  can0  460   [4]  00 00 04 00 ::
whereamiData(
    Speed: 0.0 km/h,
    Distance: 4 m
)
 (147.070609)  can0  462   [4]  12 00 04 00 ::
whereamiRawData(
    RawSpeed: 0.18 km/h,
    RawDistance: 4 m
)
 (147.070799)  can0  464   [8]  35 6A AF 02 E2 04 75 00 ::
whereamiCoords(
    Latitude: 45.050421 °,
    Longitude: 7.668962 °
)
 (148.076040)  can0  460   [4]  00 00 04 00 ::
whereamiData(
    Speed: 0.0 km/h,
    Distance: 4 m
)
 (148.076272)  can0  462   [4]  00 00 04 00 ::
whereamiRawData(
    RawSpeed: 0.0 km/h,
    RawDistance: 4 m
)
 (148.076462)  can0  464   [8]  35 6A AF 02 E2 04 75 00 ::
whereamiCoords(
    Latitude: 45.050421 °,
    Longitude: 7.668962 °
)
 (149.084217)  can0  460   [4]  00 00 04 00 ::
whereamiData(
    Speed: 0.0 km/h,
    Distance: 4 m
)
 (149.084433)  can0  462   [4]  12 00 04 00 ::
whereamiRawData(
    RawSpeed: 0.18 km/h,
    RawDistance: 4 m
)
 (149.084635)  can0  464   [8]  35 6A AF 02 E2 04 75 00 ::
whereamiCoords(
    Latitude: 45.050421 °,
    Longitude: 7.668962 °
)
 (150.092251)  can0  460   [4]  00 00 04 00 ::
whereamiData(
    Speed: 0.0 km/h,
    Distance: 4 m
)
 (150.092468)  can0  462   [4]  12 00 04 00 ::
whereamiRawData(
    RawSpeed: 0.18 km/h,
    RawDistance: 4 m
)
 (150.092667)  can0  464   [8]  35 6A AF 02 E2 04 75 00 ::
whereamiCoords(
    Latitude: 45.050421 °,
    Longitude: 7.668962 °
)
 (151.098512)  can0  460   [4]  00 00 04 00 ::
whereamiData(
    Speed: 0.0 km/h,
    Distance: 4 m
)
 (151.098727)  can0  462   [4]  12 00 04 00 ::
whereamiRawData(
    RawSpeed: 0.18 km/h,
    RawDistance: 4 m
)
 (151.098919)  can0  464   [8]  35 6A AF 02 E2 04 75 00 ::
whereamiCoords(
    Latitude: 45.050421 °,
    Longitude: 7.668962 °
)
 (152.005994)  can0  460   [4]  00 00 04 00 ::
whereamiData(
    Speed: 0.0 km/h,
    Distance: 4 m
)
 (152.006220)  can0  462   [4]  00 00 04 00 ::
whereamiRawData(
    RawSpeed: 0.0 km/h,
    RawDistance: 4 m
)
 (152.006424)  can0  464   [8]  34 6A AF 02 E1 04 75 00 ::
whereamiCoords(
    Latitude: 45.050419999999995 °,
    Longitude: 7.6689609999999995 °
)
 (153.012009)  can0  460   [4]  00 00 04 00 ::
whereamiData(
    Speed: 0.0 km/h,
    Distance: 4 m
)
 (153.012223)  can0  462   [4]  00 00 04 00 ::
whereamiRawData(
    RawSpeed: 0.0 km/h,
    RawDistance: 4 m
)
 (153.012415)  can0  464   [8]  34 6A AF 02 E1 04 75 00 ::
whereamiCoords(
    Latitude: 45.050419999999995 °,
    Longitude: 7.6689609999999995 °
)
 (154.024124)  can0  460   [4]  00 00 04 00 ::
whereamiData(
    Speed: 0.0 km/h,
    Distance: 4 m
)
 (154.024347)  can0  462   [4]  00 00 04 00 ::
whereamiRawData(
    RawSpeed: 0.0 km/h,
    RawDistance: 4 m
)
 (154.024544)  can0  464   [8]  34 6A AF 02 E1 04 75 00 ::
whereamiCoords(
    Latitude: 45.050419999999995 °,
    Longitude: 7.6689609999999995 °
)
 (155.034146)  can0  460   [4]  00 00 04 00 ::
whereamiData(
    Speed: 0.0 km/h,
    Distance: 4 m
)
 (155.034375)  can0  462   [4]  00 00 04 00 ::
whereamiRawData(
    RawSpeed: 0.0 km/h,
    RawDistance: 4 m
)
 (155.034571)  can0  464   [8]  35 6A AF 02 E2 04 75 00 ::
whereamiCoords(
    Latitude: 45.050421 °,
    Longitude: 7.668962 °
)
 (156.044329)  can0  460   [4]  00 00 04 00 ::
whereamiData(
    Speed: 0.0 km/h,
    Distance: 4 m
)
 (156.044553)  can0  462   [4]  25 00 04 00 ::
whereamiRawData(
    RawSpeed: 0.37 km/h,
    RawDistance: 4 m
)
 (156.044767)  can0  464   [8]  35 6A AF 02 E2 04 75 00 ::
whereamiCoords(
    Latitude: 45.050421 °,
    Longitude: 7.668962 °
)
 (157.056071)  can0  460   [4]  00 00 04 00 ::
whereamiData(
    Speed: 0.0 km/h,
    Distance: 4 m
)
 (157.056280)  can0  462   [4]  00 00 04 00 ::
whereamiRawData(
    RawSpeed: 0.0 km/h,
    RawDistance: 4 m
)
 (157.056483)  can0  464   [8]  35 6A AF 02 E2 04 75 00 ::
whereamiCoords(
    Latitude: 45.050421 °,
    Longitude: 7.668962 °
)
 (158.066361)  can0  460   [4]  00 00 04 00 ::
whereamiData(
    Speed: 0.0 km/h,
    Distance: 4 m
)
 (158.066583)  can0  462   [4]  12 00 04 00 ::
whereamiRawData(
    RawSpeed: 0.18 km/h,
    RawDistance: 4 m
)
 (158.066779)  can0  464   [8]  35 6A AF 02 E2 04 75 00 ::
whereamiCoords(
    Latitude: 45.050421 °,
    Longitude: 7.668962 °
)
 (159.078104)  can0  460   [4]  00 00 04 00 ::
whereamiData(
    Speed: 0.0 km/h,
    Distance: 4 m
)
 (159.078317)  can0  462   [4]  00 00 04 00 ::
whereamiRawData(
    RawSpeed: 0.0 km/h,
    RawDistance: 4 m
)
 (159.078508)  can0  464   [8]  35 6A AF 02 E2 04 75 00 ::
whereamiCoords(
    Latitude: 45.050421 °,
    Longitude: 7.668962 °
)
 (160.086398)  can0  460   [4]  00 00 04 00 ::
whereamiData(
    Speed: 0.0 km/h,
    Distance: 4 m
)
 (160.086631)  can0  462   [4]  12 00 04 00 ::
whereamiRawData(
    RawSpeed: 0.18 km/h,
    RawDistance: 4 m
)
 (160.086834)  can0  464   [8]  35 6A AF 02 E2 04 75 00 ::
whereamiCoords(
    Latitude: 45.050421 °,
    Longitude: 7.668962 °
)
 (161.094226)  can0  460   [4]  00 00 04 00 ::
whereamiData(
    Speed: 0.0 km/h,
    Distance: 4 m
)
 (161.094442)  can0  462   [4]  00 00 04 00 ::
whereamiRawData(
    RawSpeed: 0.0 km/h,
    RawDistance: 4 m
)
 (161.094642)  can0  464   [8]  35 6A AF 02 E2 04 75 00 ::
whereamiCoords(
    Latitude: 45.050421 °,
    Longitude: 7.668962 °
)
 (162.102424)  can0  460   [4]  00 00 04 00 ::
whereamiData(
    Speed: 0.0 km/h,
    Distance: 4 m
)
 (162.102647)  can0  462   [4]  12 00 04 00 ::
whereamiRawData(
    RawSpeed: 0.18 km/h,
    RawDistance: 4 m
)
 (162.102840)  can0  464   [8]  35 6A AF 02 E2 04 75 00 ::
whereamiCoords(
    Latitude: 45.050421 °,
    Longitude: 7.668962 °
)
 (163.008435)  can0  460   [4]  00 00 04 00 ::
whereamiData(
    Speed: 0.0 km/h,
    Distance: 4 m
)
 (163.008654)  can0  462   [4]  12 00 04 00 ::
whereamiRawData(
    RawSpeed: 0.18 km/h,
    RawDistance: 4 m
)
 (163.008856)  can0  464   [8]  35 6A AF 02 E2 04 75 00 ::
whereamiCoords(
    Latitude: 45.050421 °,
    Longitude: 7.668962 °
)
 (164.016192)  can0  460   [4]  00 00 04 00 ::
whereamiData(
    Speed: 0.0 km/h,
    Distance: 4 m
)
 (164.016415)  can0  462   [4]  00 00 04 00 ::
whereamiRawData(
    RawSpeed: 0.0 km/h,
    RawDistance: 4 m
)
 (164.016615)  can0  464   [8]  34 6A AF 02 E2 04 75 00 ::
whereamiCoords(
    Latitude: 45.050419999999995 °,
    Longitude: 7.668962 °
)
 (165.028654)  can0  460   [4]  00 00 04 00 ::
whereamiData(
    Speed: 0.0 km/h,
    Distance: 4 m
)
 (165.028884)  can0  462   [4]  12 00 04 00 ::
whereamiRawData(
    RawSpeed: 0.18 km/h,
    RawDistance: 4 m
)
 (165.029078)  can0  464   [8]  34 6A AF 02 E2 04 75 00 ::
whereamiCoords(
    Latitude: 45.050419999999995 °,
    Longitude: 7.668962 °
)
 (166.040216)  can0  460   [4]  00 00 04 00 ::
whereamiData(
    Speed: 0.0 km/h,
    Distance: 4 m
)
 (166.040435)  can0  462   [4]  00 00 04 00 ::
whereamiRawData(
    RawSpeed: 0.0 km/h,
    RawDistance: 4 m
)
 (166.040634)  can0  464   [8]  34 6A AF 02 E1 04 75 00 ::
whereamiCoords(
    Latitude: 45.050419999999995 °,
    Longitude: 7.6689609999999995 °
)
 (167.052240)  can0  460   [4]  00 00 04 00 ::
whereamiData(
    Speed: 0.0 km/h,
    Distance: 4 m
)
 (167.052459)  can0  462   [4]  00 00 04 00 ::
whereamiRawData(
    RawSpeed: 0.0 km/h,
    RawDistance: 4 m
)
 (167.052660)  can0  464   [8]  34 6A AF 02 E1 04 75 00 ::
whereamiCoords(
    Latitude: 45.050419999999995 °,
    Longitude: 7.6689609999999995 °
)
 (168.062336)  can0  460   [4]  00 00 04 00 ::
whereamiData(
    Speed: 0.0 km/h,
    Distance: 4 m
)
 (168.062554)  can0  462   [4]  00 00 04 00 ::
whereamiRawData(
    RawSpeed: 0.0 km/h,
    RawDistance: 4 m
)
 (168.062751)  can0  464   [8]  34 6A AF 02 E1 04 75 00 ::
whereamiCoords(
    Latitude: 45.050419999999995 °,
    Longitude: 7.6689609999999995 °
)
 (169.074268)  can0  460   [4]  00 00 04 00 ::
whereamiData(
    Speed: 0.0 km/h,
    Distance: 4 m
)
 (169.074493)  can0  462   [4]  00 00 04 00 ::
whereamiRawData(
    RawSpeed: 0.0 km/h,
    RawDistance: 4 m
)
 (169.074693)  can0  464   [8]  34 6A AF 02 E1 04 75 00 ::
whereamiCoords(
    Latitude: 45.050419999999995 °,
    Longitude: 7.6689609999999995 °
)
 (170.088279)  can0  460   [4]  00 00 04 00 ::
whereamiData(
    Speed: 0.0 km/h,
    Distance: 4 m
)
 (170.088500)  can0  462   [4]  00 00 04 00 ::
whereamiRawData(
    RawSpeed: 0.0 km/h,
    RawDistance: 4 m
)
 (170.088708)  can0  464   [8]  35 6A AF 02 E2 04 75 00 ::
whereamiCoords(
    Latitude: 45.050421 °,
    Longitude: 7.668962 °
)
 (171.094377)  can0  460   [4]  00 00 04 00 ::
whereamiData(
    Speed: 0.0 km/h,
    Distance: 4 m
)
 (171.094592)  can0  462   [4]  00 00 04 00 ::
whereamiRawData(
    RawSpeed: 0.0 km/h,
    RawDistance: 4 m
)
 (171.094788)  can0  464   [8]  36 6A AF 02 E3 04 75 00 ::
whereamiCoords(
    Latitude: 45.050422 °,
    Longitude: 7.668963 °
)
 (172.102578)  can0  460   [4]  15 00 04 00 ::
whereamiData(
    Speed: 0.21 km/h,
    Distance: 4 m
)
 (172.102792)  can0  462   [4]  25 00 04 00 ::
whereamiRawData(
    RawSpeed: 0.37 km/h,
    RawDistance: 4 m
)
 (172.102990)  can0  464   [8]  37 6A AF 02 E3 04 75 00 ::
whereamiCoords(
    Latitude: 45.050422999999995 °,
    Longitude: 7.668963 °
)
 (173.008325)  can0  460   [4]  00 00 04 00 ::
whereamiData(
    Speed: 0.0 km/h,
    Distance: 4 m
)
 (173.008555)  can0  462   [4]  00 00 04 00 ::
whereamiRawData(
    RawSpeed: 0.0 km/h,
    RawDistance: 4 m
)
 (173.008775)  can0  464   [8]  37 6A AF 02 E3 04 75 00 ::
whereamiCoords(
    Latitude: 45.050422999999995 °,
    Longitude: 7.668963 °
)
 (174.018614)  can0  460   [4]  0A 00 04 00 ::
whereamiData(
    Speed: 0.1 km/h,
    Distance: 4 m
)
 (174.018837)  can0  462   [4]  12 00 04 00 ::
whereamiRawData(
    RawSpeed: 0.18 km/h,
    RawDistance: 4 m
)
 (174.019036)  can0  464   [8]  37 6A AF 02 E3 04 75 00 ::
whereamiCoords(
    Latitude: 45.050422999999995 °,
    Longitude: 7.668963 °
)
 (175.026626)  can0  460   [4]  15 00 04 00 ::
whereamiData(
    Speed: 0.21 km/h,
    Distance: 4 m
)
 (175.026843)  can0  462   [4]  25 00 04 00 ::
whereamiRawData(
    RawSpeed: 0.37 km/h,
    RawDistance: 4 m
)
 (175.027040)  can0  464   [8]  37 6A AF 02 E3 04 75 00 ::
whereamiCoords(
    Latitude: 45.050422999999995 °,
    Longitude: 7.668963 °
)
 (176.042642)  can0  460   [4]  0A 00 04 00 ::
whereamiData(
    Speed: 0.1 km/h,
    Distance: 4 m
)
 (176.042862)  can0  462   [4]  12 00 04 00 ::
whereamiRawData(
    RawSpeed: 0.18 km/h,
    RawDistance: 4 m
)
 (176.043054)  can0  464   [8]  37 6A AF 02 E3 04 75 00 ::
whereamiCoords(
    Latitude: 45.050422999999995 °,
    Longitude: 7.668963 °
)
 (177.054474)  can0  460   [4]  0C 00 04 00 ::
whereamiData(
    Speed: 0.12 km/h,
    Distance: 4 m
)
 (177.054692)  can0  462   [4]  12 00 04 00 ::
whereamiRawData(
    RawSpeed: 0.18 km/h,
    RawDistance: 4 m
)
 (177.054897)  can0  464   [8]  37 6A AF 02 E3 04 75 00 ::
whereamiCoords(
    Latitude: 45.050422999999995 °,
    Longitude: 7.668963 °
)
 (178.064724)  can0  460   [4]  18 00 04 00 ::
whereamiData(
    Speed: 0.24 km/h,
    Distance: 4 m
)
 (178.064949)  can0  462   [4]  25 00 04 00 ::
whereamiRawData(
    RawSpeed: 0.37 km/h,
    RawDistance: 4 m
)
 (178.065148)  can0  464   [8]  37 6A AF 02 E3 04 75 00 ::
whereamiCoords(
    Latitude: 45.050422999999995 °,
    Longitude: 7.668963 °
)
 (179.074699)  can0  460   [4]  0C 00 04 00 ::
whereamiData(
    Speed: 0.12 km/h,
    Distance: 4 m
)
 (179.074957)  can0  462   [4]  12 00 04 00 ::
whereamiRawData(
    RawSpeed: 0.18 km/h,
    RawDistance: 4 m
)
 (179.075160)  can0  464   [8]  37 6A AF 02 E3 04 75 00 ::
whereamiCoords(
    Latitude: 45.050422999999995 °,
    Longitude: 7.668963 °
)
 (180.082533)  can0  460   [4]  0C 00 04 00 ::
whereamiData(
    Speed: 0.12 km/h,
    Distance: 4 m
)
 (180.082758)  can0  462   [4]  12 00 04 00 ::
whereamiRawData(
    RawSpeed: 0.18 km/h,
    RawDistance: 4 m
)
 (180.082947)  can0  464   [8]  37 6A AF 02 E3 04 75 00 ::
whereamiCoords(
    Latitude: 45.050422999999995 °,
    Longitude: 7.668963 °
)
 (181.094730)  can0  460   [4]  0C 00 04 00 ::
whereamiData(
    Speed: 0.12 km/h,
    Distance: 4 m
)
 (181.094950)  can0  462   [4]  12 00 04 00 ::
whereamiRawData(
    RawSpeed: 0.18 km/h,
    RawDistance: 4 m
)
 (181.095149)  can0  464   [8]  37 6A AF 02 E3 04 75 00 ::
whereamiCoords(
    Latitude: 45.050422999999995 °,
    Longitude: 7.668963 °
)
 (182.002462)  can0  460   [4]  00 00 04 00 ::
whereamiData(
    Speed: 0.0 km/h,
    Distance: 4 m
)
 (182.002682)  can0  462   [4]  00 00 04 00 ::
whereamiRawData(
    RawSpeed: 0.0 km/h,
    RawDistance: 4 m
)
 (182.002877)  can0  464   [8]  37 6A AF 02 E2 04 75 00 ::
whereamiCoords(
    Latitude: 45.050422999999995 °,
    Longitude: 7.668962 °
)
 (183.012579)  can0  460   [4]  00 00 04 00 ::
whereamiData(
    Speed: 0.0 km/h,
    Distance: 4 m
)
 (183.012806)  can0  462   [4]  00 00 04 00 ::
whereamiRawData(
    RawSpeed: 0.0 km/h,
    RawDistance: 4 m
)
 (183.012996)  can0  464   [8]  37 6A AF 02 E2 04 75 00 ::
whereamiCoords(
    Latitude: 45.050422999999995 °,
    Longitude: 7.668962 °
)
 (184.024813)  can0  460   [4]  0C 00 04 00 ::
whereamiData(
    Speed: 0.12 km/h,
    Distance: 4 m
)
 (184.025035)  can0  462   [4]  12 00 04 00 ::
whereamiRawData(
    RawSpeed: 0.18 km/h,
    RawDistance: 4 m
)
 (184.025233)  can0  464   [8]  37 6A AF 02 E2 04 75 00 ::
whereamiCoords(
    Latitude: 45.050422999999995 °,
    Longitude: 7.668962 °
)
 (185.032598)  can0  460   [4]  00 00 04 00 ::
whereamiData(
    Speed: 0.0 km/h,
    Distance: 4 m
)
 (185.032812)  can0  462   [4]  00 00 04 00 ::
whereamiRawData(
    RawSpeed: 0.0 km/h,
    RawDistance: 4 m
)
 (185.033008)  can0  464   [8]  37 6A AF 02 E2 04 75 00 ::
whereamiCoords(
    Latitude: 45.050422999999995 °,
    Longitude: 7.668962 °
)
 (186.050614)  can0  460   [4]  00 00 04 00 ::
whereamiData(
    Speed: 0.0 km/h,
    Distance: 4 m
)
 (186.050828)  can0  462   [4]  00 00 04 00 ::
whereamiRawData(
    RawSpeed: 0.0 km/h,
    RawDistance: 4 m
)
 (186.051027)  can0  464   [8]  37 6A AF 02 E3 04 75 00 ::
whereamiCoords(
    Latitude: 45.050422999999995 °,
    Longitude: 7.668963 °
)
 (187.060815)  can0  460   [4]  1A 00 04 00 ::
whereamiData(
    Speed: 0.26 km/h,
    Distance: 4 m
)
 (187.061029)  can0  462   [4]  25 00 04 00 ::
whereamiRawData(
    RawSpeed: 0.37 km/h,
    RawDistance: 4 m
)
 (187.061244)  can0  464   [8]  37 6A AF 02 E3 04 75 00 ::
whereamiCoords(
    Latitude: 45.050422999999995 °,
    Longitude: 7.668963 °
)
 (188.072833)  can0  460   [4]  0D 00 04 00 ::
whereamiData(
    Speed: 0.13 km/h,
    Distance: 4 m
)
 (188.073067)  can0  462   [4]  12 00 04 00 ::
whereamiRawData(
    RawSpeed: 0.18 km/h,
    RawDistance: 4 m
)
 (188.073257)  can0  464   [8]  38 6A AF 02 E4 04 75 00 ::
whereamiCoords(
    Latitude: 45.050424 °,
    Longitude: 7.668964 °
)
 (189.082582)  can0  460   [4]  00 00 04 00 ::
whereamiData(
    Speed: 0.0 km/h,
    Distance: 4 m
)
 (189.082800)  can0  462   [4]  00 00 04 00 ::
whereamiRawData(
    RawSpeed: 0.0 km/h,
    RawDistance: 4 m
)
 (189.082989)  can0  464   [8]  38 6A AF 02 E4 04 75 00 ::
whereamiCoords(
    Latitude: 45.050424 °,
    Longitude: 7.668964 °
)
 (190.092873)  can0  460   [4]  0D 00 04 00 ::
whereamiData(
    Speed: 0.13 km/h,
    Distance: 4 m
)
 (190.093111)  can0  462   [4]  12 00 04 00 ::
whereamiRawData(
    RawSpeed: 0.18 km/h,
    RawDistance: 4 m
)
 (190.093321)  can0  464   [8]  38 6A AF 02 E4 04 75 00 ::
whereamiCoords(
    Latitude: 45.050424 °,
    Longitude: 7.668964 °
)
 (191.097133)  can0  460   [4]  0D 00 04 00 ::
whereamiData(
    Speed: 0.13 km/h,
    Distance: 4 m
)
 (191.097348)  can0  462   [4]  12 00 04 00 ::
whereamiRawData(
    RawSpeed: 0.18 km/h,
    RawDistance: 4 m
)
 (191.097541)  can0  464   [8]  38 6A AF 02 E5 04 75 00 ::
whereamiCoords(
    Latitude: 45.050424 °,
    Longitude: 7.668965 °
)
 (192.004891)  can0  460   [4]  0D 00 04 00 ::
whereamiData(
    Speed: 0.13 km/h,
    Distance: 4 m
)
 (192.005119)  can0  462   [4]  12 00 04 00 ::
whereamiRawData(
    RawSpeed: 0.18 km/h,
    RawDistance: 4 m
)
 (192.005314)  can0  464   [8]  38 6A AF 02 E5 04 75 00 ::
whereamiCoords(
    Latitude: 45.050424 °,
    Longitude: 7.668965 °
)
 (193.014902)  can0  460   [4]  0D 00 04 00 ::
whereamiData(
    Speed: 0.13 km/h,
    Distance: 4 m
)
 (193.015119)  can0  462   [4]  12 00 04 00 ::
whereamiRawData(
    RawSpeed: 0.18 km/h,
    RawDistance: 4 m
)
 (193.015325)  can0  464   [8]  38 6A AF 02 E6 04 75 00 ::
whereamiCoords(
    Latitude: 45.050424 °,
    Longitude: 7.668965999999999 °
)
 (194.020648)  can0  460   [4]  00 00 04 00 ::
whereamiData(
    Speed: 0.0 km/h,
    Distance: 4 m
)
 (194.020882)  can0  462   [4]  00 00 04 00 ::
whereamiRawData(
    RawSpeed: 0.0 km/h,
    RawDistance: 4 m
)
 (194.021082)  can0  464   [8]  38 6A AF 02 E6 04 75 00 ::
whereamiCoords(
    Latitude: 45.050424 °,
    Longitude: 7.668965999999999 °
)
 (195.026942)  can0  460   [4]  1F 00 04 00 ::
whereamiData(
    Speed: 0.31 km/h,
    Distance: 4 m
)
 (195.027162)  can0  462   [4]  25 00 04 00 ::
whereamiRawData(
    RawSpeed: 0.37 km/h,
    RawDistance: 4 m
)
 (195.027365)  can0  464   [8]  39 6A AF 02 E6 04 75 00 ::
whereamiCoords(
    Latitude: 45.050425 °,
    Longitude: 7.668965999999999 °
)
 (196.042773)  can0  460   [4]  0F 00 04 00 ::
whereamiData(
    Speed: 0.15 km/h,
    Distance: 4 m
)
 (196.042989)  can0  462   [4]  12 00 04 00 ::
whereamiRawData(
    RawSpeed: 0.18 km/h,
    RawDistance: 4 m
)
 (196.043183)  can0  464   [8]  39 6A AF 02 E7 04 75 00 ::
whereamiCoords(
    Latitude: 45.050425 °,
    Longitude: 7.668966999999999 °
)
 (197.048798)  can0  460   [4]  0F 00 04 00 ::
whereamiData(
    Speed: 0.15 km/h,
    Distance: 4 m
)
 (197.049012)  can0  462   [4]  12 00 04 00 ::
whereamiRawData(
    RawSpeed: 0.18 km/h,
    RawDistance: 4 m
)
 (197.049205)  can0  464   [8]  39 6A AF 02 E8 04 75 00 ::
whereamiCoords(
    Latitude: 45.050425 °,
    Longitude: 7.668968 °
)
 (198.058714)  can0  460   [4]  00 00 04 00 ::
whereamiData(
    Speed: 0.0 km/h,
    Distance: 4 m
)
 (198.058947)  can0  462   [4]  00 00 04 00 ::
whereamiRawData(
    RawSpeed: 0.0 km/h,
    RawDistance: 4 m
)
 (198.059142)  can0  464   [8]  3A 6A AF 02 E8 04 75 00 ::
whereamiCoords(
    Latitude: 45.050425999999995 °,
    Longitude: 7.668968 °
)
 (199.070736)  can0  460   [4]  00 00 04 00 ::
whereamiData(
    Speed: 0.0 km/h,
    Distance: 4 m
)
 (199.070986)  can0  462   [4]  00 00 04 00 ::
whereamiRawData(
    RawSpeed: 0.0 km/h,
    RawDistance: 4 m
)
 (199.071187)  can0  464   [8]  3A 6A AF 02 E8 04 75 00 ::
whereamiCoords(
    Latitude: 45.050425999999995 °,
    Longitude: 7.668968 °
)
 (200.080735)  can0  460   [4]  00 00 04 00 ::
whereamiData(
    Speed: 0.0 km/h,
    Distance: 4 m
)
 (200.080954)  can0  462   [4]  00 00 04 00 ::
whereamiRawData(
    RawSpeed: 0.0 km/h,
    RawDistance: 4 m
)
 (200.081156)  can0  464   [8]  3A 6A AF 02 E8 04 75 00 ::
whereamiCoords(
    Latitude: 45.050425999999995 °,
    Longitude: 7.668968 °
)
 (201.088756)  can0  460   [4]  00 00 04 00 ::
whereamiData(
    Speed: 0.0 km/h,
    Distance: 4 m
)
 (201.088972)  can0  462   [4]  00 00 04 00 ::
whereamiRawData(
    RawSpeed: 0.0 km/h,
    RawDistance: 4 m
)
 (201.089165)  can0  464   [8]  3A 6A AF 02 E8 04 75 00 ::
whereamiCoords(
    Latitude: 45.050425999999995 °,
    Longitude: 7.668968 °
)
 (202.099045)  can0  460   [4]  0F 00 04 00 ::
whereamiData(
    Speed: 0.15 km/h,
    Distance: 4 m
)
 (202.099265)  can0  462   [4]  12 00 04 00 ::
whereamiRawData(
    RawSpeed: 0.18 km/h,
    RawDistance: 4 m
)
 (202.099461)  can0  464   [8]  37 6A AF 02 E3 04 75 00 ::
whereamiCoords(
    Latitude: 45.050422999999995 °,
    Longitude: 7.668963 °
)
 (203.005079)  can0  460   [4]  31 00 04 00 ::
whereamiData(
    Speed: 0.49 km/h,
    Distance: 4 m
)
 (203.005332)  can0  462   [4]  37 00 04 00 ::
whereamiRawData(
    RawSpeed: 0.55 km/h,
    RawDistance: 4 m
)
 (203.005556)  can0  464   [8]  37 6A AF 02 E4 04 75 00 ::
whereamiCoords(
    Latitude: 45.050422999999995 °,
    Longitude: 7.668964 °
)
 (204.013120)  can0  460   [4]  21 00 04 00 ::
whereamiData(
    Speed: 0.33 km/h,
    Distance: 4 m
)
 (204.013372)  can0  462   [4]  25 00 04 00 ::
whereamiRawData(
    RawSpeed: 0.37 km/h,
    RawDistance: 4 m
)
 (204.013576)  can0  464   [8]  37 6A AF 02 E4 04 75 00 ::
whereamiCoords(
    Latitude: 45.050422999999995 °,
    Longitude: 7.668964 °
)
 (205.025079)  can0  460   [4]  22 00 04 00 ::
whereamiData(
    Speed: 0.34 km/h,
    Distance: 4 m
)
 (205.025291)  can0  462   [4]  25 00 04 00 ::
whereamiRawData(
    RawSpeed: 0.37 km/h,
    RawDistance: 4 m
)
 (205.025484)  can0  464   [8]  37 6A AF 02 E4 04 75 00 ::
whereamiCoords(
    Latitude: 45.050422999999995 °,
    Longitude: 7.668964 °
)
 (206.033098)  can0  460   [4]  11 00 04 00 ::
whereamiData(
    Speed: 0.17 km/h,
    Distance: 4 m
)
 (206.033314)  can0  462   [4]  12 00 04 00 ::
whereamiRawData(
    RawSpeed: 0.18 km/h,
    RawDistance: 4 m
)
 (206.033508)  can0  464   [8]  37 6A AF 02 E4 04 75 00 ::
whereamiCoords(
    Latitude: 45.050422999999995 °,
    Longitude: 7.668964 °
)
 (207.042960)  can0  460   [4]  11 00 04 00 ::
whereamiData(
    Speed: 0.17 km/h,
    Distance: 4 m
)
 (207.043191)  can0  462   [4]  12 00 04 00 ::
whereamiRawData(
    RawSpeed: 0.18 km/h,
    RawDistance: 4 m
)
 (207.043390)  can0  464   [8]  37 6A AF 02 E3 04 75 00 ::
whereamiCoords(
    Latitude: 45.050422999999995 °,
    Longitude: 7.668963 °
)
 (208.050876)  can0  460   [4]  34 00 04 00 ::
whereamiData(
    Speed: 0.52 km/h,
    Distance: 4 m
)
 (208.051095)  can0  462   [4]  37 00 04 00 ::
whereamiRawData(
    RawSpeed: 0.55 km/h,
    RawDistance: 4 m
)
 (208.051297)  can0  464   [8]  37 6A AF 02 E4 04 75 00 ::
whereamiCoords(
    Latitude: 45.050422999999995 °,
    Longitude: 7.668964 °
)
 (209.061142)  can0  460   [4]  22 00 04 00 ::
whereamiData(
    Speed: 0.34 km/h,
    Distance: 4 m
)
 (209.061361)  can0  462   [4]  25 00 04 00 ::
whereamiRawData(
    RawSpeed: 0.37 km/h,
    RawDistance: 4 m
)
 (209.061562)  can0  464   [8]  37 6A AF 02 E3 04 75 00 ::
whereamiCoords(
    Latitude: 45.050422999999995 °,
    Longitude: 7.668963 °
)
 (210.073166)  can0  460   [4]  22 00 04 00 ::
whereamiData(
    Speed: 0.34 km/h,
    Distance: 4 m
)
 (210.073405)  can0  462   [4]  25 00 04 00 ::
whereamiRawData(
    RawSpeed: 0.37 km/h,
    RawDistance: 4 m
)
 (210.073602)  can0  464   [8]  37 6A AF 02 E1 04 75 00 ::
whereamiCoords(
    Latitude: 45.050422999999995 °,
    Longitude: 7.6689609999999995 °
)
 (211.083001)  can0  460   [4]  11 00 04 00 ::
whereamiData(
    Speed: 0.17 km/h,
    Distance: 4 m
)
 (211.083214)  can0  462   [4]  12 00 04 00 ::
whereamiRawData(
    RawSpeed: 0.18 km/h,
    RawDistance: 4 m
)
 (211.083409)  can0  464   [8]  36 6A AF 02 E0 04 75 00 ::
whereamiCoords(
    Latitude: 45.050422 °,
    Longitude: 7.668959999999999 °
)
 (212.099213)  can0  460   [4]  11 00 04 00 ::
whereamiData(
    Speed: 0.17 km/h,
    Distance: 4 m
)
 (212.099430)  can0  462   [4]  12 00 04 00 ::
whereamiRawData(
    RawSpeed: 0.18 km/h,
    RawDistance: 4 m
)
 (212.099622)  can0  464   [8]  36 6A AF 02 DF 04 75 00 ::
whereamiCoords(
    Latitude: 45.050422 °,
    Longitude: 7.668959 °
)
 (213.009222)  can0  460   [4]  11 00 04 00 ::
whereamiData(
    Speed: 0.17 km/h,
    Distance: 4 m
)
 (213.009447)  can0  462   [4]  12 00 04 00 ::
whereamiRawData(
    RawSpeed: 0.18 km/h,
    RawDistance: 4 m
)
 (213.009643)  can0  464   [8]  36 6A AF 02 DF 04 75 00 ::
whereamiCoords(
    Latitude: 45.050422 °,
    Longitude: 7.668959 °
)
 (214.017037)  can0  460   [4]  00 00 04 00 ::
whereamiData(
    Speed: 0.0 km/h,
    Distance: 4 m
)
 (214.017254)  can0  462   [4]  00 00 04 00 ::
whereamiRawData(
    RawSpeed: 0.0 km/h,
    RawDistance: 4 m
)
 (214.017455)  can0  464   [8]  35 6A AF 02 DE 04 75 00 ::
whereamiCoords(
    Latitude: 45.050421 °,
    Longitude: 7.668958 °
)
 (412.499717)  can0  460   [4]  00 00 04 00 ::
whereamiData(
    Speed: 0.0 km/h,
    Distance: 4 m
)
 (412.499949)  can0  462   [4]  00 00 04 00 ::
whereamiRawData(
    RawSpeed: 0.0 km/h,
    RawDistance: 4 m
)
 (412.500148)  can0  464   [8]  35 6A AF 02 DE 04 75 00 ::
whereamiCoords(
    Latitude: 45.050421 °,
    Longitude: 7.668958 °
)
 (413.018345)  can0  460   [4]  0D 00 07 00 ::
whereamiData(
    Speed: 0.13 km/h,
    Distance: 7 m
)
 (413.018564)  can0  462   [4]  12 00 07 00 ::
whereamiRawData(
    RawSpeed: 0.18 km/h,
    RawDistance: 7 m
)
 (413.018760)  can0  464   [8]  4B 6A AF 02 21 05 75 00 ::
whereamiCoords(
    Latitude: 45.050443 °,
    Longitude: 7.6690249999999995 °
)
 (414.042163)  can0  460   [4]  0D 00 07 00 ::
whereamiData(
    Speed: 0.13 km/h,
    Distance: 7 m
)
 (414.042379)  can0  462   [4]  12 00 07 00 ::
whereamiRawData(
    RawSpeed: 0.18 km/h,
    RawDistance: 7 m
)
 (414.042587)  can0  464   [8]  4B 6A AF 02 21 05 75 00 ::
whereamiCoords(
    Latitude: 45.050443 °,
    Longitude: 7.6690249999999995 °
)
 (415.056356)  can0  460   [4]  1B 00 07 00 ::
whereamiData(
    Speed: 0.27 km/h,
    Distance: 7 m
)
 (415.056577)  can0  462   [4]  25 00 07 00 ::
whereamiRawData(
    RawSpeed: 0.37 km/h,
    RawDistance: 7 m
)
 (415.056774)  can0  464   [8]  4B 6A AF 02 20 05 75 00 ::
whereamiCoords(
    Latitude: 45.050443 °,
    Longitude: 7.669023999999999 °
)
 (416.074249)  can0  460   [4]  0D 00 07 00 ::
whereamiData(
    Speed: 0.13 km/h,
    Distance: 7 m
)
 (416.074522)  can0  462   [4]  12 00 07 00 ::
whereamiRawData(
    RawSpeed: 0.18 km/h,
    RawDistance: 7 m
)
 (416.074739)  can0  464   [8]  4B 6A AF 02 21 05 75 00 ::
whereamiCoords(
    Latitude: 45.050443 °,
    Longitude: 7.6690249999999995 °
)
 (417.092224)  can0  460   [4]  0D 00 07 00 ::
whereamiData(
    Speed: 0.13 km/h,
    Distance: 7 m
)
 (417.092446)  can0  462   [4]  12 00 07 00 ::
whereamiRawData(
    RawSpeed: 0.18 km/h,
    RawDistance: 7 m
)
 (417.092650)  can0  464   [8]  4B 6A AF 02 21 05 75 00 ::
whereamiCoords(
    Latitude: 45.050443 °,
    Longitude: 7.6690249999999995 °
)
 (418.006410)  can0  460   [4]  0D 00 07 00 ::
whereamiData(
    Speed: 0.13 km/h,
    Distance: 7 m
)
 (418.006633)  can0  462   [4]  12 00 07 00 ::
whereamiRawData(
    RawSpeed: 0.18 km/h,
    RawDistance: 7 m
)
 (418.006824)  can0  464   [8]  4B 6A AF 02 21 05 75 00 ::
whereamiCoords(
    Latitude: 45.050443 °,
    Longitude: 7.6690249999999995 °
)
 (419.026247)  can0  460   [4]  0D 00 07 00 ::
whereamiData(
    Speed: 0.13 km/h,
    Distance: 7 m
)
 (419.026464)  can0  462   [4]  12 00 07 00 ::
whereamiRawData(
    RawSpeed: 0.18 km/h,
    RawDistance: 7 m
)
 (419.026666)  can0  464   [8]  4B 6A AF 02 21 05 75 00 ::
whereamiCoords(
    Latitude: 45.050443 °,
    Longitude: 7.6690249999999995 °
)
 (420.042428)  can0  460   [4]  0D 00 07 00 ::
whereamiData(
    Speed: 0.13 km/h,
    Distance: 7 m
)
 (420.042639)  can0  462   [4]  12 00 07 00 ::
whereamiRawData(
    RawSpeed: 0.18 km/h,
    RawDistance: 7 m
)
 (420.042833)  can0  464   [8]  4B 6A AF 02 21 05 75 00 ::
whereamiCoords(
    Latitude: 45.050443 °,
    Longitude: 7.6690249999999995 °
)
 (421.058191)  can0  460   [4]  00 00 07 00 ::
whereamiData(
    Speed: 0.0 km/h,
    Distance: 7 m
)
 (421.058412)  can0  462   [4]  00 00 07 00 ::
whereamiRawData(
    RawSpeed: 0.0 km/h,
    RawDistance: 7 m
)
 (421.058615)  can0  464   [8]  4B 6A AF 02 21 05 75 00 ::
whereamiCoords(
    Latitude: 45.050443 °,
    Longitude: 7.6690249999999995 °
)
 (422.076463)  can0  460   [4]  0D 00 07 00 ::
whereamiData(
    Speed: 0.13 km/h,
    Distance: 7 m
)
 (422.076676)  can0  462   [4]  12 00 07 00 ::
whereamiRawData(
    RawSpeed: 0.18 km/h,
    RawDistance: 7 m
)
 (422.076869)  can0  464   [8]  4B 6A AF 02 21 05 75 00 ::
whereamiCoords(
    Latitude: 45.050443 °,
    Longitude: 7.6690249999999995 °
)
 (423.096668)  can0  460   [4]  0D 00 07 00 ::
whereamiData(
    Speed: 0.13 km/h,
    Distance: 7 m
)
 (423.096890)  can0  462   [4]  12 00 07 00 ::
whereamiRawData(
    RawSpeed: 0.18 km/h,
    RawDistance: 7 m
)
 (423.097087)  can0  464   [8]  4B 6A AF 02 21 05 75 00 ::
whereamiCoords(
    Latitude: 45.050443 °,
    Longitude: 7.6690249999999995 °
)
 (424.012503)  can0  460   [4]  0D 00 07 00 ::
whereamiData(
    Speed: 0.13 km/h,
    Distance: 7 m
)
 (424.012718)  can0  462   [4]  12 00 07 00 ::
whereamiRawData(
    RawSpeed: 0.18 km/h,
    RawDistance: 7 m
)
 (424.012924)  can0  464   [8]  4B 6A AF 02 21 05 75 00 ::
whereamiCoords(
    Latitude: 45.050443 °,
    Longitude: 7.6690249999999995 °
)
 (425.028245)  can0  460   [4]  00 00 07 00 ::
whereamiData(
    Speed: 0.0 km/h,
    Distance: 7 m
)
 (425.028464)  can0  462   [4]  00 00 07 00 ::
whereamiRawData(
    RawSpeed: 0.0 km/h,
    RawDistance: 7 m
)
 (425.028676)  can0  464   [8]  4B 6A AF 02 21 05 75 00 ::
whereamiCoords(
    Latitude: 45.050443 °,
    Longitude: 7.6690249999999995 °
)
 (426.044530)  can0  460   [4]  0D 00 07 00 ::
whereamiData(
    Speed: 0.13 km/h,
    Distance: 7 m
)
 (426.044747)  can0  462   [4]  12 00 07 00 ::
whereamiRawData(
    RawSpeed: 0.18 km/h,
    RawDistance: 7 m
)
 (426.044951)  can0  464   [8]  4B 6A AF 02 21 05 75 00 ::
whereamiCoords(
    Latitude: 45.050443 °,
    Longitude: 7.6690249999999995 °
)
 (427.066316)  can0  460   [4]  00 00 07 00 ::
whereamiData(
    Speed: 0.0 km/h,
    Distance: 7 m
)
 (427.066562)  can0  462   [4]  00 00 07 00 ::
whereamiRawData(
    RawSpeed: 0.0 km/h,
    RawDistance: 7 m
)
 (427.066766)  can0  464   [8]  4B 6A AF 02 21 05 75 00 ::
whereamiCoords(
    Latitude: 45.050443 °,
    Longitude: 7.6690249999999995 °
)
 (428.080578)  can0  460   [4]  0D 00 07 00 ::
whereamiData(
    Speed: 0.13 km/h,
    Distance: 7 m
)
 (428.080805)  can0  462   [4]  12 00 07 00 ::
whereamiRawData(
    RawSpeed: 0.18 km/h,
    RawDistance: 7 m
)
 (428.081003)  can0  464   [8]  4B 6A AF 02 21 05 75 00 ::
whereamiCoords(
    Latitude: 45.050443 °,
    Longitude: 7.6690249999999995 °
)
 (429.100419)  can0  460   [4]  0D 00 07 00 ::
whereamiData(
    Speed: 0.13 km/h,
    Distance: 7 m
)
 (429.100641)  can0  462   [4]  12 00 07 00 ::
whereamiRawData(
    RawSpeed: 0.18 km/h,
    RawDistance: 7 m
)
 (429.100850)  can0  464   [8]  4B 6A AF 02 21 05 75 00 ::
whereamiCoords(
    Latitude: 45.050443 °,
    Longitude: 7.6690249999999995 °
)
 (430.020609)  can0  460   [4]  0D 00 07 00 ::
whereamiData(
    Speed: 0.13 km/h,
    Distance: 7 m
)
 (430.020823)  can0  462   [4]  12 00 07 00 ::
whereamiRawData(
    RawSpeed: 0.18 km/h,
    RawDistance: 7 m
)
 (430.021022)  can0  464   [8]  4B 6A AF 02 21 05 75 00 ::
whereamiCoords(
    Latitude: 45.050443 °,
    Longitude: 7.6690249999999995 °
)
 (431.038433)  can0  460   [4]  0D 00 07 00 ::
whereamiData(
    Speed: 0.13 km/h,
    Distance: 7 m
)
 (431.038659)  can0  462   [4]  12 00 07 00 ::
whereamiRawData(
    RawSpeed: 0.18 km/h,
    RawDistance: 7 m
)
 (431.038858)  can0  464   [8]  4B 6A AF 02 21 05 75 00 ::
whereamiCoords(
    Latitude: 45.050443 °,
    Longitude: 7.6690249999999995 °
)
 (432.058632)  can0  460   [4]  0D 00 07 00 ::
whereamiData(
    Speed: 0.13 km/h,
    Distance: 7 m
)
 (432.058848)  can0  462   [4]  12 00 07 00 ::
whereamiRawData(
    RawSpeed: 0.18 km/h,
    RawDistance: 7 m
)
 (432.059052)  can0  464   [8]  4B 6A AF 02 21 05 75 00 ::
whereamiCoords(
    Latitude: 45.050443 °,
    Longitude: 7.6690249999999995 °
)
 (433.080486)  can0  460   [4]  0D 00 07 00 ::
whereamiData(
    Speed: 0.13 km/h,
    Distance: 7 m
)
 (433.080718)  can0  462   [4]  12 00 07 00 ::
whereamiRawData(
    RawSpeed: 0.18 km/h,
    RawDistance: 7 m
)
 (433.080925)  can0  464   [8]  4B 6A AF 02 21 05 75 00 ::
whereamiCoords(
    Latitude: 45.050443 °,
    Longitude: 7.6690249999999995 °
)
 (434.100669)  can0  460   [4]  0D 00 07 00 ::
whereamiData(
    Speed: 0.13 km/h,
    Distance: 7 m
)
 (434.100879)  can0  462   [4]  12 00 07 00 ::
whereamiRawData(
    RawSpeed: 0.18 km/h,
    RawDistance: 7 m
)
 (434.101070)  can0  464   [8]  4B 6A AF 02 21 05 75 00 ::
whereamiCoords(
    Latitude: 45.050443 °,
    Longitude: 7.6690249999999995 °
)
 (435.012690)  can0  460   [4]  0D 00 07 00 ::
whereamiData(
    Speed: 0.13 km/h,
    Distance: 7 m
)
 (435.012928)  can0  462   [4]  12 00 07 00 ::
whereamiRawData(
    RawSpeed: 0.18 km/h,
    RawDistance: 7 m
)
 (435.013134)  can0  464   [8]  4B 6A AF 02 21 05 75 00 ::
whereamiCoords(
    Latitude: 45.050443 °,
    Longitude: 7.6690249999999995 °
)
 (436.028712)  can0  460   [4]  0D 00 07 00 ::
whereamiData(
    Speed: 0.13 km/h,
    Distance: 7 m
)
 (436.028928)  can0  462   [4]  12 00 07 00 ::
whereamiRawData(
    RawSpeed: 0.18 km/h,
    RawDistance: 7 m
)
 (436.029126)  can0  464   [8]  4B 6A AF 02 21 05 75 00 ::
whereamiCoords(
    Latitude: 45.050443 °,
    Longitude: 7.6690249999999995 °
)
 (437.040722)  can0  460   [4]  0D 00 07 00 ::
whereamiData(
    Speed: 0.13 km/h,
    Distance: 7 m
)
 (437.040941)  can0  462   [4]  12 00 07 00 ::
whereamiRawData(
    RawSpeed: 0.18 km/h,
    RawDistance: 7 m
)
 (437.041148)  can0  464   [8]  4B 6A AF 02 21 05 75 00 ::
whereamiCoords(
    Latitude: 45.050443 °,
    Longitude: 7.6690249999999995 °
)
 (438.058728)  can0  460   [4]  0D 00 07 00 ::
whereamiData(
    Speed: 0.13 km/h,
    Distance: 7 m
)
 (438.058954)  can0  462   [4]  12 00 07 00 ::
whereamiRawData(
    RawSpeed: 0.18 km/h,
    RawDistance: 7 m
)
 (438.059165)  can0  464   [8]  4B 6A AF 02 21 05 75 00 ::
whereamiCoords(
    Latitude: 45.050443 °,
    Longitude: 7.6690249999999995 °
)
 (439.072749)  can0  460   [4]  0D 00 07 00 ::
whereamiData(
    Speed: 0.13 km/h,
    Distance: 7 m
)
 (439.072966)  can0  462   [4]  12 00 07 00 ::
whereamiRawData(
    RawSpeed: 0.18 km/h,
    RawDistance: 7 m
)
 (439.073159)  can0  464   [8]  4B 6A AF 02 21 05 75 00 ::
whereamiCoords(
    Latitude: 45.050443 °,
    Longitude: 7.6690249999999995 °
)
 (440.088779)  can0  460   [4]  0D 00 07 00 ::
whereamiData(
    Speed: 0.13 km/h,
    Distance: 7 m
)
 (440.088994)  can0  462   [4]  12 00 07 00 ::
whereamiRawData(
    RawSpeed: 0.18 km/h,
    RawDistance: 7 m
)
 (440.089189)  can0  464   [8]  4B 6A AF 02 21 05 75 00 ::
whereamiCoords(
    Latitude: 45.050443 °,
    Longitude: 7.6690249999999995 °
)
 (441.004780)  can0  460   [4]  0C 00 07 00 ::
whereamiData(
    Speed: 0.12 km/h,
    Distance: 7 m
)
 (441.004992)  can0  462   [4]  12 00 07 00 ::
whereamiRawData(
    RawSpeed: 0.18 km/h,
    RawDistance: 7 m
)
 (441.005181)  can0  464   [8]  4B 6A AF 02 21 05 75 00 ::
whereamiCoords(
    Latitude: 45.050443 °,
    Longitude: 7.6690249999999995 °
)
 (442.017307)  can0  460   [4]  1B 00 07 00 ::
whereamiData(
    Speed: 0.27 km/h,
    Distance: 7 m
)
 (442.017528)  can0  462   [4]  25 00 07 00 ::
whereamiRawData(
    RawSpeed: 0.37 km/h,
    RawDistance: 7 m
)
 (442.017733)  can0  464   [8]  4B 6A AF 02 21 05 75 00 ::
whereamiCoords(
    Latitude: 45.050443 °,
    Longitude: 7.6690249999999995 °
)
 (443.038798)  can0  460   [4]  0D 00 07 00 ::
whereamiData(
    Speed: 0.13 km/h,
    Distance: 7 m
)
 (443.039013)  can0  462   [4]  12 00 07 00 ::
whereamiRawData(
    RawSpeed: 0.18 km/h,
    RawDistance: 7 m
)
 (443.039215)  can0  464   [8]  4B 6A AF 02 21 05 75 00 ::
whereamiCoords(
    Latitude: 45.050443 °,
    Longitude: 7.6690249999999995 °
)
 (444.054818)  can0  460   [4]  0E 00 07 00 ::
whereamiData(
    Speed: 0.14 km/h,
    Distance: 7 m
)
 (444.055041)  can0  462   [4]  12 00 07 00 ::
whereamiRawData(
    RawSpeed: 0.18 km/h,
    RawDistance: 7 m
)
 (444.055242)  can0  464   [8]  4B 6A AF 02 21 05 75 00 ::
whereamiCoords(
    Latitude: 45.050443 °,
    Longitude: 7.6690249999999995 °
)
 (445.072669)  can0  460   [4]  0D 00 07 00 ::
whereamiData(
    Speed: 0.13 km/h,
    Distance: 7 m
)
 (445.072885)  can0  462   [4]  12 00 07 00 ::
whereamiRawData(
    RawSpeed: 0.18 km/h,
    RawDistance: 7 m
)
 (445.073082)  can0  464   [8]  4B 6A AF 02 21 05 75 00 ::
whereamiCoords(
    Latitude: 45.050443 °,
    Longitude: 7.6690249999999995 °
)
 (446.088845)  can0  460   [4]  0D 00 07 00 ::
whereamiData(
    Speed: 0.13 km/h,
    Distance: 7 m
)
 (446.089074)  can0  462   [4]  12 00 07 00 ::
whereamiRawData(
    RawSpeed: 0.18 km/h,
    RawDistance: 7 m
)
 (446.089281)  can0  464   [8]  4B 6A AF 02 21 05 75 00 ::
whereamiCoords(
    Latitude: 45.050443 °,
    Longitude: 7.6690249999999995 °
)
 (447.009495)  can0  460   [4]  0D 00 07 00 ::
whereamiData(
    Speed: 0.13 km/h,
    Distance: 7 m
)
 (447.009720)  can0  462   [4]  12 00 07 00 ::
whereamiRawData(
    RawSpeed: 0.18 km/h,
    RawDistance: 7 m
)
 (447.009914)  can0  464   [8]  4B 6A AF 02 21 05 75 00 ::
whereamiCoords(
    Latitude: 45.050443 °,
    Longitude: 7.6690249999999995 °
)
 (448.028898)  can0  460   [4]  0D 00 07 00 ::
whereamiData(
    Speed: 0.13 km/h,
    Distance: 7 m
)
 (448.029154)  can0  462   [4]  12 00 07 00 ::
whereamiRawData(
    RawSpeed: 0.18 km/h,
    RawDistance: 7 m
)
 (448.029540)  can0  464   [8]  4B 6A AF 02 22 05 75 00 ::
whereamiCoords(
    Latitude: 45.050443 °,
    Longitude: 7.669026 °
)
 (449.048809)  can0  460   [4]  00 00 07 00 ::
whereamiData(
    Speed: 0.0 km/h,
    Distance: 7 m
)
 (449.049025)  can0  462   [4]  00 00 07 00 ::
whereamiRawData(
    RawSpeed: 0.0 km/h,
    RawDistance: 7 m
)
 (449.049218)  can0  464   [8]  4C 6A AF 02 22 05 75 00 ::
whereamiCoords(
    Latitude: 45.050444 °,
    Longitude: 7.669026 °
)
 (450.066746)  can0  460   [4]  0D 00 08 00 ::
whereamiData(
    Speed: 0.13 km/h,
    Distance: 8 m
)
 (450.066961)  can0  462   [4]  12 00 08 00 ::
whereamiRawData(
    RawSpeed: 0.18 km/h,
    RawDistance: 8 m
)
 (450.067161)  can0  464   [8]  4C 6A AF 02 22 05 75 00 ::
whereamiCoords(
    Latitude: 45.050444 °,
    Longitude: 7.669026 °
)
 (451.078937)  can0  460   [4]  0C 00 08 00 ::
whereamiData(
    Speed: 0.12 km/h,
    Distance: 8 m
)
 (451.079162)  can0  462   [4]  12 00 08 00 ::
whereamiRawData(
    RawSpeed: 0.18 km/h,
    RawDistance: 8 m
)
 (451.079356)  can0  464   [8]  4C 6A AF 02 22 05 75 00 ::
whereamiCoords(
    Latitude: 45.050444 °,
    Longitude: 7.669026 °
)
 (452.092786)  can0  460   [4]  0C 00 08 00 ::
whereamiData(
    Speed: 0.12 km/h,
    Distance: 8 m
)
 (452.093005)  can0  462   [4]  12 00 08 00 ::
whereamiRawData(
    RawSpeed: 0.18 km/h,
    RawDistance: 8 m
)
 (452.093204)  can0  464   [8]  4C 6A AF 02 22 05 75 00 ::
whereamiCoords(
    Latitude: 45.050444 °,
    Longitude: 7.669026 °
)
 (453.006778)  can0  460   [4]  00 00 08 00 ::
whereamiData(
    Speed: 0.0 km/h,
    Distance: 8 m
)
 (453.006999)  can0  462   [4]  00 00 08 00 ::
whereamiRawData(
    RawSpeed: 0.0 km/h,
    RawDistance: 8 m
)
 (453.007205)  can0  464   [8]  4C 6A AF 02 22 05 75 00 ::
whereamiCoords(
    Latitude: 45.050444 °,
    Longitude: 7.669026 °
)
 (454.026710)  can0  460   [4]  00 00 08 00 ::
whereamiData(
    Speed: 0.0 km/h,
    Distance: 8 m
)
 (454.026923)  can0  462   [4]  00 00 08 00 ::
whereamiRawData(
    RawSpeed: 0.0 km/h,
    RawDistance: 8 m
)
 (454.027115)  can0  464   [8]  4C 6A AF 02 22 05 75 00 ::
whereamiCoords(
    Latitude: 45.050444 °,
    Longitude: 7.669026 °
)
 (455.040994)  can0  460   [4]  05 00 08 00 ::
whereamiData(
    Speed: 0.05 km/h,
    Distance: 8 m
)
 (455.041215)  can0  462   [4]  12 00 08 00 ::
whereamiRawData(
    RawSpeed: 0.18 km/h,
    RawDistance: 8 m
)
 (455.041408)  can0  464   [8]  4C 6A AF 02 22 05 75 00 ::
whereamiCoords(
    Latitude: 45.050444 °,
    Longitude: 7.669026 °
)
 (456.056732)  can0  460   [4]  00 00 08 00 ::
whereamiData(
    Speed: 0.0 km/h,
    Distance: 8 m
)
 (456.056943)  can0  462   [4]  00 00 08 00 ::
whereamiRawData(
    RawSpeed: 0.0 km/h,
    RawDistance: 8 m
)
 (456.057133)  can0  464   [8]  4C 6A AF 02 22 05 75 00 ::
whereamiCoords(
    Latitude: 45.050444 °,
    Longitude: 7.669026 °
)
 (457.068742)  can0  460   [4]  00 00 08 00 ::
whereamiData(
    Speed: 0.0 km/h,
    Distance: 8 m
)
 (457.068952)  can0  462   [4]  00 00 08 00 ::
whereamiRawData(
    RawSpeed: 0.0 km/h,
    RawDistance: 8 m
)
 (457.069150)  can0  464   [8]  4C 6A AF 02 23 05 75 00 ::
whereamiCoords(
    Latitude: 45.050444 °,
    Longitude: 7.669027 °
)
 (458.086768)  can0  460   [4]  00 00 08 00 ::
whereamiData(
    Speed: 0.0 km/h,
    Distance: 8 m
)
 (458.086986)  can0  462   [4]  00 00 08 00 ::
whereamiRawData(
    RawSpeed: 0.0 km/h,
    RawDistance: 8 m
)
 (458.087180)  can0  464   [8]  4C 6A AF 02 23 05 75 00 ::
whereamiCoords(
    Latitude: 45.050444 °,
    Longitude: 7.669027 °
)
 (459.100797)  can0  460   [4]  00 00 08 00 ::
whereamiData(
    Speed: 0.0 km/h,
    Distance: 8 m
)
 (459.101014)  can0  462   [4]  00 00 08 00 ::
whereamiRawData(
    RawSpeed: 0.0 km/h,
    RawDistance: 8 m
)
 (459.101211)  can0  464   [8]  4C 6A AF 02 23 05 75 00 ::
whereamiCoords(
    Latitude: 45.050444 °,
    Longitude: 7.669027 °
)
 (460.018813)  can0  460   [4]  00 00 08 00 ::
whereamiData(
    Speed: 0.0 km/h,
    Distance: 8 m
)
 (460.019035)  can0  462   [4]  00 00 08 00 ::
whereamiRawData(
    RawSpeed: 0.0 km/h,
    RawDistance: 8 m
)
 (460.019234)  can0  464   [8]  4C 6A AF 02 23 05 75 00 ::
whereamiCoords(
    Latitude: 45.050444 °,
    Longitude: 7.669027 °
)
 (461.034815)  can0  460   [4]  00 00 08 00 ::
whereamiData(
    Speed: 0.0 km/h,
    Distance: 8 m
)
 (461.035035)  can0  462   [4]  00 00 08 00 ::
whereamiRawData(
    RawSpeed: 0.0 km/h,
    RawDistance: 8 m
)
 (461.035233)  can0  464   [8]  4C 6A AF 02 23 05 75 00 ::
whereamiCoords(
    Latitude: 45.050444 °,
    Longitude: 7.669027 °
)
 (462.048824)  can0  460   [4]  00 00 08 00 ::
whereamiData(
    Speed: 0.0 km/h,
    Distance: 8 m
)
 (462.049041)  can0  462   [4]  00 00 08 00 ::
whereamiRawData(
    RawSpeed: 0.0 km/h,
    RawDistance: 8 m
)
 (462.049241)  can0  464   [8]  4C 6A AF 02 22 05 75 00 ::
whereamiCoords(
    Latitude: 45.050444 °,
    Longitude: 7.669026 °
)
 (463.064843)  can0  460   [4]  09 00 08 00 ::
whereamiData(
    Speed: 0.09 km/h,
    Distance: 8 m
)
 (463.065060)  can0  462   [4]  12 00 08 00 ::
whereamiRawData(
    RawSpeed: 0.18 km/h,
    RawDistance: 8 m
)
 (463.065262)  can0  464   [8]  4C 6A AF 02 22 05 75 00 ::
whereamiCoords(
    Latitude: 45.050444 °,
    Longitude: 7.669026 °
)
 (464.080858)  can0  460   [4]  00 00 08 00 ::
whereamiData(
    Speed: 0.0 km/h,
    Distance: 8 m
)
 (464.081073)  can0  462   [4]  00 00 08 00 ::
whereamiRawData(
    RawSpeed: 0.0 km/h,
    RawDistance: 8 m
)
 (464.081275)  can0  464   [8]  4C 6A AF 02 22 05 75 00 ::
whereamiCoords(
    Latitude: 45.050444 °,
    Longitude: 7.669026 °
)
 (465.095156)  can0  460   [4]  09 00 08 00 ::
whereamiData(
    Speed: 0.09 km/h,
    Distance: 8 m
)
 (465.095388)  can0  462   [4]  12 00 08 00 ::
whereamiRawData(
    RawSpeed: 0.18 km/h,
    RawDistance: 8 m
)
 (465.095597)  can0  464   [8]  4C 6A AF 02 22 05 75 00 ::
whereamiCoords(
    Latitude: 45.050444 °,
    Longitude: 7.669026 °
)
 (466.009511)  can0  460   [4]  00 00 08 00 ::
whereamiData(
    Speed: 0.0 km/h,
    Distance: 8 m
)
 (466.009733)  can0  462   [4]  00 00 08 00 ::
whereamiRawData(
    RawSpeed: 0.0 km/h,
    RawDistance: 8 m
)
 (466.009925)  can0  464   [8]  4C 6A AF 02 22 05 75 00 ::
whereamiCoords(
    Latitude: 45.050444 °,
    Longitude: 7.669026 °
)
 (467.022913)  can0  460   [4]  00 00 08 00 ::
whereamiData(
    Speed: 0.0 km/h,
    Distance: 8 m
)
 (467.023148)  can0  462   [4]  00 00 08 00 ::
whereamiRawData(
    RawSpeed: 0.0 km/h,
    RawDistance: 8 m
)
 (467.023340)  can0  464   [8]  4C 6A AF 02 22 05 75 00 ::
whereamiCoords(
    Latitude: 45.050444 °,
    Longitude: 7.669026 °
)
 (468.036939)  can0  460   [4]  00 00 08 00 ::
whereamiData(
    Speed: 0.0 km/h,
    Distance: 8 m
)
 (468.037167)  can0  462   [4]  00 00 08 00 ::
whereamiRawData(
    RawSpeed: 0.0 km/h,
    RawDistance: 8 m
)
 (468.037371)  can0  464   [8]  4C 6A AF 02 23 05 75 00 ::
whereamiCoords(
    Latitude: 45.050444 °,
    Longitude: 7.669027 °
)
 (469.051057)  can0  460   [4]  0A 00 08 00 ::
whereamiData(
    Speed: 0.1 km/h,
    Distance: 8 m
)
 (469.051289)  can0  462   [4]  12 00 08 00 ::
whereamiRawData(
    RawSpeed: 0.18 km/h,
    RawDistance: 8 m
)
 (469.051481)  can0  464   [8]  4C 6A AF 02 22 05 75 00 ::
whereamiCoords(
    Latitude: 45.050444 °,
    Longitude: 7.669026 °
)
 (470.063234)  can0  460   [4]  09 00 08 00 ::
whereamiData(
    Speed: 0.09 km/h,
    Distance: 8 m
)
 (470.063451)  can0  462   [4]  12 00 08 00 ::
whereamiRawData(
    RawSpeed: 0.18 km/h,
    RawDistance: 8 m
)
 (470.063646)  can0  464   [8]  4C 6A AF 02 22 05 75 00 ::
whereamiCoords(
    Latitude: 45.050444 °,
    Longitude: 7.669026 °
)
 (471.073265)  can0  460   [4]  09 00 08 00 ::
whereamiData(
    Speed: 0.09 km/h,
    Distance: 8 m
)
 (471.073495)  can0  462   [4]  12 00 08 00 ::
whereamiRawData(
    RawSpeed: 0.18 km/h,
    RawDistance: 8 m
)
 (471.073690)  can0  464   [8]  4C 6A AF 02 22 05 75 00 ::
whereamiCoords(
    Latitude: 45.050444 °,
    Longitude: 7.669026 °
)
 (472.091091)  can0  460   [4]  00 00 08 00 ::
whereamiData(
    Speed: 0.0 km/h,
    Distance: 8 m
)
 (472.091309)  can0  462   [4]  00 00 08 00 ::
whereamiRawData(
    RawSpeed: 0.0 km/h,
    RawDistance: 8 m
)
 (472.091502)  can0  464   [8]  4C 6A AF 02 22 05 75 00 ::
whereamiCoords(
    Latitude: 45.050444 °,
    Longitude: 7.669026 °
)
 (473.005890)  can0  460   [4]  0A 00 08 00 ::
whereamiData(
    Speed: 0.1 km/h,
    Distance: 8 m
)
 (473.006112)  can0  462   [4]  12 00 08 00 ::
whereamiRawData(
    RawSpeed: 0.18 km/h,
    RawDistance: 8 m
)
 (473.006313)  can0  464   [8]  4C 6A AF 02 22 05 75 00 ::
whereamiCoords(
    Latitude: 45.050444 °,
    Longitude: 7.669026 °
)
 (474.019282)  can0  460   [4]  09 00 08 00 ::
whereamiData(
    Speed: 0.09 km/h,
    Distance: 8 m
)
 (474.019495)  can0  462   [4]  12 00 08 00 ::
whereamiRawData(
    RawSpeed: 0.18 km/h,
    RawDistance: 8 m
)
 (474.019685)  can0  464   [8]  4C 6A AF 02 22 05 75 00 ::
whereamiCoords(
    Latitude: 45.050444 °,
    Longitude: 7.669026 °
)
 (475.041051)  can0  460   [4]  0A 00 07 00 ::
whereamiData(
    Speed: 0.1 km/h,
    Distance: 7 m
)
 (475.041263)  can0  462   [4]  12 00 07 00 ::
whereamiRawData(
    RawSpeed: 0.18 km/h,
    RawDistance: 7 m
)
 (475.041463)  can0  464   [8]  4C 6A AF 02 22 05 75 00 ::
whereamiCoords(
    Latitude: 45.050444 °,
    Longitude: 7.669026 °
)
 (476.061049)  can0  460   [4]  00 00 07 00 ::
whereamiData(
    Speed: 0.0 km/h,
    Distance: 7 m
)
 (476.061266)  can0  462   [4]  00 00 07 00 ::
whereamiRawData(
    RawSpeed: 0.0 km/h,
    RawDistance: 7 m
)
 (476.061462)  can0  464   [8]  4C 6A AF 02 22 05 75 00 ::
whereamiCoords(
    Latitude: 45.050444 °,
    Longitude: 7.669026 °
)
 (477.077161)  can0  460   [4]  1B 00 07 00 ::
whereamiData(
    Speed: 0.27 km/h,
    Distance: 7 m
)
 (477.077377)  can0  462   [4]  37 00 07 00 ::
whereamiRawData(
    RawSpeed: 0.55 km/h,
    RawDistance: 7 m
)
 (477.077576)  can0  464   [8]  4B 6A AF 02 21 05 75 00 ::
whereamiCoords(
    Latitude: 45.050443 °,
    Longitude: 7.6690249999999995 °
)
 (478.095620)  can0  460   [4]  12 00 07 00 ::
whereamiData(
    Speed: 0.18 km/h,
    Distance: 7 m
)
 (478.095836)  can0  462   [4]  25 00 07 00 ::
whereamiRawData(
    RawSpeed: 0.37 km/h,
    RawDistance: 7 m
)
 (478.096036)  can0  464   [8]  4B 6A AF 02 21 05 75 00 ::
whereamiCoords(
    Latitude: 45.050443 °,
    Longitude: 7.6690249999999995 °
)
 (479.011897)  can0  460   [4]  09 00 07 00 ::
whereamiData(
    Speed: 0.09 km/h,
    Distance: 7 m
)
 (479.012113)  can0  462   [4]  12 00 07 00 ::
whereamiRawData(
    RawSpeed: 0.18 km/h,
    RawDistance: 7 m
)
 (479.012305)  can0  464   [8]  4B 6A AF 02 21 05 75 00 ::
whereamiCoords(
    Latitude: 45.050443 °,
    Longitude: 7.6690249999999995 °
)
 (480.033126)  can0  460   [4]  09 00 07 00 ::
whereamiData(
    Speed: 0.09 km/h,
    Distance: 7 m
)
 (480.033342)  can0  462   [4]  12 00 07 00 ::
whereamiRawData(
    RawSpeed: 0.18 km/h,
    RawDistance: 7 m
)
 (480.033530)  can0  464   [8]  4B 6A AF 02 22 05 75 00 ::
whereamiCoords(
    Latitude: 45.050443 °,
    Longitude: 7.669026 °
)
 (481.047409)  can0  460   [4]  09 00 07 00 ::
whereamiData(
    Speed: 0.09 km/h,
    Distance: 7 m
)
 (481.047647)  can0  462   [4]  12 00 07 00 ::
whereamiRawData(
    RawSpeed: 0.18 km/h,
    RawDistance: 7 m
)
 (481.047844)  can0  464   [8]  4B 6A AF 02 22 05 75 00 ::
whereamiCoords(
    Latitude: 45.050443 °,
    Longitude: 7.669026 °
)
