 (000.000000)  can0  421   [2]  00 00 ::
GretaData(
    TelekBattery: 0 %,
    RxShifting: 0
)
 (000.070884)  can0  421   [2]  00 00 ::
GretaData(
    TelekBattery: 0 %,
    RxShifting: 0
)
 (000.141770)  can0  421   [2]  00 00 ::
GretaData(
    TelekBattery: 0 %,
    RxShifting: 0
)
 (000.212605)  can0  421   [2]  00 00 ::
GretaData(
    TelekBattery: 0 %,
    RxShifting: 0
)
 (000.283469)  can0  421   [2]  00 00 ::
GretaData(
    TelekBattery: 0 %,
    RxShifting: 0
)
 (000.354337)  can0  421   [2]  00 00 ::
GretaData(
    TelekBattery: 0 %,
    RxShifting: 0
)
 (000.425203)  can0  421   [2]  00 00 ::
GretaData(
    TelekBattery: 0 %,
    RxShifting: 0
)
 (000.496069)  can0  421   [2]  00 00 ::
GretaData(
    TelekBattery: 0 %,
    RxShifting: 0
)
 (000.566946)  can0  421   [2]  00 00 ::
GretaData(
    TelekBattery: 0 %,
    RxShifting: 0
)
 (000.637807)  can0  421   [2]  00 00 ::
GretaData(
    TelekBattery: 0 %,
    RxShifting: 0
)
 (000.708658)  can0  421   [2]  00 00 ::
GretaData(
    TelekBattery: 0 %,
    RxShifting: 0
)
 (000.779526)  can0  421   [2]  00 00 ::
GretaData(
    TelekBattery: 0 %,
    RxShifting: 0
)
 (000.850407)  can0  421   [2]  00 00 ::
GretaData(
    TelekBattery: 0 %,
    RxShifting: 0
)
 (000.910938)  can0  422   [1]  00 ::
GbData(
    GbGear: 0
)
 (000.921253)  can0  421   [2]  00 00 ::
GretaData(
    TelekBattery: 0 %,
    RxShifting: 0
)
 (000.992118)  can0  421   [2]  00 00 ::
GretaData(
    TelekBattery: 0 %,
    RxShifting: 0
)
 (001.062991)  can0  421   [2]  00 00 ::
GretaData(
    TelekBattery: 0 %,
    RxShifting: 0
)
 (001.133840)  can0  421   [2]  00 00 ::
GretaData(
    TelekBattery: 0 %,
    RxShifting: 0
)
 (001.204709)  can0  421   [2]  00 00 ::
GretaData(
    TelekBattery: 0 %,
    RxShifting: 0
)
 (001.275570)  can0  421   [2]  00 00 ::
GretaData(
    TelekBattery: 0 %,
    RxShifting: 0
)
 (001.346427)  can0  421   [2]  00 00 ::
GretaData(
    TelekBattery: 0 %,
    RxShifting: 0
)
 (001.417281)  can0  421   [2]  00 00 ::
GretaData(
    TelekBattery: 0 %,
    RxShifting: 0
)
 (001.488135)  can0  421   [2]  00 00 ::
GretaData(
    TelekBattery: 0 %,
    RxShifting: 0
)
 (001.558984)  can0  421   [2]  00 00 ::
GretaData(
    TelekBattery: 0 %,
    RxShifting: 0
)
 (001.629837)  can0  421   [2]  00 00 ::
GretaData(
    TelekBattery: 0 %,
    RxShifting: 0
)
 (001.700699)  can0  421   [2]  00 00 ::
GretaData(
    TelekBattery: 0 %,
    RxShifting: 0
)
 (001.771566)  can0  421   [2]  00 00 ::
GretaData(
    TelekBattery: 0 %,
    RxShifting: 0
)
 (001.842408)  can0  421   [2]  00 00 ::
GretaData(
    TelekBattery: 0 %,
    RxShifting: 0
)
 (001.910936)  can0  422   [1]  00 ::
GbData(
    GbGear: 0
)
 (001.913255)  can0  421   [2]  00 00 ::
GretaData(
    TelekBattery: 0 %,
    RxShifting: 0
)
 (001.984116)  can0  421   [2]  00 00 ::
GretaData(
    TelekBattery: 0 %,
    RxShifting: 0
)
 (002.054978)  can0  421   [2]  00 00 ::
GretaData(
    TelekBattery: 0 %,
    RxShifting: 0
)
 (002.125836)  can0  421   [2]  00 00 ::
GretaData(
    TelekBattery: 0 %,
    RxShifting: 0
)
 (002.196696)  can0  421   [2]  00 00 ::
GretaData(
    TelekBattery: 0 %,
    RxShifting: 0
)
 (002.267562)  can0  421   [2]  00 00 ::
GretaData(
    TelekBattery: 0 %,
    RxShifting: 0
)
 (002.338419)  can0  421   [2]  00 00 ::
GretaData(
    TelekBattery: 0 %,
    RxShifting: 0
)
 (002.409276)  can0  421   [2]  00 00 ::
GretaData(
    TelekBattery: 0 %,
    RxShifting: 0
)
 (002.480139)  can0  421   [2]  00 00 ::
GretaData(
    TelekBattery: 0 %,
    RxShifting: 0
)
 (002.550988)  can0  421   [2]  00 00 ::
GretaData(
    TelekBattery: 0 %,
    RxShifting: 0
)
 (002.621846)  can0  421   [2]  00 00 ::
GretaData(
    TelekBattery: 0 %,
    RxShifting: 0
)
 (002.692693)  can0  421   [2]  00 00 ::
GretaData(
    TelekBattery: 0 %,
    RxShifting: 0
)
 (002.763549)  can0  421   [2]  00 00 ::
GretaData(
    TelekBattery: 0 %,
    RxShifting: 0
)
 (002.834417)  can0  421   [2]  00 00 ::
GretaData(
    TelekBattery: 0 %,
    RxShifting: 0
)
 (002.905292)  can0  421   [2]  00 00 ::
GretaData(
    TelekBattery: 0 %,
    RxShifting: 0
)
 (002.910982)  can0  422   [1]  00 ::
GbData(
    GbGear: 0
)
 (002.976177)  can0  421   [2]  00 00 ::
GretaData(
    TelekBattery: 0 %,
    RxShifting: 0
)
 (003.046949)  can0  421   [2]  00 00 ::
GretaData(
    TelekBattery: 0 %,
    RxShifting: 0
)
 (003.117801)  can0  421   [2]  00 00 ::
GretaData(
    TelekBattery: 0 %,
    RxShifting: 0
)
 (003.188648)  can0  421   [2]  00 00 ::
GretaData(
    TelekBattery: 0 %,
    RxShifting: 0
)
 (003.259486)  can0  421   [2]  00 00 ::
GretaData(
    TelekBattery: 0 %,
    RxShifting: 0
)
 (003.330321)  can0  421   [2]  00 00 ::
GretaData(
    TelekBattery: 0 %,
    RxShifting: 0
)
 (003.401155)  can0  421   [2]  00 00 ::
GretaData(
    TelekBattery: 0 %,
    RxShifting: 0
)
 (003.472000)  can0  421   [2]  00 00 ::
GretaData(
    TelekBattery: 0 %,
    RxShifting: 0
)
 (003.542851)  can0  421   [2]  00 00 ::
GretaData(
    TelekBattery: 0 %,
    RxShifting: 0
)
 (003.613710)  can0  421   [2]  00 00 ::
GretaData(
    TelekBattery: 0 %,
    RxShifting: 0
)
 (003.684550)  can0  421   [2]  00 00 ::
GretaData(
    TelekBattery: 0 %,
    RxShifting: 0
)
 (003.755397)  can0  421   [2]  00 00 ::
GretaData(
    TelekBattery: 0 %,
    RxShifting: 0
)
 (003.826235)  can0  421   [2]  00 00 ::
GretaData(
    TelekBattery: 0 %,
    RxShifting: 0
)
 (003.897060)  can0  421   [2]  00 00 ::
GretaData(
    TelekBattery: 0 %,
    RxShifting: 0
)
 (003.910977)  can0  422   [1]  00 ::
GbData(
    GbGear: 0
)
 (003.967909)  can0  421   [2]  00 00 ::
GretaData(
    TelekBattery: 0 %,
    RxShifting: 0
)
 (004.038777)  can0  421   [2]  00 00 ::
GretaData(
    TelekBattery: 0 %,
    RxShifting: 0
)
 (004.109600)  can0  421   [2]  00 00 ::
GretaData(
    TelekBattery: 0 %,
    RxShifting: 0
)
 (004.180455)  can0  421   [2]  00 00 ::
GretaData(
    TelekBattery: 0 %,
    RxShifting: 0
)
 (004.251278)  can0  421   [2]  00 00 ::
GretaData(
    TelekBattery: 0 %,
    RxShifting: 0
)
 (004.322113)  can0  421   [2]  00 00 ::
GretaData(
    TelekBattery: 0 %,
    RxShifting: 0
)
 (004.392954)  can0  421   [2]  00 00 ::
GretaData(
    TelekBattery: 0 %,
    RxShifting: 0
)
 (004.463824)  can0  421   [2]  00 00 ::
GretaData(
    TelekBattery: 0 %,
    RxShifting: 0
)
 (004.534685)  can0  421   [2]  00 00 ::
GretaData(
    TelekBattery: 0 %,
    RxShifting: 0
)
 (004.605600)  can0  421   [2]  00 00 ::
GretaData(
    TelekBattery: 0 %,
    RxShifting: 0
)
 (004.676387)  can0  421   [2]  00 00 ::
GretaData(
    TelekBattery: 0 %,
    RxShifting: 0
)
 (004.747271)  can0  421   [2]  00 00 ::
GretaData(
    TelekBattery: 0 %,
    RxShifting: 0
)
 (004.818033)  can0  421   [2]  00 00 ::
GretaData(
    TelekBattery: 0 %,
    RxShifting: 0
)
 (004.888866)  can0  421   [2]  00 00 ::
GretaData(
    TelekBattery: 0 %,
    RxShifting: 0
)
 (004.910954)  can0  422   [1]  00 ::
GbData(
    GbGear: 0
)
 (004.959686)  can0  421   [2]  00 00 ::
GretaData(
    TelekBattery: 0 %,
    RxShifting: 0
)
 (005.030519)  can0  421   [2]  00 00 ::
GretaData(
    TelekBattery: 0 %,
    RxShifting: 0
)
 (005.101381)  can0  421   [2]  00 00 ::
GretaData(
    TelekBattery: 0 %,
    RxShifting: 0
)
 (005.172224)  can0  421   [2]  00 00 ::
GretaData(
    TelekBattery: 0 %,
    RxShifting: 0
)
 (005.243075)  can0  421   [2]  00 00 ::
GretaData(
    TelekBattery: 0 %,
    RxShifting: 0
)
 (005.313952)  can0  421   [2]  00 00 ::
GretaData(
    TelekBattery: 0 %,
    RxShifting: 0
)
 (005.384765)  can0  421   [2]  00 00 ::
GretaData(
    TelekBattery: 0 %,
    RxShifting: 0
)
 (005.455625)  can0  421   [2]  00 00 ::
GretaData(
    TelekBattery: 0 %,
    RxShifting: 0
)
 (005.526461)  can0  421   [2]  00 00 ::
GretaData(
    TelekBattery: 0 %,
    RxShifting: 0
)
 (005.597312)  can0  421   [2]  00 00 ::
GretaData(
    TelekBattery: 0 %,
    RxShifting: 0
)
 (005.668156)  can0  421   [2]  00 00 ::
GretaData(
    TelekBattery: 0 %,
    RxShifting: 0
)
 (005.738980)  can0  421   [2]  00 00 ::
GretaData(
    TelekBattery: 0 %,
    RxShifting: 0
)
 (005.809828)  can0  421   [2]  00 00 ::
GretaData(
    TelekBattery: 0 %,
    RxShifting: 0
)
 (005.880651)  can0  421   [2]  00 00 ::
GretaData(
    TelekBattery: 0 %,
    RxShifting: 0
)
 (005.911016)  can0  422   [1]  00 ::
GbData(
    GbGear: 0
)
 (005.951512)  can0  421   [2]  00 00 ::
GretaData(
    TelekBattery: 0 %,
    RxShifting: 0
)
 (006.022353)  can0  421   [2]  00 00 ::
GretaData(
    TelekBattery: 0 %,
    RxShifting: 0
)
 (006.093183)  can0  421   [2]  00 00 ::
GretaData(
    TelekBattery: 0 %,
    RxShifting: 0
)
 (006.164008)  can0  421   [2]  00 00 ::
GretaData(
    TelekBattery: 0 %,
    RxShifting: 0
)
 (006.234913)  can0  421   [2]  00 00 ::
GretaData(
    TelekBattery: 0 %,
    RxShifting: 0
)
 (006.305700)  can0  421   [2]  00 00 ::
GretaData(
    TelekBattery: 0 %,
    RxShifting: 0
)
 (006.376539)  can0  421   [2]  00 00 ::
GretaData(
    TelekBattery: 0 %,
    RxShifting: 0
)
 (006.447327)  can0  421   [2]  00 00 ::
GretaData(
    TelekBattery: 0 %,
    RxShifting: 0
)
 (006.518162)  can0  421   [2]  00 00 ::
GretaData(
    TelekBattery: 0 %,
    RxShifting: 0
)
 (006.589005)  can0  421   [2]  00 00 ::
GretaData(
    TelekBattery: 0 %,
    RxShifting: 0
)
 (006.659822)  can0  421   [2]  00 00 ::
GretaData(
    TelekBattery: 0 %,
    RxShifting: 0
)
 (006.683519)  can0  460   [4]  00 00 E1 2F ::
whereamiData(
    Speed: 0.0 km/h,
    Distance: 12257 m
)
 (006.683712)  can0  462   [4]  00 00 E1 2F ::
whereamiRawData(
    RawSpeed: 0.0 km/h,
    RawDistance: 12257 m
)
 (006.683898)  can0  464   [8]  F8 82 AE 02 BB F5 73 00 ::
whereamiCoords(
    Latitude: 44.991223999999995 °,
    Longitude: 7.599546999999999 °
)
 (006.730672)  can0  421   [2]  00 00 ::
GretaData(
    TelekBattery: 0 %,
    RxShifting: 0
)
 (006.801538)  can0  421   [2]  00 00 ::
GretaData(
    TelekBattery: 0 %,
    RxShifting: 0
)
 (006.872364)  can0  421   [2]  00 00 ::
GretaData(
    TelekBattery: 0 %,
    RxShifting: 0
)
 (006.911044)  can0  422   [1]  00 ::
GbData(
    GbGear: 0
)
 (006.943193)  can0  421   [2]  00 00 ::
GretaData(
    TelekBattery: 0 %,
    RxShifting: 0
)
 (007.014050)  can0  421   [2]  00 00 ::
GretaData(
    TelekBattery: 0 %,
    RxShifting: 0
)
 (007.084891)  can0  421   [2]  00 00 ::
GretaData(
    TelekBattery: 0 %,
    RxShifting: 0
)
 (007.155727)  can0  421   [2]  00 00 ::
GretaData(
    TelekBattery: 0 %,
    RxShifting: 0
)
 (007.226568)  can0  421   [2]  00 00 ::
GretaData(
    TelekBattery: 0 %,
    RxShifting: 0
)
 (007.297389)  can0  421   [2]  00 00 ::
GretaData(
    TelekBattery: 0 %,
    RxShifting: 0
)
 (007.368234)  can0  421   [2]  00 00 ::
GretaData(
    TelekBattery: 0 %,
    RxShifting: 0
)
 (007.439078)  can0  421   [2]  00 00 ::
GretaData(
    TelekBattery: 0 %,
    RxShifting: 0
)
 (007.509916)  can0  421   [2]  00 00 ::
GretaData(
    TelekBattery: 0 %,
    RxShifting: 0
)
 (007.580750)  can0  421   [2]  00 00 ::
GretaData(
    TelekBattery: 0 %,
    RxShifting: 0
)
 (007.651593)  can0  421   [2]  00 00 ::
GretaData(
    TelekBattery: 0 %,
    RxShifting: 0
)
 (007.722483)  can0  421   [2]  00 00 ::
GretaData(
    TelekBattery: 0 %,
    RxShifting: 0
)
 (007.739620)  can0  460   [4]  BA 00 01 00 ::
whereamiData(
    Speed: 1.86 km/h,
    Distance: 1 m
)
 (007.739866)  can0  462   [4]  BA 00 01 00 ::
whereamiRawData(
    RawSpeed: 1.86 km/h,
    RawDistance: 1 m
)
 (007.740090)  can0  464   [8]  EC 82 AE 02 AB F5 73 00 ::
whereamiCoords(
    Latitude: 44.991212 °,
    Longitude: 7.599531 °
)
 (007.793358)  can0  421   [2]  00 00 ::
GretaData(
    TelekBattery: 0 %,
    RxShifting: 0
)
 (007.864141)  can0  421   [2]  00 00 ::
GretaData(
    TelekBattery: 0 %,
    RxShifting: 0
)
 (007.911032)  can0  422   [1]  00 ::
GbData(
    GbGear: 0
)
 (007.934933)  can0  421   [2]  00 00 ::
GretaData(
    TelekBattery: 0 %,
    RxShifting: 0
)
 (008.005775)  can0  421   [2]  00 00 ::
GretaData(
    TelekBattery: 0 %,
    RxShifting: 0
)
 (008.076631)  can0  421   [2]  00 00 ::
GretaData(
    TelekBattery: 0 %,
    RxShifting: 0
)
 (008.147469)  can0  421   [2]  00 00 ::
GretaData(
    TelekBattery: 0 %,
    RxShifting: 0
)
 (008.218301)  can0  421   [2]  00 00 ::
GretaData(
    TelekBattery: 0 %,
    RxShifting: 0
)
 (008.289177)  can0  421   [2]  00 00 ::
GretaData(
    TelekBattery: 0 %,
    RxShifting: 0
)
 (008.360023)  can0  421   [2]  00 00 ::
GretaData(
    TelekBattery: 0 %,
    RxShifting: 0
)
 (008.430868)  can0  421   [2]  00 00 ::
GretaData(
    TelekBattery: 0 %,
    RxShifting: 0
)
 (008.501707)  can0  421   [2]  00 00 ::
GretaData(
    TelekBattery: 0 %,
    RxShifting: 0
)
 (008.572553)  can0  421   [2]  00 00 ::
GretaData(
    TelekBattery: 0 %,
    RxShifting: 0
)
 (008.643431)  can0  421   [2]  00 00 ::
GretaData(
    TelekBattery: 0 %,
    RxShifting: 0
)
 (008.714262)  can0  421   [2]  00 00 ::
GretaData(
    TelekBattery: 0 %,
    RxShifting: 0
)
 (008.764135)  can0  460   [4]  0A 01 02 00 ::
whereamiData(
    Speed: 2.66 km/h,
    Distance: 2 m
)
 (008.764343)  can0  462   [4]  0A 01 02 00 ::
whereamiRawData(
    RawSpeed: 2.66 km/h,
    RawDistance: 2 m
)
 (008.764543)  can0  464   [8]  DA 82 AE 02 94 F5 73 00 ::
whereamiCoords(
    Latitude: 44.991194 °,
    Longitude: 7.599507999999999 °
)
 (008.785118)  can0  421   [2]  00 00 ::
GretaData(
    TelekBattery: 0 %,
    RxShifting: 0
)
 (008.855964)  can0  421   [2]  00 00 ::
GretaData(
    TelekBattery: 0 %,
    RxShifting: 0
)
 (008.911112)  can0  422   [1]  00 ::
GbData(
    GbGear: 0
)
 (008.926793)  can0  421   [2]  00 00 ::
GretaData(
    TelekBattery: 0 %,
    RxShifting: 0
)
 (008.997642)  can0  421   [2]  00 00 ::
GretaData(
    TelekBattery: 0 %,
    RxShifting: 0
)
 (009.068507)  can0  421   [2]  00 00 ::
GretaData(
    TelekBattery: 0 %,
    RxShifting: 0
)
 (009.139335)  can0  421   [2]  00 00 ::
GretaData(
    TelekBattery: 0 %,
    RxShifting: 0
)
 (009.210205)  can0  421   [2]  00 00 ::
GretaData(
    TelekBattery: 0 %,
    RxShifting: 0
)
 (009.281016)  can0  421   [2]  00 00 ::
GretaData(
    TelekBattery: 0 %,
    RxShifting: 0
)
 (009.351920)  can0  421   [2]  00 00 ::
GretaData(
    TelekBattery: 0 %,
    RxShifting: 0
)
 (009.422752)  can0  421   [2]  00 00 ::
GretaData(
    TelekBattery: 0 %,
    RxShifting: 0
)
 (009.493520)  can0  421   [2]  00 00 ::
GretaData(
    TelekBattery: 0 %,
    RxShifting: 0
)
 (009.564351)  can0  421   [2]  00 00 ::
GretaData(
    TelekBattery: 0 %,
    RxShifting: 0
)
 (009.635184)  can0  421   [2]  00 00 ::
GretaData(
    TelekBattery: 0 %,
    RxShifting: 0
)
 (009.688836)  can0  460   [4]  5E 01 03 00 ::
whereamiData(
    Speed: 3.5 km/h,
    Distance: 3 m
)
 (009.689030)  can0  462   [4]  5E 01 03 00 ::
whereamiRawData(
    RawSpeed: 3.5 km/h,
    RawDistance: 3 m
)
 (009.689225)  can0  464   [8]  C0 82 AE 02 7B F5 73 00 ::
whereamiCoords(
    Latitude: 44.991167999999995 °,
    Longitude: 7.599482999999999 °
)
 (009.706019)  can0  421   [2]  00 00 ::
GretaData(
    TelekBattery: 0 %,
    RxShifting: 0
)
 (009.776878)  can0  421   [2]  00 00 ::
GretaData(
    TelekBattery: 0 %,
    RxShifting: 0
)
 (009.847750)  can0  421   [2]  00 00 ::
GretaData(
    TelekBattery: 0 %,
    RxShifting: 0
)
 (009.911078)  can0  422   [1]  00 ::
GbData(
    GbGear: 0
)
 (009.918554)  can0  421   [2]  00 00 ::
GretaData(
    TelekBattery: 0 %,
    RxShifting: 0
)
 (009.989402)  can0  421   [2]  00 00 ::
GretaData(
    TelekBattery: 0 %,
    RxShifting: 0
)
 (010.060285)  can0  421   [2]  00 00 ::
GretaData(
    TelekBattery: 0 %,
    RxShifting: 0
)
 (010.131111)  can0  421   [2]  00 00 ::
GretaData(
    TelekBattery: 0 %,
    RxShifting: 0
)
 (010.201957)  can0  421   [2]  00 00 ::
GretaData(
    TelekBattery: 0 %,
    RxShifting: 0
)
 (010.272787)  can0  421   [2]  00 00 ::
GretaData(
    TelekBattery: 0 %,
    RxShifting: 0
)
 (010.343636)  can0  421   [2]  00 00 ::
GretaData(
    TelekBattery: 0 %,
    RxShifting: 0
)
 (010.414467)  can0  421   [2]  00 00 ::
GretaData(
    TelekBattery: 0 %,
    RxShifting: 0
)
 (010.485291)  can0  421   [2]  00 00 ::
GretaData(
    TelekBattery: 0 %,
    RxShifting: 0
)
 (010.556128)  can0  421   [2]  00 00 ::
GretaData(
    TelekBattery: 0 %,
    RxShifting: 0
)
 (010.626967)  can0  421   [2]  00 00 ::
GretaData(
    TelekBattery: 0 %,
    RxShifting: 0
)
 (010.697807)  can0  421   [2]  00 00 ::
GretaData(
    TelekBattery: 0 %,
    RxShifting: 0
)
 (010.715307)  can0  460   [4]  64 01 03 00 ::
whereamiData(
    Speed: 3.56 km/h,
    Distance: 3 m
)
 (010.715541)  can0  462   [4]  64 01 03 00 ::
whereamiRawData(
    RawSpeed: 3.56 km/h,
    RawDistance: 3 m
)
 (010.715742)  can0  464   [8]  A4 82 AE 02 65 F5 73 00 ::
whereamiCoords(
    Latitude: 44.99114 °,
    Longitude: 7.599461 °
)
 (010.768639)  can0  421   [2]  00 00 ::
GretaData(
    TelekBattery: 0 %,
    RxShifting: 0
)
 (010.839494)  can0  421   [2]  00 00 ::
GretaData(
    TelekBattery: 0 %,
    RxShifting: 0
)
 (010.910395)  can0  421   [2]  00 00 ::
GretaData(
    TelekBattery: 0 %,
    RxShifting: 0
)
 (010.911096)  can0  422   [1]  00 ::
GbData(
    GbGear: 0
)
 (010.981170)  can0  421   [2]  00 00 ::
GretaData(
    TelekBattery: 0 %,
    RxShifting: 0
)
 (011.051985)  can0  421   [2]  00 00 ::
GretaData(
    TelekBattery: 0 %,
    RxShifting: 0
)
 (011.122819)  can0  421   [2]  00 00 ::
GretaData(
    TelekBattery: 0 %,
    RxShifting: 0
)
 (011.193656)  can0  421   [2]  00 00 ::
GretaData(
    TelekBattery: 0 %,
    RxShifting: 0
)
 (011.264491)  can0  421   [2]  00 00 ::
GretaData(
    TelekBattery: 0 %,
    RxShifting: 0
)
 (011.335353)  can0  421   [2]  00 00 ::
GretaData(
    TelekBattery: 0 %,
    RxShifting: 0
)
 (011.406223)  can0  421   [2]  00 00 ::
GretaData(
    TelekBattery: 0 %,
    RxShifting: 0
)
 (011.477066)  can0  421   [2]  00 00 ::
GretaData(
    TelekBattery: 0 %,
    RxShifting: 0
)
 (011.547909)  can0  421   [2]  00 00 ::
GretaData(
    TelekBattery: 0 %,
    RxShifting: 0
)
 (011.618759)  can0  421   [2]  00 00 ::
GretaData(
    TelekBattery: 0 %,
    RxShifting: 0
)
 (011.689630)  can0  421   [2]  00 00 ::
GretaData(
    TelekBattery: 0 %,
    RxShifting: 0
)
 (011.739901)  can0  460   [4]  B6 01 04 00 ::
whereamiData(
    Speed: 4.38 km/h,
    Distance: 4 m
)
 (011.740113)  can0  462   [4]  B6 01 04 00 ::
whereamiRawData(
    RawSpeed: 4.38 km/h,
    RawDistance: 4 m
)
 (011.740311)  can0  464   [8]  7E 82 AE 02 54 F5 73 00 ::
whereamiCoords(
    Latitude: 44.991102 °,
    Longitude: 7.599444 °
)
 (011.760441)  can0  421   [2]  00 00 ::
GretaData(
    TelekBattery: 0 %,
    RxShifting: 0
)
 (011.831262)  can0  421   [2]  00 00 ::
GretaData(
    TelekBattery: 0 %,
    RxShifting: 0
)
 (011.902109)  can0  421   [2]  00 00 ::
GretaData(
    TelekBattery: 0 %,
    RxShifting: 0
)
 (011.911110)  can0  422   [1]  00 ::
GbData(
    GbGear: 0
)
 (011.972962)  can0  421   [2]  00 00 ::
GretaData(
    TelekBattery: 0 %,
    RxShifting: 0
)
 (012.043796)  can0  421   [2]  00 00 ::
GretaData(
    TelekBattery: 0 %,
    RxShifting: 0
)
 (012.114652)  can0  421   [2]  00 00 ::
GretaData(
    TelekBattery: 0 %,
    RxShifting: 0
)
 (012.185488)  can0  421   [2]  00 00 ::
GretaData(
    TelekBattery: 0 %,
    RxShifting: 0
)
 (012.256343)  can0  421   [2]  00 00 ::
GretaData(
    TelekBattery: 0 %,
    RxShifting: 0
)
 (012.327184)  can0  421   [2]  00 00 ::
GretaData(
    TelekBattery: 0 %,
    RxShifting: 0
)
 (012.398061)  can0  421   [2]  00 00 ::
GretaData(
    TelekBattery: 0 %,
    RxShifting: 0
)
 (012.468932)  can0  421   [2]  00 00 ::
GretaData(
    TelekBattery: 0 %,
    RxShifting: 0
)
 (012.539785)  can0  421   [2]  00 00 ::
GretaData(
    TelekBattery: 0 %,
    RxShifting: 0
)
 (012.610541)  can0  421   [2]  00 00 ::
GretaData(
    TelekBattery: 0 %,
    RxShifting: 0
)
 (012.681375)  can0  421   [2]  00 00 ::
GretaData(
    TelekBattery: 0 %,
    RxShifting: 0
)
 (012.752221)  can0  421   [2]  00 00 ::
GretaData(
    TelekBattery: 0 %,
    RxShifting: 0
)
 (012.764479)  can0  460   [4]  BB 01 04 00 ::
whereamiData(
    Speed: 4.43 km/h,
    Distance: 4 m
)
 (012.764673)  can0  462   [4]  BB 01 04 00 ::
whereamiRawData(
    RawSpeed: 4.43 km/h,
    RawDistance: 4 m
)
 (012.764864)  can0  464   [8]  5A 82 AE 02 3D F5 73 00 ::
whereamiCoords(
    Latitude: 44.991066 °,
    Longitude: 7.5994209999999995 °
)
 (012.823071)  can0  421   [2]  00 00 ::
GretaData(
    TelekBattery: 0 %,
    RxShifting: 0
)
 (012.893900)  can0  421   [2]  00 00 ::
GretaData(
    TelekBattery: 0 %,
    RxShifting: 0
)
 (012.911083)  can0  422   [1]  00 ::
GbData(
    GbGear: 0
)
 (012.964755)  can0  421   [2]  00 00 ::
GretaData(
    TelekBattery: 0 %,
    RxShifting: 0
)
 (013.035609)  can0  421   [2]  00 00 ::
GretaData(
    TelekBattery: 0 %,
    RxShifting: 0
)
 (013.106431)  can0  421   [2]  00 00 ::
GretaData(
    TelekBattery: 0 %,
    RxShifting: 0
)
 (013.177327)  can0  421   [2]  00 00 ::
GretaData(
    TelekBattery: 0 %,
    RxShifting: 0
)
 (013.248116)  can0  421   [2]  00 00 ::
GretaData(
    TelekBattery: 0 %,
    RxShifting: 0
)
 (013.318964)  can0  421   [2]  00 00 ::
GretaData(
    TelekBattery: 0 %,
    RxShifting: 0
)
 (013.389814)  can0  421   [2]  00 00 ::
GretaData(
    TelekBattery: 0 %,
    RxShifting: 0
)
 (013.460632)  can0  421   [2]  00 00 ::
GretaData(
    TelekBattery: 0 %,
    RxShifting: 0
)
 (013.531490)  can0  421   [2]  00 00 ::
GretaData(
    TelekBattery: 0 %,
    RxShifting: 0
)
 (013.602323)  can0  421   [2]  00 00 ::
GretaData(
    TelekBattery: 0 %,
    RxShifting: 0
)
 (013.673163)  can0  421   [2]  00 00 ::
GretaData(
    TelekBattery: 0 %,
    RxShifting: 0
)
 (013.689839)  can0  460   [4]  BD 01 04 00 ::
whereamiData(
    Speed: 4.45 km/h,
    Distance: 4 m
)
 (013.690068)  can0  462   [4]  BD 01 04 00 ::
whereamiRawData(
    RawSpeed: 4.45 km/h,
    RawDistance: 4 m
)
 (013.690276)  can0  464   [8]  36 82 AE 02 26 F5 73 00 ::
whereamiCoords(
    Latitude: 44.991029999999995 °,
    Longitude: 7.599398 °
)
 (013.744018)  can0  421   [2]  00 00 ::
GretaData(
    TelekBattery: 0 %,
    RxShifting: 0
)
 (013.814855)  can0  421   [2]  00 00 ::
GretaData(
    TelekBattery: 0 %,
    RxShifting: 0
)
 (013.885697)  can0  421   [2]  00 00 ::
GretaData(
    TelekBattery: 0 %,
    RxShifting: 0
)
 (013.911150)  can0  422   [1]  00 ::
GbData(
    GbGear: 0
)
 (013.956543)  can0  421   [2]  00 00 ::
GretaData(
    TelekBattery: 0 %,
    RxShifting: 0
)
 (014.027453)  can0  421   [2]  00 00 ::
GretaData(
    TelekBattery: 0 %,
    RxShifting: 0
)
 (014.098350)  can0  421   [2]  00 00 ::
GretaData(
    TelekBattery: 0 %,
    RxShifting: 0
)
 (014.169056)  can0  421   [2]  00 00 ::
GretaData(
    TelekBattery: 0 %,
    RxShifting: 0
)
 (014.239896)  can0  421   [2]  00 00 ::
GretaData(
    TelekBattery: 0 %,
    RxShifting: 0
)
 (014.310761)  can0  421   [2]  00 00 ::
GretaData(
    TelekBattery: 0 %,
    RxShifting: 0
)
 (014.381579)  can0  421   [2]  00 00 ::
GretaData(
    TelekBattery: 0 %,
    RxShifting: 0
)
 (014.452419)  can0  421   [2]  00 00 ::
GretaData(
    TelekBattery: 0 %,
    RxShifting: 0
)
 (014.523278)  can0  421   [2]  00 00 ::
GretaData(
    TelekBattery: 0 %,
    RxShifting: 0
)
 (014.594148)  can0  421   [2]  00 00 ::
GretaData(
    TelekBattery: 0 %,
    RxShifting: 0
)
 (014.664977)  can0  421   [2]  00 00 ::
GretaData(
    TelekBattery: 0 %,
    RxShifting: 0
)
 (014.718994)  can0  460   [4]  B3 01 04 00 ::
whereamiData(
    Speed: 4.3500000000000005 km/h,
    Distance: 4 m
)
 (014.719227)  can0  462   [4]  B3 01 04 00 ::
whereamiRawData(
    RawSpeed: 4.3500000000000005 km/h,
    RawDistance: 4 m
)
 (014.719432)  can0  464   [8]  1C 82 AE 02 FC F4 73 00 ::
whereamiCoords(
    Latitude: 44.991004 °,
    Longitude: 7.599355999999999 °
)
 (014.735836)  can0  421   [2]  00 00 ::
GretaData(
    TelekBattery: 0 %,
    RxShifting: 0
)
 (014.806690)  can0  421   [2]  00 00 ::
GretaData(
    TelekBattery: 0 %,
    RxShifting: 0
)
 (014.877519)  can0  421   [2]  00 00 ::
GretaData(
    TelekBattery: 0 %,
    RxShifting: 0
)
 (014.911166)  can0  422   [1]  00 ::
GbData(
    GbGear: 0
)
 (014.948354)  can0  421   [2]  00 00 ::
GretaData(
    TelekBattery: 0 %,
    RxShifting: 0
)
 (015.019205)  can0  421   [2]  00 00 ::
GretaData(
    TelekBattery: 0 %,
    RxShifting: 0
)
 (015.090032)  can0  421   [2]  00 00 ::
GretaData(
    TelekBattery: 0 %,
    RxShifting: 0
)
 (015.160855)  can0  421   [2]  00 00 ::
GretaData(
    TelekBattery: 0 %,
    RxShifting: 0
)
 (015.231714)  can0  421   [2]  00 00 ::
GretaData(
    TelekBattery: 0 %,
    RxShifting: 0
)
 (015.302562)  can0  421   [2]  00 00 ::
GretaData(
    TelekBattery: 0 %,
    RxShifting: 0
)
 (015.373382)  can0  421   [2]  00 00 ::
GretaData(
    TelekBattery: 0 %,
    RxShifting: 0
)
 (015.444249)  can0  421   [2]  00 00 ::
GretaData(
    TelekBattery: 0 %,
    RxShifting: 0
)
 (015.515087)  can0  421   [2]  00 00 ::
GretaData(
    TelekBattery: 0 %,
    RxShifting: 0
)
 (015.585989)  can0  421   [2]  00 00 ::
GretaData(
    TelekBattery: 0 %,
    RxShifting: 0
)
 (015.656789)  can0  421   [2]  00 00 ::
GretaData(
    TelekBattery: 0 %,
    RxShifting: 0
)
 (015.727577)  can0  421   [2]  00 00 ::
GretaData(
    TelekBattery: 0 %,
    RxShifting: 0
)
 (015.745602)  can0  460   [4]  2A 02 05 00 ::
whereamiData(
    Speed: 5.54 km/h,
    Distance: 5 m
)
 (015.745793)  can0  462   [4]  2A 02 05 00 ::
whereamiRawData(
    RawSpeed: 5.54 km/h,
    RawDistance: 5 m
)
 (015.745981)  can0  464   [8]  EC 81 AE 02 E6 F4 73 00 ::
whereamiCoords(
    Latitude: 44.990956 °,
    Longitude: 7.599334 °
)
 (015.798417)  can0  421   [2]  00 00 ::
GretaData(
    TelekBattery: 0 %,
    RxShifting: 0
)
 (015.869250)  can0  421   [2]  00 00 ::
GretaData(
    TelekBattery: 0 %,
    RxShifting: 0
)
 (015.911153)  can0  422   [1]  00 ::
GbData(
    GbGear: 0
)
 (015.940079)  can0  421   [2]  00 00 ::
GretaData(
    TelekBattery: 0 %,
    RxShifting: 0
)
 (016.010925)  can0  421   [2]  00 00 ::
GretaData(
    TelekBattery: 0 %,
    RxShifting: 0
)
 (016.081772)  can0  421   [2]  00 00 ::
GretaData(
    TelekBattery: 0 %,
    RxShifting: 0
)
 (016.152605)  can0  421   [2]  00 00 ::
GretaData(
    TelekBattery: 0 %,
    RxShifting: 0
)
 (016.223454)  can0  421   [2]  00 00 ::
GretaData(
    TelekBattery: 0 %,
    RxShifting: 0
)
 (016.294304)  can0  421   [2]  00 00 ::
GretaData(
    TelekBattery: 0 %,
    RxShifting: 0
)
 (016.365167)  can0  421   [2]  00 00 ::
GretaData(
    TelekBattery: 0 %,
    RxShifting: 0
)
 (016.435996)  can0  421   [2]  00 00 ::
GretaData(
    TelekBattery: 0 %,
    RxShifting: 0
)
 (016.506842)  can0  421   [2]  00 00 ::
GretaData(
    TelekBattery: 0 %,
    RxShifting: 0
)
 (016.577706)  can0  421   [2]  00 00 ::
GretaData(
    TelekBattery: 0 %,
    RxShifting: 0
)
 (016.648533)  can0  421   [2]  00 00 ::
GretaData(
    TelekBattery: 0 %,
    RxShifting: 0
)
 (016.719384)  can0  421   [2]  00 00 ::
GretaData(
    TelekBattery: 0 %,
    RxShifting: 0
)
 (016.772072)  can0  460   [4]  00 02 05 00 ::
whereamiData(
    Speed: 5.12 km/h,
    Distance: 5 m
)
 (016.772264)  can0  462   [4]  00 02 05 00 ::
whereamiRawData(
    RawSpeed: 5.12 km/h,
    RawDistance: 5 m
)
 (016.772458)  can0  464   [8]  C2 81 AE 02 CE F4 73 00 ::
whereamiCoords(
    Latitude: 44.990914 °,
    Longitude: 7.59931 °
)
 (016.790250)  can0  421   [2]  00 00 ::
GretaData(
    TelekBattery: 0 %,
    RxShifting: 0
)
 (016.861117)  can0  421   [2]  00 00 ::
GretaData(
    TelekBattery: 0 %,
    RxShifting: 0
)
 (016.911145)  can0  422   [1]  00 ::
GbData(
    GbGear: 0
)
 (016.931952)  can0  421   [2]  00 00 ::
GretaData(
    TelekBattery: 0 %,
    RxShifting: 0
)
 (017.002802)  can0  421   [2]  00 00 ::
GretaData(
    TelekBattery: 0 %,
    RxShifting: 0
)
 (017.073663)  can0  421   [2]  00 00 ::
GretaData(
    TelekBattery: 0 %,
    RxShifting: 0
)
 (017.144514)  can0  421   [2]  00 00 ::
GretaData(
    TelekBattery: 0 %,
    RxShifting: 0
)
 (017.215341)  can0  421   [2]  00 00 ::
GretaData(
    TelekBattery: 0 %,
    RxShifting: 0
)
 (017.286193)  can0  421   [2]  00 00 ::
GretaData(
    TelekBattery: 0 %,
    RxShifting: 0
)
 (017.357043)  can0  421   [2]  00 00 ::
GretaData(
    TelekBattery: 0 %,
    RxShifting: 0
)
 (017.427886)  can0  421   [2]  00 00 ::
GretaData(
    TelekBattery: 0 %,
    RxShifting: 0
)
 (017.498730)  can0  421   [2]  00 00 ::
GretaData(
    TelekBattery: 0 %,
    RxShifting: 0
)
 (017.569598)  can0  421   [2]  00 00 ::
GretaData(
    TelekBattery: 0 %,
    RxShifting: 0
)
 (017.640438)  can0  421   [2]  00 00 ::
GretaData(
    TelekBattery: 0 %,
    RxShifting: 0
)
 (017.699056)  can0  460   [4]  B4 01 04 00 ::
whereamiData(
    Speed: 4.36 km/h,
    Distance: 4 m
)
 (017.699247)  can0  462   [4]  B4 01 04 00 ::
whereamiRawData(
    RawSpeed: 4.36 km/h,
    RawDistance: 4 m
)
 (017.699436)  can0  464   [8]  9E 81 AE 02 B7 F4 73 00 ::
whereamiCoords(
    Latitude: 44.990877999999995 °,
    Longitude: 7.5992869999999995 °
)
 (017.711278)  can0  421   [2]  00 00 ::
GretaData(
    TelekBattery: 0 %,
    RxShifting: 0
)
 (017.782138)  can0  421   [2]  00 00 ::
GretaData(
    TelekBattery: 0 %,
    RxShifting: 0
)
 (017.852995)  can0  421   [2]  00 00 ::
GretaData(
    TelekBattery: 0 %,
    RxShifting: 0
)
 (017.911160)  can0  422   [1]  00 ::
GbData(
    GbGear: 0
)
 (017.923827)  can0  421   [2]  00 00 ::
GretaData(
    TelekBattery: 0 %,
    RxShifting: 0
)
 (017.994673)  can0  421   [2]  00 00 ::
GretaData(
    TelekBattery: 0 %,
    RxShifting: 0
)
 (018.065540)  can0  421   [2]  00 00 ::
GretaData(
    TelekBattery: 0 %,
    RxShifting: 0
)
 (018.136365)  can0  421   [2]  00 00 ::
GretaData(
    TelekBattery: 0 %,
    RxShifting: 0
)
 (018.207205)  can0  421   [2]  00 00 ::
GretaData(
    TelekBattery: 0 %,
    RxShifting: 0
)
 (018.278046)  can0  421   [2]  00 00 ::
GretaData(
    TelekBattery: 0 %,
    RxShifting: 0
)
 (018.348902)  can0  421   [2]  00 00 ::
GretaData(
    TelekBattery: 0 %,
    RxShifting: 0
)
 (018.419724)  can0  421   [2]  00 00 ::
GretaData(
    TelekBattery: 0 %,
    RxShifting: 0
)
 (018.490593)  can0  421   [2]  00 00 ::
GretaData(
    TelekBattery: 0 %,
    RxShifting: 0
)
 (018.561435)  can0  421   [2]  00 00 ::
GretaData(
    TelekBattery: 0 %,
    RxShifting: 0
)
 (018.632271)  can0  421   [2]  00 00 ::
GretaData(
    TelekBattery: 0 %,
    RxShifting: 0
)
 (018.703103)  can0  421   [2]  00 00 ::
GretaData(
    TelekBattery: 0 %,
    RxShifting: 0
)
 (018.728124)  can0  460   [4]  6E 01 03 00 ::
whereamiData(
    Speed: 3.66 km/h,
    Distance: 3 m
)
 (018.728314)  can0  462   [4]  6E 01 03 00 ::
whereamiRawData(
    RawSpeed: 3.66 km/h,
    RawDistance: 3 m
)
 (018.728502)  can0  464   [8]  7F 81 AE 02 A6 F4 73 00 ::
whereamiCoords(
    Latitude: 44.990846999999995 °,
    Longitude: 7.59927 °
)
 (018.773939)  can0  421   [2]  00 00 ::
GretaData(
    TelekBattery: 0 %,
    RxShifting: 0
)
 (018.844801)  can0  421   [2]  00 00 ::
GretaData(
    TelekBattery: 0 %,
    RxShifting: 0
)
 (018.911176)  can0  422   [1]  00 ::
GbData(
    GbGear: 0
)
 (018.915619)  can0  421   [2]  00 00 ::
GretaData(
    TelekBattery: 0 %,
    RxShifting: 0
)
 (018.986462)  can0  421   [2]  00 00 ::
GretaData(
    TelekBattery: 0 %,
    RxShifting: 0
)
 (019.057314)  can0  421   [2]  00 00 ::
GretaData(
    TelekBattery: 0 %,
    RxShifting: 0
)
 (019.128149)  can0  421   [2]  00 00 ::
GretaData(
    TelekBattery: 0 %,
    RxShifting: 0
)
 (019.199021)  can0  421   [2]  00 00 ::
GretaData(
    TelekBattery: 0 %,
    RxShifting: 0
)
 (019.269859)  can0  421   [2]  00 00 ::
GretaData(
    TelekBattery: 0 %,
    RxShifting: 0
)
 (019.340723)  can0  421   [2]  00 00 ::
GretaData(
    TelekBattery: 0 %,
    RxShifting: 0
)
 (019.411556)  can0  421   [2]  00 00 ::
GretaData(
    TelekBattery: 0 %,
    RxShifting: 0
)
 (019.482405)  can0  421   [2]  00 00 ::
GretaData(
    TelekBattery: 0 %,
    RxShifting: 0
)
 (019.553280)  can0  421   [2]  00 00 ::
GretaData(
    TelekBattery: 0 %,
    RxShifting: 0
)
 (019.624112)  can0  421   [2]  00 00 ::
GretaData(
    TelekBattery: 0 %,
    RxShifting: 0
)
 (019.694966)  can0  421   [2]  00 00 ::
GretaData(
    TelekBattery: 0 %,
    RxShifting: 0
)
 (019.758355)  can0  460   [4]  98 00 01 00 ::
whereamiData(
    Speed: 1.52 km/h,
    Distance: 1 m
)
 (019.758550)  can0  462   [4]  98 00 01 00 ::
whereamiRawData(
    RawSpeed: 1.52 km/h,
    RawDistance: 1 m
)
 (019.758739)  can0  464   [8]  71 81 AE 02 A8 F4 73 00 ::
whereamiCoords(
    Latitude: 44.990832999999995 °,
    Longitude: 7.599272 °
)
 (019.765800)  can0  421   [2]  00 00 ::
GretaData(
    TelekBattery: 0 %,
    RxShifting: 0
)
 (019.836668)  can0  421   [2]  00 00 ::
GretaData(
    TelekBattery: 0 %,
    RxShifting: 0
)
 (019.907501)  can0  421   [2]  00 00 ::
GretaData(
    TelekBattery: 0 %,
    RxShifting: 0
)
 (019.911190)  can0  422   [1]  00 ::
GbData(
    GbGear: 0
)
 (019.978350)  can0  421   [2]  00 00 ::
GretaData(
    TelekBattery: 0 %,
    RxShifting: 0
)
 (020.049208)  can0  421   [2]  00 00 ::
GretaData(
    TelekBattery: 0 %,
    RxShifting: 0
)
 (020.120033)  can0  421   [2]  00 00 ::
GretaData(
    TelekBattery: 0 %,
    RxShifting: 0
)
 (020.190879)  can0  421   [2]  00 00 ::
GretaData(
    TelekBattery: 0 %,
    RxShifting: 0
)
 (020.261724)  can0  421   [2]  00 00 ::
GretaData(
    TelekBattery: 0 %,
    RxShifting: 0
)
 (020.332591)  can0  421   [2]  00 00 ::
GretaData(
    TelekBattery: 0 %,
    RxShifting: 0
)
 (020.403421)  can0  421   [2]  00 00 ::
GretaData(
    TelekBattery: 0 %,
    RxShifting: 0
)
 (020.474268)  can0  421   [2]  00 00 ::
GretaData(
    TelekBattery: 0 %,
    RxShifting: 0
)
 (020.545128)  can0  421   [2]  00 00 ::
GretaData(
    TelekBattery: 0 %,
    RxShifting: 0
)
 (020.615977)  can0  421   [2]  00 00 ::
GretaData(
    TelekBattery: 0 %,
    RxShifting: 0
)
 (020.686488)  can0  460   [4]  9C 00 01 00 ::
whereamiData(
    Speed: 1.56 km/h,
    Distance: 1 m
)
 (020.686704)  can0  462   [4]  9C 00 01 00 ::
whereamiRawData(
    RawSpeed: 1.56 km/h,
    RawDistance: 1 m
)
 (020.686898)  can0  464   [8]  63 81 AE 02 A6 F4 73 00 ::
whereamiCoords(
    Latitude: 44.990818999999995 °,
    Longitude: 7.59927 °
)
 (020.687088)  can0  421   [2]  00 00 ::
GretaData(
    TelekBattery: 0 %,
    RxShifting: 0
)
 (020.757675)  can0  421   [2]  00 00 ::
GretaData(
    TelekBattery: 0 %,
    RxShifting: 0
)
 (020.828507)  can0  421   [2]  00 00 ::
GretaData(
    TelekBattery: 0 %,
    RxShifting: 0
)
 (020.899328)  can0  421   [2]  00 00 ::
GretaData(
    TelekBattery: 0 %,
    RxShifting: 0
)
 (020.911205)  can0  422   [1]  00 ::
GbData(
    GbGear: 0
)
 (020.970172)  can0  421   [2]  00 00 ::
GretaData(
    TelekBattery: 0 %,
    RxShifting: 0
)
 (021.041036)  can0  421   [2]  00 00 ::
GretaData(
    TelekBattery: 0 %,
    RxShifting: 0
)
 (021.111884)  can0  421   [2]  00 00 ::
GretaData(
    TelekBattery: 0 %,
    RxShifting: 0
)
 (021.182722)  can0  421   [2]  00 00 ::
GretaData(
    TelekBattery: 0 %,
    RxShifting: 0
)
 (021.253566)  can0  421   [2]  00 00 ::
GretaData(
    TelekBattery: 0 %,
    RxShifting: 0
)
 (021.324427)  can0  421   [2]  00 00 ::
GretaData(
    TelekBattery: 0 %,
    RxShifting: 0
)
 (021.395256)  can0  421   [2]  00 00 ::
GretaData(
    TelekBattery: 0 %,
    RxShifting: 0
)
 (021.466103)  can0  421   [2]  00 00 ::
GretaData(
    TelekBattery: 0 %,
    RxShifting: 0
)
 (021.536966)  can0  421   [2]  00 00 ::
GretaData(
    TelekBattery: 0 %,
    RxShifting: 0
)
 (021.607819)  can0  421   [2]  00 00 ::
GretaData(
    TelekBattery: 0 %,
    RxShifting: 0
)
 (021.678661)  can0  421   [2]  00 00 ::
GretaData(
    TelekBattery: 0 %,
    RxShifting: 0
)
 (021.715588)  can0  460   [4]  3E 00 00 00 ::
whereamiData(
    Speed: 0.62 km/h,
    Distance: 0 m
)
 (021.715781)  can0  462   [4]  3E 00 00 00 ::
whereamiRawData(
    RawSpeed: 0.62 km/h,
    RawDistance: 0 m
)
 (021.715976)  can0  464   [8]  66 81 AE 02 AD F4 73 00 ::
whereamiCoords(
    Latitude: 44.990822 °,
    Longitude: 7.599277 °
)
 (021.749529)  can0  421   [2]  00 00 ::
GretaData(
    TelekBattery: 0 %,
    RxShifting: 0
)
 (021.820379)  can0  421   [2]  00 00 ::
GretaData(
    TelekBattery: 0 %,
    RxShifting: 0
)
 (021.891212)  can0  421   [2]  00 00 ::
GretaData(
    TelekBattery: 0 %,
    RxShifting: 0
)
 (021.911222)  can0  422   [1]  00 ::
GbData(
    GbGear: 0
)
 (021.962041)  can0  421   [2]  00 00 ::
GretaData(
    TelekBattery: 0 %,
    RxShifting: 0
)
 (022.032903)  can0  421   [2]  00 00 ::
GretaData(
    TelekBattery: 0 %,
    RxShifting: 0
)
 (022.103752)  can0  421   [2]  00 00 ::
GretaData(
    TelekBattery: 0 %,
    RxShifting: 0
)
 (022.174579)  can0  421   [2]  00 00 ::
GretaData(
    TelekBattery: 0 %,
    RxShifting: 0
)
 (022.245429)  can0  421   [2]  00 00 ::
GretaData(
    TelekBattery: 0 %,
    RxShifting: 0
)
 (022.316280)  can0  421   [2]  00 00 ::
GretaData(
    TelekBattery: 0 %,
    RxShifting: 0
)
 (022.387105)  can0  421   [2]  00 00 ::
GretaData(
    TelekBattery: 0 %,
    RxShifting: 0
)
 (022.457950)  can0  421   [2]  00 00 ::
GretaData(
    TelekBattery: 0 %,
    RxShifting: 0
)
 (022.528806)  can0  421   [2]  00 00 ::
GretaData(
    TelekBattery: 0 %,
    RxShifting: 0
)
 (022.599658)  can0  421   [2]  00 00 ::
GretaData(
    TelekBattery: 0 %,
    RxShifting: 0
)
 (022.670489)  can0  421   [2]  00 00 ::
GretaData(
    TelekBattery: 0 %,
    RxShifting: 0
)
 (022.741339)  can0  421   [2]  00 00 ::
GretaData(
    TelekBattery: 0 %,
    RxShifting: 0
)
 (022.744415)  can0  460   [4]  0D 00 00 00 ::
whereamiData(
    Speed: 0.13 km/h,
    Distance: 0 m
)
 (022.744604)  can0  462   [4]  0D 00 00 00 ::
whereamiRawData(
    RawSpeed: 0.13 km/h,
    RawDistance: 0 m
)
 (022.744791)  can0  464   [8]  66 81 AE 02 AF F4 73 00 ::
whereamiCoords(
    Latitude: 44.990822 °,
    Longitude: 7.599278999999999 °
)
 (022.812192)  can0  421   [2]  00 00 ::
GretaData(
    TelekBattery: 0 %,
    RxShifting: 0
)
 (022.883021)  can0  421   [2]  00 00 ::
GretaData(
    TelekBattery: 0 %,
    RxShifting: 0
)
 (022.911242)  can0  422   [1]  00 ::
GbData(
    GbGear: 0
)
 (022.953875)  can0  421   [2]  00 00 ::
GretaData(
    TelekBattery: 0 %,
    RxShifting: 0
)
 (023.024722)  can0  421   [2]  00 00 ::
GretaData(
    TelekBattery: 0 %,
    RxShifting: 0
)
 (023.095567)  can0  421   [2]  00 00 ::
GretaData(
    TelekBattery: 0 %,
    RxShifting: 0
)
 (023.166404)  can0  421   [2]  00 00 ::
GretaData(
    TelekBattery: 0 %,
    RxShifting: 0
)
 (023.237246)  can0  421   [2]  00 00 ::
GretaData(
    TelekBattery: 0 %,
    RxShifting: 0
)
 (023.308107)  can0  421   [2]  00 00 ::
GretaData(
    TelekBattery: 0 %,
    RxShifting: 0
)
 (023.378941)  can0  421   [2]  00 00 ::
GretaData(
    TelekBattery: 0 %,
    RxShifting: 0
)
 (023.449786)  can0  421   [2]  00 00 ::
GretaData(
    TelekBattery: 0 %,
    RxShifting: 0
)
 (023.520629)  can0  421   [2]  00 00 ::
GretaData(
    TelekBattery: 0 %,
    RxShifting: 0
)
 (023.591491)  can0  421   [2]  00 00 ::
GretaData(
    TelekBattery: 0 %,
    RxShifting: 0
)
 (023.662308)  can0  421   [2]  00 00 ::
GretaData(
    TelekBattery: 0 %,
    RxShifting: 0
)
 (023.733141)  can0  421   [2]  00 00 ::
GretaData(
    TelekBattery: 0 %,
    RxShifting: 0
)
 (023.773793)  can0  460   [4]  0D 00 00 00 ::
whereamiData(
    Speed: 0.13 km/h,
    Distance: 0 m
)
 (023.773989)  can0  462   [4]  0D 00 00 00 ::
whereamiRawData(
    RawSpeed: 0.13 km/h,
    RawDistance: 0 m
)
 (023.774177)  can0  464   [8]  67 81 AE 02 B0 F4 73 00 ::
whereamiCoords(
    Latitude: 44.990823 °,
    Longitude: 7.599279999999999 °
)
 (023.804014)  can0  421   [2]  00 00 ::
GretaData(
    TelekBattery: 0 %,
    RxShifting: 0
)
 (023.874835)  can0  421   [2]  00 00 ::
GretaData(
    TelekBattery: 0 %,
    RxShifting: 0
)
 (023.911249)  can0  422   [1]  00 ::
GbData(
    GbGear: 0
)
 (023.945665)  can0  421   [2]  00 00 ::
GretaData(
    TelekBattery: 0 %,
    RxShifting: 0
)
 (024.016512)  can0  421   [2]  00 00 ::
GretaData(
    TelekBattery: 0 %,
    RxShifting: 0
)
 (024.087366)  can0  421   [2]  00 00 ::
GretaData(
    TelekBattery: 0 %,
    RxShifting: 0
)
 (024.158194)  can0  421   [2]  00 00 ::
GretaData(
    TelekBattery: 0 %,
    RxShifting: 0
)
 (024.229039)  can0  421   [2]  00 00 ::
GretaData(
    TelekBattery: 0 %,
    RxShifting: 0
)
 (024.299902)  can0  421   [2]  00 00 ::
GretaData(
    TelekBattery: 0 %,
    RxShifting: 0
)
 (024.370721)  can0  421   [2]  00 00 ::
GretaData(
    TelekBattery: 0 %,
    RxShifting: 0
)
 (024.441548)  can0  421   [2]  00 00 ::
GretaData(
    TelekBattery: 0 %,
    RxShifting: 0
)
 (024.512386)  can0  421   [2]  00 00 ::
GretaData(
    TelekBattery: 0 %,
    RxShifting: 0
)
 (024.583252)  can0  421   [2]  00 00 ::
GretaData(
    TelekBattery: 0 %,
    RxShifting: 0
)
 (024.654088)  can0  421   [2]  00 00 ::
GretaData(
    TelekBattery: 0 %,
    RxShifting: 0
)
 (024.702198)  can0  460   [4]  AF 01 04 00 ::
whereamiData(
    Speed: 4.3100000000000005 km/h,
    Distance: 4 m
)
 (024.702410)  can0  462   [4]  AF 01 04 00 ::
whereamiRawData(
    RawSpeed: 4.3100000000000005 km/h,
    RawDistance: 4 m
)
 (024.702599)  can0  464   [8]  44 81 AE 02 C9 F4 73 00 ::
whereamiCoords(
    Latitude: 44.990787999999995 °,
    Longitude: 7.599304999999999 °
)
 (024.724946)  can0  421   [2]  00 00 ::
GretaData(
    TelekBattery: 0 %,
    RxShifting: 0
)
 (024.795815)  can0  421   [2]  00 00 ::
GretaData(
    TelekBattery: 0 %,
    RxShifting: 0
)
 (024.866656)  can0  421   [2]  00 00 ::
GretaData(
    TelekBattery: 0 %,
    RxShifting: 0
)
 (024.911274)  can0  422   [1]  00 ::
GbData(
    GbGear: 0
)
 (024.937502)  can0  421   [2]  00 00 ::
GretaData(
    TelekBattery: 0 %,
    RxShifting: 0
)
 (025.008364)  can0  421   [2]  00 00 ::
GretaData(
    TelekBattery: 0 %,
    RxShifting: 0
)
 (025.079229)  can0  421   [2]  00 00 ::
GretaData(
    TelekBattery: 0 %,
    RxShifting: 0
)
 (025.150083)  can0  421   [2]  00 00 ::
GretaData(
    TelekBattery: 0 %,
    RxShifting: 0
)
 (025.220920)  can0  421   [2]  00 00 ::
GretaData(
    TelekBattery: 0 %,
    RxShifting: 0
)
 (025.291783)  can0  421   [2]  00 00 ::
GretaData(
    TelekBattery: 0 %,
    RxShifting: 0
)
 (025.362626)  can0  421   [2]  00 00 ::
GretaData(
    TelekBattery: 0 %,
    RxShifting: 0
)
 (025.433475)  can0  421   [2]  00 00 ::
GretaData(
    TelekBattery: 0 %,
    RxShifting: 0
)
 (025.504323)  can0  421   [2]  00 00 ::
GretaData(
    TelekBattery: 0 %,
    RxShifting: 0
)
 (025.575190)  can0  421   [2]  00 00 ::
GretaData(
    TelekBattery: 0 %,
    RxShifting: 0
)
 (025.646024)  can0  421   [2]  00 00 ::
GretaData(
    TelekBattery: 0 %,
    RxShifting: 0
)
 (025.716878)  can0  421   [2]  00 00 ::
GretaData(
    TelekBattery: 0 %,
    RxShifting: 0
)
 (025.732232)  can0  460   [4]  C5 00 01 00 ::
whereamiData(
    Speed: 1.97 km/h,
    Distance: 1 m
)
 (025.732422)  can0  462   [4]  C5 00 01 00 ::
whereamiRawData(
    RawSpeed: 1.97 km/h,
    RawDistance: 1 m
)
 (025.732614)  can0  464   [8]  34 81 AE 02 D4 F4 73 00 ::
whereamiCoords(
    Latitude: 44.990772 °,
    Longitude: 7.599316 °
)
 (025.787746)  can0  421   [2]  00 00 ::
GretaData(
    TelekBattery: 0 %,
    RxShifting: 0
)
 (025.858594)  can0  421   [2]  00 00 ::
GretaData(
    TelekBattery: 0 %,
    RxShifting: 0
)
 (025.911283)  can0  422   [1]  00 ::
GbData(
    GbGear: 0
)
 (025.929420)  can0  421   [2]  00 00 ::
GretaData(
    TelekBattery: 0 %,
    RxShifting: 0
)
 (026.000278)  can0  421   [2]  00 00 ::
GretaData(
    TelekBattery: 0 %,
    RxShifting: 0
)
 (026.071147)  can0  421   [2]  00 00 ::
GretaData(
    TelekBattery: 0 %,
    RxShifting: 0
)
 (026.141972)  can0  421   [2]  00 00 ::
GretaData(
    TelekBattery: 0 %,
    RxShifting: 0
)
 (026.212812)  can0  421   [2]  00 00 ::
GretaData(
    TelekBattery: 0 %,
    RxShifting: 0
)
 (026.283666)  can0  421   [2]  00 00 ::
GretaData(
    TelekBattery: 0 %,
    RxShifting: 0
)
 (026.354500)  can0  421   [2]  00 00 ::
GretaData(
    TelekBattery: 0 %,
    RxShifting: 0
)
 (026.425332)  can0  421   [2]  00 00 ::
GretaData(
    TelekBattery: 0 %,
    RxShifting: 0
)
 (026.496173)  can0  421   [2]  00 00 ::
GretaData(
    TelekBattery: 0 %,
    RxShifting: 0
)
 (026.567037)  can0  421   [2]  00 00 ::
GretaData(
    TelekBattery: 0 %,
    RxShifting: 0
)
 (026.637857)  can0  421   [2]  00 00 ::
GretaData(
    TelekBattery: 0 %,
    RxShifting: 0
)
 (026.708698)  can0  421   [2]  00 00 ::
GretaData(
    TelekBattery: 0 %,
    RxShifting: 0
)
 (026.764333)  can0  460   [4]  79 00 01 00 ::
whereamiData(
    Speed: 1.21 km/h,
    Distance: 1 m
)
 (026.764522)  can0  462   [4]  79 00 01 00 ::
whereamiRawData(
    RawSpeed: 1.21 km/h,
    RawDistance: 1 m
)
 (026.764710)  can0  464   [8]  2B 81 AE 02 DB F4 73 00 ::
whereamiCoords(
    Latitude: 44.990763 °,
    Longitude: 7.599323 °
)
 (026.779548)  can0  421   [2]  00 00 ::
GretaData(
    TelekBattery: 0 %,
    RxShifting: 0
)
 (026.850403)  can0  421   [2]  00 00 ::
GretaData(
    TelekBattery: 0 %,
    RxShifting: 0
)
 (026.911301)  can0  422   [1]  00 ::
GbData(
    GbGear: 0
)
 (026.921223)  can0  421   [2]  00 00 ::
GretaData(
    TelekBattery: 0 %,
    RxShifting: 0
)
 (026.992082)  can0  421   [2]  00 00 ::
GretaData(
    TelekBattery: 0 %,
    RxShifting: 0
)
 (027.062932)  can0  421   [2]  00 00 ::
GretaData(
    TelekBattery: 0 %,
    RxShifting: 0
)
 (027.133763)  can0  421   [2]  00 00 ::
GretaData(
    TelekBattery: 0 %,
    RxShifting: 0
)
 (027.204609)  can0  421   [2]  00 00 ::
GretaData(
    TelekBattery: 0 %,
    RxShifting: 0
)
 (027.275462)  can0  421   [2]  00 00 ::
GretaData(
    TelekBattery: 0 %,
    RxShifting: 0
)
 (027.346318)  can0  421   [2]  00 00 ::
GretaData(
    TelekBattery: 0 %,
    RxShifting: 0
)
 (027.417147)  can0  421   [2]  00 00 ::
GretaData(
    TelekBattery: 0 %,
    RxShifting: 0
)
 (027.487988)  can0  421   [2]  00 00 ::
GretaData(
    TelekBattery: 0 %,
    RxShifting: 0
)
 (027.558850)  can0  421   [2]  00 00 ::
GretaData(
    TelekBattery: 0 %,
    RxShifting: 0
)
 (027.629685)  can0  421   [2]  00 00 ::
GretaData(
    TelekBattery: 0 %,
    RxShifting: 0
)
 (027.694577)  can0  460   [4]  47 00 00 00 ::
whereamiData(
    Speed: 0.71 km/h,
    Distance: 0 m
)
 (027.694768)  can0  462   [4]  47 00 00 00 ::
whereamiRawData(
    RawSpeed: 0.71 km/h,
    RawDistance: 0 m
)
 (027.694956)  can0  464   [8]  25 81 AE 02 DE F4 73 00 ::
whereamiCoords(
    Latitude: 44.990756999999995 °,
    Longitude: 7.599326 °
)
 (027.700525)  can0  421   [2]  00 00 ::
GretaData(
    TelekBattery: 0 %,
    RxShifting: 0
)
 (027.771384)  can0  421   [2]  00 00 ::
GretaData(
    TelekBattery: 0 %,
    RxShifting: 0
)
 (027.842242)  can0  421   [2]  00 00 ::
GretaData(
    TelekBattery: 0 %,
    RxShifting: 0
)
 (027.911313)  can0  422   [1]  00 ::
GbData(
    GbGear: 0
)
 (027.913066)  can0  421   [2]  00 00 ::
GretaData(
    TelekBattery: 0 %,
    RxShifting: 0
)
 (027.983913)  can0  421   [2]  00 00 ::
GretaData(
    TelekBattery: 0 %,
    RxShifting: 0
)
 (028.054773)  can0  421   [2]  00 00 ::
GretaData(
    TelekBattery: 0 %,
    RxShifting: 0
)
 (028.125588)  can0  421   [2]  00 00 ::
GretaData(
    TelekBattery: 0 %,
    RxShifting: 0
)
 (028.196431)  can0  421   [2]  00 00 ::
GretaData(
    TelekBattery: 0 %,
    RxShifting: 0
)
 (028.267278)  can0  421   [2]  00 00 ::
GretaData(
    TelekBattery: 0 %,
    RxShifting: 0
)
 (028.338140)  can0  421   [2]  00 00 ::
GretaData(
    TelekBattery: 0 %,
    RxShifting: 0
)
 (028.408965)  can0  421   [2]  00 00 ::
GretaData(
    TelekBattery: 0 %,
    RxShifting: 0
)
 (028.479799)  can0  421   [2]  00 00 ::
GretaData(
    TelekBattery: 0 %,
    RxShifting: 0
)
 (028.550659)  can0  421   [2]  00 00 ::
GretaData(
    TelekBattery: 0 %,
    RxShifting: 0
)
 (028.621482)  can0  421   [2]  00 00 ::
GretaData(
    TelekBattery: 0 %,
    RxShifting: 0
)
 (028.692322)  can0  421   [2]  00 00 ::
GretaData(
    TelekBattery: 0 %,
    RxShifting: 0
)
 (028.724939)  can0  460   [4]  30 00 00 00 ::
whereamiData(
    Speed: 0.48 km/h,
    Distance: 0 m
)
 (028.725135)  can0  462   [4]  30 00 00 00 ::
whereamiRawData(
    RawSpeed: 0.48 km/h,
    RawDistance: 0 m
)
 (028.725325)  can0  464   [8]  21 81 AE 02 E1 F4 73 00 ::
whereamiCoords(
    Latitude: 44.990753 °,
    Longitude: 7.599329 °
)
 (028.763167)  can0  421   [2]  00 00 ::
GretaData(
    TelekBattery: 0 %,
    RxShifting: 0
)
 (028.834028)  can0  421   [2]  00 00 ::
GretaData(
    TelekBattery: 0 %,
    RxShifting: 0
)
 (028.904853)  can0  421   [2]  00 00 ::
GretaData(
    TelekBattery: 0 %,
    RxShifting: 0
)
 (028.911322)  can0  422   [1]  00 ::
GbData(
    GbGear: 0
)
 (028.975696)  can0  421   [2]  00 00 ::
GretaData(
    TelekBattery: 0 %,
    RxShifting: 0
)
 (029.046543)  can0  421   [2]  00 00 ::
GretaData(
    TelekBattery: 0 %,
    RxShifting: 0
)
 (029.117361)  can0  421   [2]  00 00 ::
GretaData(
    TelekBattery: 0 %,
    RxShifting: 0
)
 (029.188194)  can0  421   [2]  00 00 ::
GretaData(
    TelekBattery: 0 %,
    RxShifting: 0
)
 (029.259035)  can0  421   [2]  00 00 ::
GretaData(
    TelekBattery: 0 %,
    RxShifting: 0
)
 (029.329891)  can0  421   [2]  00 00 ::
GretaData(
    TelekBattery: 0 %,
    RxShifting: 0
)
 (029.400707)  can0  421   [2]  00 00 ::
GretaData(
    TelekBattery: 0 %,
    RxShifting: 0
)
 (029.471546)  can0  421   [2]  00 00 ::
GretaData(
    TelekBattery: 0 %,
    RxShifting: 0
)
 (029.542408)  can0  421   [2]  00 00 ::
GretaData(
    TelekBattery: 0 %,
    RxShifting: 0
)
 (029.613236)  can0  421   [2]  00 00 ::
GretaData(
    TelekBattery: 0 %,
    RxShifting: 0
)
 (029.684069)  can0  421   [2]  00 00 ::
GretaData(
    TelekBattery: 0 %,
    RxShifting: 0
)
 (029.754909)  can0  421   [2]  00 00 ::
GretaData(
    TelekBattery: 0 %,
    RxShifting: 0
)
 (029.755313)  can0  460   [4]  14 00 00 00 ::
whereamiData(
    Speed: 0.2 km/h,
    Distance: 0 m
)
 (029.755502)  can0  462   [4]  14 00 00 00 ::
whereamiRawData(
    RawSpeed: 0.2 km/h,
    RawDistance: 0 m
)
 (029.756227)  can0  464   [8]  20 81 AE 02 DF F4 73 00 ::
whereamiCoords(
    Latitude: 44.990752 °,
    Longitude: 7.599327 °
)
 (029.825759)  can0  421   [2]  00 00 ::
GretaData(
    TelekBattery: 0 %,
    RxShifting: 0
)
 (029.896581)  can0  421   [2]  00 00 ::
GretaData(
    TelekBattery: 0 %,
    RxShifting: 0
)
 (029.911340)  can0  422   [1]  00 ::
GbData(
    GbGear: 0
)
 (029.967422)  can0  421   [2]  00 00 ::
GretaData(
    TelekBattery: 0 %,
    RxShifting: 0
)
 (030.038279)  can0  421   [2]  00 00 ::
GretaData(
    TelekBattery: 0 %,
    RxShifting: 0
)
 (030.109104)  can0  421   [2]  00 00 ::
GretaData(
    TelekBattery: 0 %,
    RxShifting: 0
)
 (030.179940)  can0  421   [2]  00 00 ::
GretaData(
    TelekBattery: 0 %,
    RxShifting: 0
)
 (030.250781)  can0  421   [2]  00 00 ::
GretaData(
    TelekBattery: 0 %,
    RxShifting: 0
)
 (030.321648)  can0  421   [2]  00 00 ::
GretaData(
    TelekBattery: 0 %,
    RxShifting: 0
)
 (030.392471)  can0  421   [2]  00 00 ::
GretaData(
    TelekBattery: 0 %,
    RxShifting: 0
)
 (030.463314)  can0  421   [2]  00 00 ::
GretaData(
    TelekBattery: 0 %,
    RxShifting: 0
)
 (030.534175)  can0  421   [2]  00 00 ::
GretaData(
    TelekBattery: 0 %,
    RxShifting: 0
)
 (030.605021)  can0  421   [2]  00 00 ::
GretaData(
    TelekBattery: 0 %,
    RxShifting: 0
)
 (030.675841)  can0  421   [2]  00 00 ::
GretaData(
    TelekBattery: 0 %,
    RxShifting: 0
)
 (030.684375)  can0  460   [4]  1F 01 02 00 ::
whereamiData(
    Speed: 2.87 km/h,
    Distance: 2 m
)
 (030.684735)  can0  462   [4]  1F 01 02 00 ::
whereamiRawData(
    RawSpeed: 2.87 km/h,
    RawDistance: 2 m
)
 (030.684972)  can0  464   [8]  08 81 AE 02 EC F4 73 00 ::
whereamiCoords(
    Latitude: 44.990728 °,
    Longitude: 7.59934 °
)
 (030.746688)  can0  421   [2]  00 00 ::
GretaData(
    TelekBattery: 0 %,
    RxShifting: 0
)
 (030.817549)  can0  421   [2]  00 00 ::
GretaData(
    TelekBattery: 0 %,
    RxShifting: 0
)
 (030.888372)  can0  421   [2]  00 00 ::
GretaData(
    TelekBattery: 0 %,
    RxShifting: 0
)
 (030.911356)  can0  422   [1]  00 ::
GbData(
    GbGear: 0
)
 (030.959214)  can0  421   [2]  00 00 ::
GretaData(
    TelekBattery: 0 %,
    RxShifting: 0
)
 (031.030078)  can0  421   [2]  00 00 ::
GretaData(
    TelekBattery: 0 %,
    RxShifting: 0
)
 (031.100931)  can0  421   [2]  00 00 ::
GretaData(
    TelekBattery: 0 %,
    RxShifting: 0
)
 (031.171766)  can0  421   [2]  00 00 ::
GretaData(
    TelekBattery: 0 %,
    RxShifting: 0
)
 (031.242615)  can0  421   [2]  00 00 ::
GretaData(
    TelekBattery: 0 %,
    RxShifting: 0
)
 (031.313480)  can0  421   [2]  00 00 ::
GretaData(
    TelekBattery: 0 %,
    RxShifting: 0
)
 (031.384312)  can0  421   [2]  00 00 ::
GretaData(
    TelekBattery: 0 %,
    RxShifting: 0
)
 (031.455150)  can0  421   [2]  00 00 ::
GretaData(
    TelekBattery: 0 %,
    RxShifting: 0
)
 (031.526003)  can0  421   [2]  00 00 ::
GretaData(
    TelekBattery: 0 %,
    RxShifting: 0
)
 (031.596841)  can0  421   [2]  00 00 ::
GretaData(
    TelekBattery: 0 %,
    RxShifting: 0
)
 (031.667674)  can0  421   [2]  00 00 ::
GretaData(
    TelekBattery: 0 %,
    RxShifting: 0
)
 (031.715905)  can0  460   [4]  B3 00 01 00 ::
whereamiData(
    Speed: 1.79 km/h,
    Distance: 1 m
)
 (031.716260)  can0  462   [4]  B3 00 01 00 ::
whereamiRawData(
    RawSpeed: 1.79 km/h,
    RawDistance: 1 m
)
 (031.716504)  can0  464   [8]  F8 80 AE 02 F3 F4 73 00 ::
whereamiCoords(
    Latitude: 44.990711999999995 °,
    Longitude: 7.599347 °
)
 (031.738510)  can0  421   [2]  00 00 ::
GretaData(
    TelekBattery: 0 %,
    RxShifting: 0
)
 (031.809373)  can0  421   [2]  00 00 ::
GretaData(
    TelekBattery: 0 %,
    RxShifting: 0
)
 (031.880199)  can0  421   [2]  00 00 ::
GretaData(
    TelekBattery: 0 %,
    RxShifting: 0
)
 (031.911372)  can0  422   [1]  00 ::
GbData(
    GbGear: 0
)
 (031.951045)  can0  421   [2]  00 00 ::
GretaData(
    TelekBattery: 0 %,
    RxShifting: 0
)
 (032.021896)  can0  421   [2]  00 00 ::
GretaData(
    TelekBattery: 0 %,
    RxShifting: 0
)
 (032.092746)  can0  421   [2]  00 00 ::
GretaData(
    TelekBattery: 0 %,
    RxShifting: 0
)
 (032.163577)  can0  421   [2]  00 00 ::
GretaData(
    TelekBattery: 0 %,
    RxShifting: 0
)
 (032.234436)  can0  421   [2]  00 00 ::
GretaData(
    TelekBattery: 0 %,
    RxShifting: 0
)
 (032.305280)  can0  421   [2]  00 00 ::
GretaData(
    TelekBattery: 0 %,
    RxShifting: 0
)
 (032.376110)  can0  421   [2]  00 00 ::
GretaData(
    TelekBattery: 0 %,
    RxShifting: 0
)
 (032.446948)  can0  421   [2]  00 00 ::
GretaData(
    TelekBattery: 0 %,
    RxShifting: 0
)
 (032.517807)  can0  421   [2]  00 00 ::
GretaData(
    TelekBattery: 0 %,
    RxShifting: 0
)
 (032.588653)  can0  421   [2]  00 00 ::
GretaData(
    TelekBattery: 0 %,
    RxShifting: 0
)
 (032.659481)  can0  421   [2]  00 00 ::
GretaData(
    TelekBattery: 0 %,
    RxShifting: 0
)
 (032.730319)  can0  421   [2]  00 00 ::
GretaData(
    TelekBattery: 0 %,
    RxShifting: 0
)
 (032.747306)  can0  460   [4]  95 00 01 00 ::
whereamiData(
    Speed: 1.49 km/h,
    Distance: 1 m
)
 (032.747499)  can0  462   [4]  95 00 01 00 ::
whereamiRawData(
    RawSpeed: 1.49 km/h,
    RawDistance: 1 m
)
 (032.747691)  can0  464   [8]  ED 80 AE 02 FD F4 73 00 ::
whereamiCoords(
    Latitude: 44.990701 °,
    Longitude: 7.5993569999999995 °
)
 (032.801186)  can0  421   [2]  00 00 ::
GretaData(
    TelekBattery: 0 %,
    RxShifting: 0
)
 (032.872011)  can0  421   [2]  00 00 ::
GretaData(
    TelekBattery: 0 %,
    RxShifting: 0
)
 (032.911386)  can0  422   [1]  00 ::
GbData(
    GbGear: 0
)
 (032.942871)  can0  421   [2]  00 00 ::
GretaData(
    TelekBattery: 0 %,
    RxShifting: 0
)
 (033.013708)  can0  421   [2]  00 00 ::
GretaData(
    TelekBattery: 0 %,
    RxShifting: 0
)
 (033.084566)  can0  421   [2]  00 00 ::
GretaData(
    TelekBattery: 0 %,
    RxShifting: 0
)
 (033.155391)  can0  421   [2]  00 00 ::
GretaData(
    TelekBattery: 0 %,
    RxShifting: 0
)
 (033.226232)  can0  421   [2]  00 00 ::
GretaData(
    TelekBattery: 0 %,
    RxShifting: 0
)
 (033.297099)  can0  421   [2]  00 00 ::
GretaData(
    TelekBattery: 0 %,
    RxShifting: 0
)
 (033.367916)  can0  421   [2]  00 00 ::
GretaData(
    TelekBattery: 0 %,
    RxShifting: 0
)
 (033.438755)  can0  421   [2]  00 00 ::
GretaData(
    TelekBattery: 0 %,
    RxShifting: 0
)
 (033.509609)  can0  421   [2]  00 00 ::
GretaData(
    TelekBattery: 0 %,
    RxShifting: 0
)
 (033.580478)  can0  421   [2]  00 00 ::
GretaData(
    TelekBattery: 0 %,
    RxShifting: 0
)
 (033.651301)  can0  421   [2]  00 00 ::
GretaData(
    TelekBattery: 0 %,
    RxShifting: 0
)
 (033.722141)  can0  421   [2]  00 00 ::
GretaData(
    TelekBattery: 0 %,
    RxShifting: 0
)
 (033.778711)  can0  460   [4]  84 00 01 00 ::
whereamiData(
    Speed: 1.32 km/h,
    Distance: 1 m
)
 (033.778909)  can0  462   [4]  84 00 01 00 ::
whereamiRawData(
    RawSpeed: 1.32 km/h,
    RawDistance: 1 m
)
 (033.779100)  can0  464   [8]  E3 80 AE 02 05 F5 73 00 ::
whereamiCoords(
    Latitude: 44.990691 °,
    Longitude: 7.599365 °
)
 (033.792993)  can0  421   [2]  00 00 ::
GretaData(
    TelekBattery: 0 %,
    RxShifting: 0
)
 (033.863832)  can0  421   [2]  00 00 ::
GretaData(
    TelekBattery: 0 %,
    RxShifting: 0
)
 (033.911399)  can0  422   [1]  00 ::
GbData(
    GbGear: 0
)
 (033.934675)  can0  421   [2]  00 00 ::
GretaData(
    TelekBattery: 0 %,
    RxShifting: 0
)
 (034.005520)  can0  421   [2]  00 00 ::
GretaData(
    TelekBattery: 0 %,
    RxShifting: 0
)
 (034.076380)  can0  421   [2]  00 00 ::
GretaData(
    TelekBattery: 0 %,
    RxShifting: 0
)
 (034.147210)  can0  421   [2]  00 00 ::
GretaData(
    TelekBattery: 0 %,
    RxShifting: 0
)
 (034.218057)  can0  421   [2]  00 00 ::
GretaData(
    TelekBattery: 0 %,
    RxShifting: 0
)
 (034.288916)  can0  421   [2]  00 00 ::
GretaData(
    TelekBattery: 0 %,
    RxShifting: 0
)
 (034.359749)  can0  421   [2]  00 00 ::
GretaData(
    TelekBattery: 0 %,
    RxShifting: 0
)
 (034.430592)  can0  421   [2]  00 00 ::
GretaData(
    TelekBattery: 0 %,
    RxShifting: 0
)
 (034.501442)  can0  421   [2]  00 00 ::
GretaData(
    TelekBattery: 0 %,
    RxShifting: 0
)
 (034.572312)  can0  421   [2]  00 00 ::
GretaData(
    TelekBattery: 0 %,
    RxShifting: 0
)
 (034.643148)  can0  421   [2]  00 00 ::
GretaData(
    TelekBattery: 0 %,
    RxShifting: 0
)
 (034.710561)  can0  460   [4]  40 00 00 00 ::
whereamiData(
    Speed: 0.64 km/h,
    Distance: 0 m
)
 (034.710754)  can0  462   [4]  40 00 00 00 ::
whereamiRawData(
    RawSpeed: 0.64 km/h,
    RawDistance: 0 m
)
 (034.710943)  can0  464   [8]  DE 80 AE 02 0B F5 73 00 ::
whereamiCoords(
    Latitude: 44.990686 °,
    Longitude: 7.599371 °
)
 (034.713989)  can0  421   [2]  00 00 ::
GretaData(
    TelekBattery: 0 %,
    RxShifting: 0
)
 (034.784859)  can0  421   [2]  00 00 ::
GretaData(
    TelekBattery: 0 %,
    RxShifting: 0
)
 (034.855692)  can0  421   [2]  00 00 ::
GretaData(
    TelekBattery: 0 %,
    RxShifting: 0
)
 (034.911426)  can0  422   [1]  00 ::
GbData(
    GbGear: 0
)
 (034.926529)  can0  421   [2]  00 00 ::
GretaData(
    TelekBattery: 0 %,
    RxShifting: 0
)
 (034.997391)  can0  421   [2]  00 00 ::
GretaData(
    TelekBattery: 0 %,
    RxShifting: 0
)
 (035.068255)  can0  421   [2]  00 00 ::
GretaData(
    TelekBattery: 0 %,
    RxShifting: 0
)
 (035.139096)  can0  421   [2]  00 00 ::
GretaData(
    TelekBattery: 0 %,
    RxShifting: 0
)
 (035.209948)  can0  421   [2]  00 00 ::
GretaData(
    TelekBattery: 0 %,
    RxShifting: 0
)
 (035.280806)  can0  421   [2]  00 00 ::
GretaData(
    TelekBattery: 0 %,
    RxShifting: 0
)
 (035.351642)  can0  421   [2]  00 00 ::
GretaData(
    TelekBattery: 0 %,
    RxShifting: 0
)
 (035.422480)  can0  421   [2]  00 00 ::
GretaData(
    TelekBattery: 0 %,
    RxShifting: 0
)
 (035.493314)  can0  421   [2]  00 00 ::
GretaData(
    TelekBattery: 0 %,
    RxShifting: 0
)
 (035.564181)  can0  421   [2]  00 00 ::
GretaData(
    TelekBattery: 0 %,
    RxShifting: 0
)
 (035.635009)  can0  421   [2]  00 00 ::
GretaData(
    TelekBattery: 0 %,
    RxShifting: 0
)
 (035.705843)  can0  421   [2]  00 00 ::
GretaData(
    TelekBattery: 0 %,
    RxShifting: 0
)
 (035.739932)  can0  460   [4]  43 00 00 00 ::
whereamiData(
    Speed: 0.67 km/h,
    Distance: 0 m
)
 (035.740127)  can0  462   [4]  43 00 00 00 ::
whereamiRawData(
    RawSpeed: 0.67 km/h,
    RawDistance: 0 m
)
 (035.740317)  can0  464   [8]  DA 80 AE 02 11 F5 73 00 ::
whereamiCoords(
    Latitude: 44.990682 °,
    Longitude: 7.599377 °
)
 (035.776704)  can0  421   [2]  00 00 ::
GretaData(
    TelekBattery: 0 %,
    RxShifting: 0
)
 (035.847542)  can0  421   [2]  00 00 ::
GretaData(
    TelekBattery: 0 %,
    RxShifting: 0
)
 (035.911434)  can0  422   [1]  00 ::
GbData(
    GbGear: 0
)
 (035.918375)  can0  421   [2]  00 00 ::
GretaData(
    TelekBattery: 0 %,
    RxShifting: 0
)
 (035.989218)  can0  421   [2]  00 00 ::
GretaData(
    TelekBattery: 0 %,
    RxShifting: 0
)
 (036.060083)  can0  421   [2]  00 00 ::
GretaData(
    TelekBattery: 0 %,
    RxShifting: 0
)
 (036.130909)  can0  421   [2]  00 00 ::
GretaData(
    TelekBattery: 0 %,
    RxShifting: 0
)
 (036.201741)  can0  421   [2]  00 00 ::
GretaData(
    TelekBattery: 0 %,
    RxShifting: 0
)
 (036.272602)  can0  421   [2]  00 00 ::
GretaData(
    TelekBattery: 0 %,
    RxShifting: 0
)
 (036.343450)  can0  421   [2]  00 00 ::
GretaData(
    TelekBattery: 0 %,
    RxShifting: 0
)
 (036.414278)  can0  421   [2]  00 00 ::
GretaData(
    TelekBattery: 0 %,
    RxShifting: 0
)
 (036.485131)  can0  421   [2]  00 00 ::
GretaData(
    TelekBattery: 0 %,
    RxShifting: 0
)
 (036.555988)  can0  421   [2]  00 00 ::
GretaData(
    TelekBattery: 0 %,
    RxShifting: 0
)
 (036.626823)  can0  421   [2]  00 00 ::
GretaData(
    TelekBattery: 0 %,
    RxShifting: 0
)
 (036.697671)  can0  421   [2]  00 00 ::
GretaData(
    TelekBattery: 0 %,
    RxShifting: 0
)
 (036.768524)  can0  421   [2]  00 00 ::
GretaData(
    TelekBattery: 0 %,
    RxShifting: 0
)
 (036.771618)  can0  460   [4]  2F 00 00 00 ::
whereamiData(
    Speed: 0.47000000000000003 km/h,
    Distance: 0 m
)
 (036.771815)  can0  462   [4]  2F 00 00 00 ::
whereamiRawData(
    RawSpeed: 0.47000000000000003 km/h,
    RawDistance: 0 m
)
 (036.772004)  can0  464   [8]  D7 80 AE 02 16 F5 73 00 ::
whereamiCoords(
    Latitude: 44.990679 °,
    Longitude: 7.599381999999999 °
)
 (036.839371)  can0  421   [2]  00 00 ::
GretaData(
    TelekBattery: 0 %,
    RxShifting: 0
)
 (036.910207)  can0  421   [2]  00 00 ::
GretaData(
    TelekBattery: 0 %,
    RxShifting: 0
)
 (036.911443)  can0  422   [1]  00 ::
GbData(
    GbGear: 0
)
 (036.981051)  can0  421   [2]  00 00 ::
GretaData(
    TelekBattery: 0 %,
    RxShifting: 0
)
 (037.051906)  can0  421   [2]  00 00 ::
GretaData(
    TelekBattery: 0 %,
    RxShifting: 0
)
 (037.122739)  can0  421   [2]  00 00 ::
GretaData(
    TelekBattery: 0 %,
    RxShifting: 0
)
 (037.193589)  can0  421   [2]  00 00 ::
GretaData(
    TelekBattery: 0 %,
    RxShifting: 0
)
 (037.264443)  can0  421   [2]  00 00 ::
GretaData(
    TelekBattery: 0 %,
    RxShifting: 0
)
 (037.335298)  can0  421   [2]  00 00 ::
GretaData(
    TelekBattery: 0 %,
    RxShifting: 0
)
 (037.406134)  can0  421   [2]  00 00 ::
GretaData(
    TelekBattery: 0 %,
    RxShifting: 0
)
 (037.476976)  can0  421   [2]  00 00 ::
GretaData(
    TelekBattery: 0 %,
    RxShifting: 0
)
 (037.547844)  can0  421   [2]  00 00 ::
GretaData(
    TelekBattery: 0 %,
    RxShifting: 0
)
 (037.618674)  can0  421   [2]  00 00 ::
GretaData(
    TelekBattery: 0 %,
    RxShifting: 0
)
 (037.689513)  can0  421   [2]  00 00 ::
GretaData(
    TelekBattery: 0 %,
    RxShifting: 0
)
 (037.700907)  can0  460   [4]  08 00 00 00 ::
whereamiData(
    Speed: 0.08 km/h,
    Distance: 0 m
)
 (037.701101)  can0  462   [4]  08 00 00 00 ::
whereamiRawData(
    RawSpeed: 0.08 km/h,
    RawDistance: 0 m
)
 (037.701292)  can0  464   [8]  D7 80 AE 02 15 F5 73 00 ::
whereamiCoords(
    Latitude: 44.990679 °,
    Longitude: 7.599380999999999 °
)
 (037.760364)  can0  421   [2]  00 00 ::
GretaData(
    TelekBattery: 0 %,
    RxShifting: 0
)
 (037.831226)  can0  421   [2]  00 00 ::
GretaData(
    TelekBattery: 0 %,
    RxShifting: 0
)
 (037.902056)  can0  421   [2]  00 00 ::
GretaData(
    TelekBattery: 0 %,
    RxShifting: 0
)
 (037.911463)  can0  422   [1]  00 ::
GbData(
    GbGear: 0
)
 (037.972902)  can0  421   [2]  00 00 ::
GretaData(
    TelekBattery: 0 %,
    RxShifting: 0
)
 (038.043759)  can0  421   [2]  00 00 ::
GretaData(
    TelekBattery: 0 %,
    RxShifting: 0
)
 (038.114590)  can0  421   [2]  00 00 ::
GretaData(
    TelekBattery: 0 %,
    RxShifting: 0
)
 (038.185450)  can0  421   [2]  00 00 ::
GretaData(
    TelekBattery: 0 %,
    RxShifting: 0
)
 (038.256280)  can0  421   [2]  00 00 ::
GretaData(
    TelekBattery: 0 %,
    RxShifting: 0
)
 (038.327131)  can0  421   [2]  00 00 ::
GretaData(
    TelekBattery: 0 %,
    RxShifting: 0
)
 (038.397965)  can0  421   [2]  00 00 ::
GretaData(
    TelekBattery: 0 %,
    RxShifting: 0
)
 (038.468805)  can0  421   [2]  00 00 ::
GretaData(
    TelekBattery: 0 %,
    RxShifting: 0
)
 (038.539657)  can0  421   [2]  00 00 ::
GretaData(
    TelekBattery: 0 %,
    RxShifting: 0
)
 (038.610481)  can0  421   [2]  00 00 ::
GretaData(
    TelekBattery: 0 %,
    RxShifting: 0
)
 (038.681312)  can0  421   [2]  00 00 ::
GretaData(
    TelekBattery: 0 %,
    RxShifting: 0
)
 (038.732342)  can0  460   [4]  1C 00 00 00 ::
whereamiData(
    Speed: 0.28 km/h,
    Distance: 0 m
)
 (038.732533)  can0  462   [4]  1C 00 00 00 ::
whereamiRawData(
    RawSpeed: 0.28 km/h,
    RawDistance: 0 m
)
 (038.732724)  can0  464   [8]  D4 80 AE 02 15 F5 73 00 ::
whereamiCoords(
    Latitude: 44.990676 °,
    Longitude: 7.599380999999999 °
)
 (038.752142)  can0  421   [2]  00 00 ::
GretaData(
    TelekBattery: 0 %,
    RxShifting: 0
)
 (038.822989)  can0  421   [2]  00 00 ::
GretaData(
    TelekBattery: 0 %,
    RxShifting: 0
)
 (038.893803)  can0  421   [2]  00 00 ::
GretaData(
    TelekBattery: 0 %,
    RxShifting: 0
)
 (038.911473)  can0  422   [1]  00 ::
GbData(
    GbGear: 0
)
 (038.964636)  can0  421   [2]  00 00 ::
GretaData(
    TelekBattery: 0 %,
    RxShifting: 0
)
 (039.035481)  can0  421   [2]  00 00 ::
GretaData(
    TelekBattery: 0 %,
    RxShifting: 0
)
 (039.106293)  can0  421   [2]  00 00 ::
GretaData(
    TelekBattery: 0 %,
    RxShifting: 0
)
 (039.177138)  can0  421   [2]  00 00 ::
GretaData(
    TelekBattery: 0 %,
    RxShifting: 0
)
 (039.247970)  can0  421   [2]  00 00 ::
GretaData(
    TelekBattery: 0 %,
    RxShifting: 0
)
 (039.318821)  can0  421   [2]  00 00 ::
GretaData(
    TelekBattery: 0 %,
    RxShifting: 0
)
 (039.389647)  can0  421   [2]  00 00 ::
GretaData(
    TelekBattery: 0 %,
    RxShifting: 0
)
 (039.460476)  can0  421   [2]  00 00 ::
GretaData(
    TelekBattery: 0 %,
    RxShifting: 0
)
 (039.531335)  can0  421   [2]  00 00 ::
GretaData(
    TelekBattery: 0 %,
    RxShifting: 0
)
 (039.602167)  can0  421   [2]  00 00 ::
GretaData(
    TelekBattery: 0 %,
    RxShifting: 0
)
 (039.672999)  can0  421   [2]  00 00 ::
GretaData(
    TelekBattery: 0 %,
    RxShifting: 0
)
 (039.743839)  can0  421   [2]  00 00 ::
GretaData(
    TelekBattery: 0 %,
    RxShifting: 0
)
 (039.763270)  can0  460   [4]  15 00 00 00 ::
whereamiData(
    Speed: 0.21 km/h,
    Distance: 0 m
)
 (039.763631)  can0  462   [4]  15 00 00 00 ::
whereamiRawData(
    RawSpeed: 0.21 km/h,
    RawDistance: 0 m
)
 (039.763869)  can0  464   [8]  D2 80 AE 02 14 F5 73 00 ::
whereamiCoords(
    Latitude: 44.990674 °,
    Longitude: 7.59938 °
)
 (039.814710)  can0  421   [2]  00 00 ::
GretaData(
    TelekBattery: 0 %,
    RxShifting: 0
)
 (039.885527)  can0  421   [2]  00 00 ::
GretaData(
    TelekBattery: 0 %,
    RxShifting: 0
)
 (039.911487)  can0  422   [1]  00 ::
GbData(
    GbGear: 0
)
 (039.956365)  can0  421   [2]  00 00 ::
GretaData(
    TelekBattery: 0 %,
    RxShifting: 0
)
 (040.027220)  can0  421   [2]  00 00 ::
GretaData(
    TelekBattery: 0 %,
    RxShifting: 0
)
 (040.098061)  can0  421   [2]  00 00 ::
GretaData(
    TelekBattery: 0 %,
    RxShifting: 0
)
 (040.168886)  can0  421   [2]  00 00 ::
GretaData(
    TelekBattery: 0 %,
    RxShifting: 0
)
 (040.239731)  can0  421   [2]  00 00 ::
GretaData(
    TelekBattery: 0 %,
    RxShifting: 0
)
 (040.310597)  can0  421   [2]  00 00 ::
GretaData(
    TelekBattery: 0 %,
    RxShifting: 0
)
 (040.381424)  can0  421   [2]  00 00 ::
GretaData(
    TelekBattery: 0 %,
    RxShifting: 0
)
 (040.452274)  can0  421   [2]  00 00 ::
GretaData(
    TelekBattery: 0 %,
    RxShifting: 0
)
 (040.523132)  can0  421   [2]  00 00 ::
GretaData(
    TelekBattery: 0 %,
    RxShifting: 0
)
 (040.593963)  can0  421   [2]  00 00 ::
GretaData(
    TelekBattery: 0 %,
    RxShifting: 0
)
 (040.664812)  can0  421   [2]  00 00 ::
GretaData(
    TelekBattery: 0 %,
    RxShifting: 0
)
 (040.692658)  can0  460   [4]  04 00 00 00 ::
whereamiData(
    Speed: 0.04 km/h,
    Distance: 0 m
)
 (040.693008)  can0  462   [4]  04 00 00 00 ::
whereamiRawData(
    RawSpeed: 0.04 km/h,
    RawDistance: 0 m
)
 (040.693241)  can0  464   [8]  D2 80 AE 02 14 F5 73 00 ::
whereamiCoords(
    Latitude: 44.990674 °,
    Longitude: 7.59938 °
)
 (040.735671)  can0  421   [2]  00 00 ::
GretaData(
    TelekBattery: 0 %,
    RxShifting: 0
)
 (040.806524)  can0  421   [2]  00 00 ::
GretaData(
    TelekBattery: 0 %,
    RxShifting: 0
)
 (040.877347)  can0  421   [2]  00 00 ::
GretaData(
    TelekBattery: 0 %,
    RxShifting: 0
)
 (040.911502)  can0  422   [1]  00 ::
GbData(
    GbGear: 0
)
 (040.948185)  can0  421   [2]  00 00 ::
GretaData(
    TelekBattery: 0 %,
    RxShifting: 0
)
 (041.019037)  can0  421   [2]  00 00 ::
GretaData(
    TelekBattery: 0 %,
    RxShifting: 0
)
 (041.089880)  can0  421   [2]  00 00 ::
GretaData(
    TelekBattery: 0 %,
    RxShifting: 0
)
 (041.160709)  can0  421   [2]  00 00 ::
GretaData(
    TelekBattery: 0 %,
    RxShifting: 0
)
 (041.231556)  can0  421   [2]  00 00 ::
GretaData(
    TelekBattery: 0 %,
    RxShifting: 0
)
 (041.302418)  can0  421   [2]  00 00 ::
GretaData(
    TelekBattery: 0 %,
    RxShifting: 0
)
 (041.373243)  can0  421   [2]  00 00 ::
GretaData(
    TelekBattery: 0 %,
    RxShifting: 0
)
 (041.444083)  can0  421   [2]  00 00 ::
GretaData(
    TelekBattery: 0 %,
    RxShifting: 0
)
 (041.514943)  can0  421   [2]  00 00 ::
GretaData(
    TelekBattery: 0 %,
    RxShifting: 0
)
 (041.585781)  can0  421   [2]  00 00 ::
GretaData(
    TelekBattery: 0 %,
    RxShifting: 0
)
 (041.656612)  can0  421   [2]  00 00 ::
GretaData(
    TelekBattery: 0 %,
    RxShifting: 0
)
 (041.724062)  can0  460   [4]  1D 00 00 00 ::
whereamiData(
    Speed: 0.29 km/h,
    Distance: 0 m
)
 (041.724254)  can0  462   [4]  1D 00 00 00 ::
whereamiRawData(
    RawSpeed: 0.29 km/h,
    RawDistance: 0 m
)
 (041.724496)  can0  464   [8]  D0 80 AE 02 15 F5 73 00 ::
whereamiCoords(
    Latitude: 44.990671999999996 °,
    Longitude: 7.599380999999999 °
)
 (041.727447)  can0  421   [2]  00 00 ::
GretaData(
    TelekBattery: 0 %,
    RxShifting: 0
)
 (041.798301)  can0  421   [2]  00 00 ::
GretaData(
    TelekBattery: 0 %,
    RxShifting: 0
)
 (041.869123)  can0  421   [2]  00 00 ::
GretaData(
    TelekBattery: 0 %,
    RxShifting: 0
)
 (041.911518)  can0  422   [1]  00 ::
GbData(
    GbGear: 0
)
 (041.939968)  can0  421   [2]  00 00 ::
GretaData(
    TelekBattery: 0 %,
    RxShifting: 0
)
 (042.010817)  can0  421   [2]  00 00 ::
GretaData(
    TelekBattery: 0 %,
    RxShifting: 0
)
 (042.081664)  can0  421   [2]  00 00 ::
GretaData(
    TelekBattery: 0 %,
    RxShifting: 0
)
 (042.152483)  can0  421   [2]  00 00 ::
GretaData(
    TelekBattery: 0 %,
    RxShifting: 0
)
 (042.223320)  can0  421   [2]  00 00 ::
GretaData(
    TelekBattery: 0 %,
    RxShifting: 0
)
 (042.294173)  can0  421   [2]  00 00 ::
GretaData(
    TelekBattery: 0 %,
    RxShifting: 0
)
 (042.364999)  can0  421   [2]  00 00 ::
GretaData(
    TelekBattery: 0 %,
    RxShifting: 0
)
 (042.435841)  can0  421   [2]  00 00 ::
GretaData(
    TelekBattery: 0 %,
    RxShifting: 0
)
 (042.506691)  can0  421   [2]  00 00 ::
GretaData(
    TelekBattery: 0 %,
    RxShifting: 0
)
 (042.577548)  can0  421   [2]  00 00 ::
GretaData(
    TelekBattery: 0 %,
    RxShifting: 0
)
 (042.648369)  can0  421   [2]  00 00 ::
GretaData(
    TelekBattery: 0 %,
    RxShifting: 0
)
 (042.719203)  can0  421   [2]  00 00 ::
GretaData(
    TelekBattery: 0 %,
    RxShifting: 0
)
 (042.754508)  can0  460   [4]  11 00 00 00 ::
whereamiData(
    Speed: 0.17 km/h,
    Distance: 0 m
)
 (042.754704)  can0  462   [4]  11 00 00 00 ::
whereamiRawData(
    RawSpeed: 0.17 km/h,
    RawDistance: 0 m
)
 (042.754947)  can0  464   [8]  CF 80 AE 02 17 F5 73 00 ::
whereamiCoords(
    Latitude: 44.990671 °,
    Longitude: 7.5993829999999996 °
)
 (042.790061)  can0  421   [2]  00 00 ::
GretaData(
    TelekBattery: 0 %,
    RxShifting: 0
)
 (042.860872)  can0  421   [2]  00 00 ::
GretaData(
    TelekBattery: 0 %,
    RxShifting: 0
)
 (042.911534)  can0  422   [1]  00 ::
GbData(
    GbGear: 0
)
 (042.931709)  can0  421   [2]  00 00 ::
GretaData(
    TelekBattery: 0 %,
    RxShifting: 0
)
 (043.002547)  can0  421   [2]  00 00 ::
GretaData(
    TelekBattery: 0 %,
    RxShifting: 0
)
 (043.073391)  can0  421   [2]  00 00 ::
GretaData(
    TelekBattery: 0 %,
    RxShifting: 0
)
 (043.144202)  can0  421   [2]  00 00 ::
GretaData(
    TelekBattery: 0 %,
    RxShifting: 0
)
 (043.215033)  can0  421   [2]  00 00 ::
GretaData(
    TelekBattery: 0 %,
    RxShifting: 0
)
 (043.285877)  can0  421   [2]  00 00 ::
GretaData(
    TelekBattery: 0 %,
    RxShifting: 0
)
 (043.356694)  can0  421   [2]  00 00 ::
GretaData(
    TelekBattery: 0 %,
    RxShifting: 0
)
 (043.427529)  can0  421   [2]  00 00 ::
GretaData(
    TelekBattery: 0 %,
    RxShifting: 0
)
 (043.498363)  can0  421   [2]  00 00 ::
GretaData(
    TelekBattery: 0 %,
    RxShifting: 0
)
 (043.569214)  can0  421   [2]  00 00 ::
GretaData(
    TelekBattery: 0 %,
    RxShifting: 0
)
 (043.640038)  can0  421   [2]  00 00 ::
GretaData(
    TelekBattery: 0 %,
    RxShifting: 0
)
 (043.710868)  can0  421   [2]  00 00 ::
GretaData(
    TelekBattery: 0 %,
    RxShifting: 0
)
 (043.781714)  can0  421   [2]  00 00 ::
GretaData(
    TelekBattery: 0 %,
    RxShifting: 0
)
 (043.784562)  can0  460   [4]  0E 00 00 00 ::
whereamiData(
    Speed: 0.14 km/h,
    Distance: 0 m
)
 (043.784915)  can0  462   [4]  0E 00 00 00 ::
whereamiRawData(
    RawSpeed: 0.14 km/h,
    RawDistance: 0 m
)
 (043.785145)  can0  464   [8]  CE 80 AE 02 19 F5 73 00 ::
whereamiCoords(
    Latitude: 44.99067 °,
    Longitude: 7.599385 °
)
 (043.852537)  can0  421   [2]  00 00 ::
GretaData(
    TelekBattery: 0 %,
    RxShifting: 0
)
 (043.911547)  can0  422   [1]  00 ::
GbData(
    GbGear: 0
)
 (043.923365)  can0  421   [2]  00 00 ::
GretaData(
    TelekBattery: 0 %,
    RxShifting: 0
)
 (043.994193)  can0  421   [2]  00 00 ::
GretaData(
    TelekBattery: 0 %,
    RxShifting: 0
)
 (044.065045)  can0  421   [2]  00 00 ::
GretaData(
    TelekBattery: 0 %,
    RxShifting: 0
)
 (044.135866)  can0  421   [2]  00 00 ::
GretaData(
    TelekBattery: 0 %,
    RxShifting: 0
)
 (044.206708)  can0  421   [2]  00 00 ::
GretaData(
    TelekBattery: 0 %,
    RxShifting: 0
)
 (044.277569)  can0  421   [2]  00 00 ::
GretaData(
    TelekBattery: 0 %,
    RxShifting: 0
)
 (044.348376)  can0  421   [2]  00 00 ::
GretaData(
    TelekBattery: 0 %,
    RxShifting: 0
)
 (044.419202)  can0  421   [2]  00 00 ::
GretaData(
    TelekBattery: 0 %,
    RxShifting: 0
)
 (044.490035)  can0  421   [2]  00 00 ::
GretaData(
    TelekBattery: 0 %,
    RxShifting: 0
)
 (044.560880)  can0  421   [2]  00 00 ::
GretaData(
    TelekBattery: 0 %,
    RxShifting: 0
)
 (044.631702)  can0  421   [2]  00 00 ::
GretaData(
    TelekBattery: 0 %,
    RxShifting: 0
)
 (044.702539)  can0  421   [2]  00 00 ::
GretaData(
    TelekBattery: 0 %,
    RxShifting: 0
)
 (044.716706)  can0  460   [4]  01 00 00 00 ::
whereamiData(
    Speed: 0.01 km/h,
    Distance: 0 m
)
 (044.717022)  can0  462   [4]  01 00 00 00 ::
whereamiRawData(
    RawSpeed: 0.01 km/h,
    RawDistance: 0 m
)
 (044.717255)  can0  464   [8]  CE 80 AE 02 19 F5 73 00 ::
whereamiCoords(
    Latitude: 44.99067 °,
    Longitude: 7.599385 °
)
 (044.773396)  can0  421   [2]  00 00 ::
GretaData(
    TelekBattery: 0 %,
    RxShifting: 0
)
 (044.844212)  can0  421   [2]  00 00 ::
GretaData(
    TelekBattery: 0 %,
    RxShifting: 0
)
 (044.911560)  can0  422   [1]  00 ::
GbData(
    GbGear: 0
)
 (044.915036)  can0  421   [2]  00 00 ::
GretaData(
    TelekBattery: 0 %,
    RxShifting: 0
)
 (044.985873)  can0  421   [2]  00 00 ::
GretaData(
    TelekBattery: 0 %,
    RxShifting: 0
)
 (045.056724)  can0  421   [2]  00 00 ::
GretaData(
    TelekBattery: 0 %,
    RxShifting: 0
)
 (045.127531)  can0  421   [2]  00 00 ::
GretaData(
    TelekBattery: 0 %,
    RxShifting: 0
)
 (045.198369)  can0  421   [2]  00 00 ::
GretaData(
    TelekBattery: 0 %,
    RxShifting: 0
)
 (045.269210)  can0  421   [2]  00 00 ::
GretaData(
    TelekBattery: 0 %,
    RxShifting: 0
)
 (045.340043)  can0  421   [2]  00 00 ::
GretaData(
    TelekBattery: 0 %,
    RxShifting: 0
)
 (045.410858)  can0  421   [2]  00 00 ::
GretaData(
    TelekBattery: 0 %,
    RxShifting: 0
)
 (045.481688)  can0  421   [2]  00 00 ::
GretaData(
    TelekBattery: 0 %,
    RxShifting: 0
)
 (045.552541)  can0  421   [2]  00 00 ::
GretaData(
    TelekBattery: 0 %,
    RxShifting: 0
)
 (045.623355)  can0  421   [2]  00 00 ::
GretaData(
    TelekBattery: 0 %,
    RxShifting: 0
)
 (045.694190)  can0  421   [2]  00 00 ::
GretaData(
    TelekBattery: 0 %,
    RxShifting: 0
)
 (045.751507)  can0  460   [4]  0F 00 00 00 ::
whereamiData(
    Speed: 0.15 km/h,
    Distance: 0 m
)
 (045.751703)  can0  462   [4]  0F 00 00 00 ::
whereamiRawData(
    RawSpeed: 0.15 km/h,
    RawDistance: 0 m
)
 (045.751948)  can0  464   [8]  CD 80 AE 02 17 F5 73 00 ::
whereamiCoords(
    Latitude: 44.990669 °,
    Longitude: 7.5993829999999996 °
)
 (045.765043)  can0  421   [2]  00 00 ::
GretaData(
    TelekBattery: 0 %,
    RxShifting: 0
)
 (045.835869)  can0  421   [2]  00 00 ::
GretaData(
    TelekBattery: 0 %,
    RxShifting: 0
)
 (045.906712)  can0  421   [2]  00 00 ::
GretaData(
    TelekBattery: 0 %,
    RxShifting: 0
)
 (045.911576)  can0  422   [1]  00 ::
GbData(
    GbGear: 0
)
 (045.977553)  can0  421   [2]  00 00 ::
GretaData(
    TelekBattery: 0 %,
    RxShifting: 0
)
 (046.048420)  can0  421   [2]  00 00 ::
GretaData(
    TelekBattery: 0 %,
    RxShifting: 0
)
 (046.119235)  can0  421   [2]  00 00 ::
GretaData(
    TelekBattery: 0 %,
    RxShifting: 0
)
 (046.190070)  can0  421   [2]  00 00 ::
GretaData(
    TelekBattery: 0 %,
    RxShifting: 0
)
 (046.260915)  can0  421   [2]  00 00 ::
GretaData(
    TelekBattery: 0 %,
    RxShifting: 0
)
 (046.331742)  can0  421   [2]  00 00 ::
GretaData(
    TelekBattery: 0 %,
    RxShifting: 0
)
 (046.402576)  can0  421   [2]  00 00 ::
GretaData(
    TelekBattery: 0 %,
    RxShifting: 0
)
 (046.473415)  can0  421   [2]  00 00 ::
GretaData(
    TelekBattery: 0 %,
    RxShifting: 0
)
 (046.544278)  can0  421   [2]  00 00 ::
GretaData(
    TelekBattery: 0 %,
    RxShifting: 0
)
 (046.615098)  can0  421   [2]  00 00 ::
GretaData(
    TelekBattery: 0 %,
    RxShifting: 0
)
 (046.685079)  can0  460   [4]  0E 00 00 00 ::
whereamiData(
    Speed: 0.14 km/h,
    Distance: 0 m
)
 (046.685273)  can0  462   [4]  0E 00 00 00 ::
whereamiRawData(
    RawSpeed: 0.14 km/h,
    RawDistance: 0 m
)
 (046.685525)  can0  464   [8]  CD 80 AE 02 15 F5 73 00 ::
whereamiCoords(
    Latitude: 44.990669 °,
    Longitude: 7.599380999999999 °
)
 (046.685933)  can0  421   [2]  00 00 ::
GretaData(
    TelekBattery: 0 %,
    RxShifting: 0
)
 (046.756793)  can0  421   [2]  00 00 ::
GretaData(
    TelekBattery: 0 %,
    RxShifting: 0
)
 (046.827649)  can0  421   [2]  00 00 ::
GretaData(
    TelekBattery: 0 %,
    RxShifting: 0
)
 (046.898476)  can0  421   [2]  00 00 ::
GretaData(
    TelekBattery: 0 %,
    RxShifting: 0
)
 (046.911591)  can0  422   [1]  00 ::
GbData(
    GbGear: 0
)
 (046.969322)  can0  421   [2]  00 00 ::
GretaData(
    TelekBattery: 0 %,
    RxShifting: 0
)
 (047.040175)  can0  421   [2]  00 00 ::
GretaData(
    TelekBattery: 0 %,
    RxShifting: 0
)
 (047.111001)  can0  421   [2]  00 00 ::
GretaData(
    TelekBattery: 0 %,
    RxShifting: 0
)
 (047.181838)  can0  421   [2]  00 00 ::
GretaData(
    TelekBattery: 0 %,
    RxShifting: 0
)
 (047.252692)  can0  421   [2]  00 00 ::
GretaData(
    TelekBattery: 0 %,
    RxShifting: 0
)
 (047.323536)  can0  421   [2]  00 00 ::
GretaData(
    TelekBattery: 0 %,
    RxShifting: 0
)
 (047.394370)  can0  421   [2]  00 00 ::
GretaData(
    TelekBattery: 0 %,
    RxShifting: 0
)
 (047.465209)  can0  421   [2]  00 00 ::
GretaData(
    TelekBattery: 0 %,
    RxShifting: 0
)
 (047.536065)  can0  421   [2]  00 00 ::
GretaData(
    TelekBattery: 0 %,
    RxShifting: 0
)
 (047.606889)  can0  421   [2]  00 00 ::
GretaData(
    TelekBattery: 0 %,
    RxShifting: 0
)
 (047.677729)  can0  421   [2]  00 00 ::
GretaData(
    TelekBattery: 0 %,
    RxShifting: 0
)
 (047.722441)  can0  460   [4]  21 00 00 00 ::
whereamiData(
    Speed: 0.33 km/h,
    Distance: 0 m
)
 (047.722633)  can0  462   [4]  21 00 00 00 ::
whereamiRawData(
    RawSpeed: 0.33 km/h,
    RawDistance: 0 m
)
 (047.722876)  can0  464   [8]  CA 80 AE 02 15 F5 73 00 ::
whereamiCoords(
    Latitude: 44.990666 °,
    Longitude: 7.599380999999999 °
)
 (047.748581)  can0  421   [2]  00 00 ::
GretaData(
    TelekBattery: 0 %,
    RxShifting: 0
)
 (047.819434)  can0  421   [2]  00 00 ::
GretaData(
    TelekBattery: 0 %,
    RxShifting: 0
)
 (047.890265)  can0  421   [2]  00 00 ::
GretaData(
    TelekBattery: 0 %,
    RxShifting: 0
)
 (047.911602)  can0  422   [1]  00 ::
GbData(
    GbGear: 0
)
 (047.961116)  can0  421   [2]  00 00 ::
GretaData(
    TelekBattery: 0 %,
    RxShifting: 0
)
 (048.031975)  can0  421   [2]  00 00 ::
GretaData(
    TelekBattery: 0 %,
    RxShifting: 0
)
 (048.102797)  can0  421   [2]  00 00 ::
GretaData(
    TelekBattery: 0 %,
    RxShifting: 0
)
 (048.173630)  can0  421   [2]  00 00 ::
GretaData(
    TelekBattery: 0 %,
    RxShifting: 0
)
 (048.244484)  can0  421   [2]  00 00 ::
GretaData(
    TelekBattery: 0 %,
    RxShifting: 0
)
 (048.315325)  can0  421   [2]  00 00 ::
GretaData(
    TelekBattery: 0 %,
    RxShifting: 0
)
 (048.386148)  can0  421   [2]  00 00 ::
GretaData(
    TelekBattery: 0 %,
    RxShifting: 0
)
 (048.457010)  can0  421   [2]  00 00 ::
GretaData(
    TelekBattery: 0 %,
    RxShifting: 0
)
 (048.527854)  can0  421   [2]  00 00 ::
GretaData(
    TelekBattery: 0 %,
    RxShifting: 0
)
 (048.598680)  can0  421   [2]  00 00 ::
GretaData(
    TelekBattery: 0 %,
    RxShifting: 0
)
 (048.669517)  can0  421   [2]  00 00 ::
GretaData(
    TelekBattery: 0 %,
    RxShifting: 0
)
 (048.740357)  can0  421   [2]  00 00 ::
GretaData(
    TelekBattery: 0 %,
    RxShifting: 0
)
 (048.759523)  can0  460   [4]  0B 00 00 00 ::
whereamiData(
    Speed: 0.11 km/h,
    Distance: 0 m
)
 (048.759860)  can0  462   [4]  0B 00 00 00 ::
whereamiRawData(
    RawSpeed: 0.11 km/h,
    RawDistance: 0 m
)
 (048.760096)  can0  464   [8]  CA 80 AE 02 13 F5 73 00 ::
whereamiCoords(
    Latitude: 44.990666 °,
    Longitude: 7.599379 °
)
 (048.811205)  can0  421   [2]  00 00 ::
GretaData(
    TelekBattery: 0 %,
    RxShifting: 0
)
 (048.882030)  can0  421   [2]  00 00 ::
GretaData(
    TelekBattery: 0 %,
    RxShifting: 0
)
 (048.911617)  can0  422   [1]  00 ::
GbData(
    GbGear: 0
)
 (048.952873)  can0  421   [2]  00 00 ::
GretaData(
    TelekBattery: 0 %,
    RxShifting: 0
)
 (049.023744)  can0  421   [2]  00 00 ::
GretaData(
    TelekBattery: 0 %,
    RxShifting: 0
)
 (049.094561)  can0  421   [2]  00 00 ::
GretaData(
    TelekBattery: 0 %,
    RxShifting: 0
)
 (049.165404)  can0  421   [2]  00 00 ::
GretaData(
    TelekBattery: 0 %,
    RxShifting: 0
)
 (049.236241)  can0  421   [2]  00 00 ::
GretaData(
    TelekBattery: 0 %,
    RxShifting: 0
)
 (049.307102)  can0  421   [2]  00 00 ::
GretaData(
    TelekBattery: 0 %,
    RxShifting: 0
)
 (049.377923)  can0  421   [2]  00 00 ::
GretaData(
    TelekBattery: 0 %,
    RxShifting: 0
)
 (049.448759)  can0  421   [2]  00 00 ::
GretaData(
    TelekBattery: 0 %,
    RxShifting: 0
)
 (049.519614)  can0  421   [2]  00 00 ::
GretaData(
    TelekBattery: 0 %,
    RxShifting: 0
)
 (049.590440)  can0  421   [2]  00 00 ::
GretaData(
    TelekBattery: 0 %,
    RxShifting: 0
)
 (049.661272)  can0  421   [2]  00 00 ::
GretaData(
    TelekBattery: 0 %,
    RxShifting: 0
)
 (049.693188)  can0  460   [4]  18 00 00 00 ::
whereamiData(
    Speed: 0.24 km/h,
    Distance: 0 m
)
 (049.693377)  can0  462   [4]  18 00 00 00 ::
whereamiRawData(
    RawSpeed: 0.24 km/h,
    RawDistance: 0 m
)
 (049.693621)  can0  464   [8]  CA 80 AE 02 10 F5 73 00 ::
whereamiCoords(
    Latitude: 44.990666 °,
    Longitude: 7.5993759999999995 °
)
 (049.732109)  can0  421   [2]  00 00 ::
GretaData(
    TelekBattery: 0 %,
    RxShifting: 0
)
 (049.802967)  can0  421   [2]  00 00 ::
GretaData(
    TelekBattery: 0 %,
    RxShifting: 0
)
 (049.873784)  can0  421   [2]  00 00 ::
GretaData(
    TelekBattery: 0 %,
    RxShifting: 0
)
 (049.911633)  can0  422   [1]  00 ::
GbData(
    GbGear: 0
)
 (049.944622)  can0  421   [2]  00 00 ::
GretaData(
    TelekBattery: 0 %,
    RxShifting: 0
)
 (050.015477)  can0  421   [2]  00 00 ::
GretaData(
    TelekBattery: 0 %,
    RxShifting: 0
)
 (050.086315)  can0  421   [2]  00 00 ::
GretaData(
    TelekBattery: 0 %,
    RxShifting: 0
)
 (050.157137)  can0  421   [2]  00 00 ::
GretaData(
    TelekBattery: 0 %,
    RxShifting: 0
)
 (050.227970)  can0  421   [2]  00 00 ::
GretaData(
    TelekBattery: 0 %,
    RxShifting: 0
)
 (050.298824)  can0  421   [2]  00 00 ::
GretaData(
    TelekBattery: 0 %,
    RxShifting: 0
)
 (050.369639)  can0  421   [2]  00 00 ::
GretaData(
    TelekBattery: 0 %,
    RxShifting: 0
)
 (050.440473)  can0  421   [2]  00 00 ::
GretaData(
    TelekBattery: 0 %,
    RxShifting: 0
)
 (050.511318)  can0  421   [2]  00 00 ::
GretaData(
    TelekBattery: 0 %,
    RxShifting: 0
)
 (050.582134)  can0  421   [2]  00 00 ::
GretaData(
    TelekBattery: 0 %,
    RxShifting: 0
)
 (050.652959)  can0  421   [2]  00 00 ::
GretaData(
    TelekBattery: 0 %,
    RxShifting: 0
)
 (050.723793)  can0  421   [2]  00 00 ::
GretaData(
    TelekBattery: 0 %,
    RxShifting: 0
)
 (050.733578)  can0  460   [4]  1A 00 00 00 ::
whereamiData(
    Speed: 0.26 km/h,
    Distance: 0 m
)
 (050.733918)  can0  462   [4]  1A 00 00 00 ::
whereamiRawData(
    RawSpeed: 0.26 km/h,
    RawDistance: 0 m
)
 (050.734155)  can0  464   [8]  C8 80 AE 02 10 F5 73 00 ::
whereamiCoords(
    Latitude: 44.990663999999995 °,
    Longitude: 7.5993759999999995 °
)
 (050.794646)  can0  421   [2]  00 00 ::
GretaData(
    TelekBattery: 0 %,
    RxShifting: 0
)
 (050.865463)  can0  421   [2]  00 00 ::
GretaData(
    TelekBattery: 0 %,
    RxShifting: 0
)
 (050.911645)  can0  422   [1]  00 ::
GbData(
    GbGear: 0
)
 (050.936296)  can0  421   [2]  00 00 ::
GretaData(
    TelekBattery: 0 %,
    RxShifting: 0
)
 (051.007149)  can0  421   [2]  00 00 ::
GretaData(
    TelekBattery: 0 %,
    RxShifting: 0
)
 (051.077984)  can0  421   [2]  00 00 ::
GretaData(
    TelekBattery: 0 %,
    RxShifting: 0
)
 (051.148810)  can0  421   [2]  00 00 ::
GretaData(
    TelekBattery: 0 %,
    RxShifting: 0
)
 (051.219671)  can0  421   [2]  00 00 ::
GretaData(
    TelekBattery: 0 %,
    RxShifting: 0
)
 (051.290517)  can0  421   [2]  00 00 ::
GretaData(
    TelekBattery: 0 %,
    RxShifting: 0
)
 (051.361340)  can0  421   [2]  00 00 ::
GretaData(
    TelekBattery: 0 %,
    RxShifting: 0
)
 (051.432181)  can0  421   [2]  00 00 ::
GretaData(
    TelekBattery: 0 %,
    RxShifting: 0
)
 (051.503039)  can0  421   [2]  00 00 ::
GretaData(
    TelekBattery: 0 %,
    RxShifting: 0
)
 (051.573877)  can0  421   [2]  00 00 ::
GretaData(
    TelekBattery: 0 %,
    RxShifting: 0
)
 (051.644700)  can0  421   [2]  00 00 ::
GretaData(
    TelekBattery: 0 %,
    RxShifting: 0
)
 (051.715539)  can0  421   [2]  00 00 ::
GretaData(
    TelekBattery: 0 %,
    RxShifting: 0
)
 (051.773932)  can0  460   [4]  18 00 00 00 ::
whereamiData(
    Speed: 0.24 km/h,
    Distance: 0 m
)
 (051.774136)  can0  462   [4]  18 00 00 00 ::
whereamiRawData(
    RawSpeed: 0.24 km/h,
    RawDistance: 0 m
)
 (051.774328)  can0  464   [8]  C6 80 AE 02 0F F5 73 00 ::
whereamiCoords(
    Latitude: 44.990662 °,
    Longitude: 7.599374999999999 °
)
 (051.786376)  can0  421   [2]  00 00 ::
GretaData(
    TelekBattery: 0 %,
    RxShifting: 0
)
 (051.857227)  can0  421   [2]  00 00 ::
GretaData(
    TelekBattery: 0 %,
    RxShifting: 0
)
 (051.911664)  can0  422   [1]  00 ::
GbData(
    GbGear: 0
)
 (051.928055)  can0  421   [2]  00 00 ::
GretaData(
    TelekBattery: 0 %,
    RxShifting: 0
)
 (051.998903)  can0  421   [2]  00 00 ::
GretaData(
    TelekBattery: 0 %,
    RxShifting: 0
)
 (052.069734)  can0  421   [2]  00 00 ::
GretaData(
    TelekBattery: 0 %,
    RxShifting: 0
)
 (052.140552)  can0  421   [2]  00 00 ::
GretaData(
    TelekBattery: 0 %,
    RxShifting: 0
)
 (052.211371)  can0  421   [2]  00 00 ::
GretaData(
    TelekBattery: 0 %,
    RxShifting: 0
)
 (052.282218)  can0  421   [2]  00 00 ::
GretaData(
    TelekBattery: 0 %,
    RxShifting: 0
)
 (052.353036)  can0  421   [2]  00 00 ::
GretaData(
    TelekBattery: 0 %,
    RxShifting: 0
)
 (052.423871)  can0  421   [2]  00 00 ::
GretaData(
    TelekBattery: 0 %,
    RxShifting: 0
)
 (052.494710)  can0  421   [2]  00 00 ::
GretaData(
    TelekBattery: 0 %,
    RxShifting: 0
)
 (052.565559)  can0  421   [2]  00 00 ::
GretaData(
    TelekBattery: 0 %,
    RxShifting: 0
)
 (052.636370)  can0  421   [2]  00 00 ::
GretaData(
    TelekBattery: 0 %,
    RxShifting: 0
)
 (052.707197)  can0  421   [2]  00 00 ::
GretaData(
    TelekBattery: 0 %,
    RxShifting: 0
)
 (052.711982)  can0  460   [4]  12 00 00 00 ::
whereamiData(
    Speed: 0.18 km/h,
    Distance: 0 m
)
 (052.712309)  can0  462   [4]  12 00 00 00 ::
whereamiRawData(
    RawSpeed: 0.18 km/h,
    RawDistance: 0 m
)
 (052.712562)  can0  464   [8]  C5 80 AE 02 0D F5 73 00 ::
whereamiCoords(
    Latitude: 44.990660999999996 °,
    Longitude: 7.599373 °
)
 (052.778050)  can0  421   [2]  00 00 ::
GretaData(
    TelekBattery: 0 %,
    RxShifting: 0
)
 (052.848864)  can0  421   [2]  00 00 ::
GretaData(
    TelekBattery: 0 %,
    RxShifting: 0
)
 (052.911675)  can0  422   [1]  00 ::
GbData(
    GbGear: 0
)
 (052.919692)  can0  421   [2]  00 00 ::
GretaData(
    TelekBattery: 0 %,
    RxShifting: 0
)
 (052.990533)  can0  421   [2]  00 00 ::
GretaData(
    TelekBattery: 0 %,
    RxShifting: 0
)
 (053.061359)  can0  421   [2]  00 00 ::
GretaData(
    TelekBattery: 0 %,
    RxShifting: 0
)
 (053.132167)  can0  421   [2]  00 00 ::
GretaData(
    TelekBattery: 0 %,
    RxShifting: 0
)
 (053.202998)  can0  421   [2]  00 00 ::
GretaData(
    TelekBattery: 0 %,
    RxShifting: 0
)
 (053.273845)  can0  421   [2]  00 00 ::
GretaData(
    TelekBattery: 0 %,
    RxShifting: 0
)
 (053.344654)  can0  421   [2]  00 00 ::
GretaData(
    TelekBattery: 0 %,
    RxShifting: 0
)
 (053.415485)  can0  421   [2]  00 00 ::
GretaData(
    TelekBattery: 0 %,
    RxShifting: 0
)
 (053.486319)  can0  421   [2]  00 00 ::
GretaData(
    TelekBattery: 0 %,
    RxShifting: 0
)
 (053.557164)  can0  421   [2]  00 00 ::
GretaData(
    TelekBattery: 0 %,
    RxShifting: 0
)
 (053.627986)  can0  421   [2]  00 00 ::
GretaData(
    TelekBattery: 0 %,
    RxShifting: 0
)
 (053.698821)  can0  421   [2]  00 00 ::
GretaData(
    TelekBattery: 0 %,
    RxShifting: 0
)
 (053.753877)  can0  460   [4]  47 00 00 00 ::
whereamiData(
    Speed: 0.71 km/h,
    Distance: 0 m
)
 (053.754077)  can0  462   [4]  47 00 00 00 ::
whereamiRawData(
    RawSpeed: 0.71 km/h,
    RawDistance: 0 m
)
 (053.754266)  can0  464   [8]  C0 80 AE 02 12 F5 73 00 ::
whereamiCoords(
    Latitude: 44.990656 °,
    Longitude: 7.599378 °
)
 (053.769665)  can0  421   [2]  00 00 ::
GretaData(
    TelekBattery: 0 %,
    RxShifting: 0
)
 (053.840498)  can0  421   [2]  00 00 ::
GretaData(
    TelekBattery: 0 %,
    RxShifting: 0
)
 (053.911329)  can0  421   [2]  00 00 ::
GretaData(
    TelekBattery: 0 %,
    RxShifting: 0
)
 (053.911686)  can0  422   [1]  00 ::
GbData(
    GbGear: 0
)
 (053.982175)  can0  421   [2]  00 00 ::
GretaData(
    TelekBattery: 0 %,
    RxShifting: 0
)
 (054.053024)  can0  421   [2]  00 00 ::
GretaData(
    TelekBattery: 0 %,
    RxShifting: 0
)
 (054.123850)  can0  421   [2]  00 00 ::
GretaData(
    TelekBattery: 0 %,
    RxShifting: 0
)
 (054.194680)  can0  421   [2]  00 00 ::
GretaData(
    TelekBattery: 0 %,
    RxShifting: 0
)
 (054.265542)  can0  421   [2]  00 00 ::
GretaData(
    TelekBattery: 0 %,
    RxShifting: 0
)
 (054.336351)  can0  421   [2]  00 00 ::
GretaData(
    TelekBattery: 0 %,
    RxShifting: 0
)
 (054.407180)  can0  421   [2]  00 00 ::
GretaData(
    TelekBattery: 0 %,
    RxShifting: 0
)
 (054.478017)  can0  421   [2]  00 00 ::
GretaData(
    TelekBattery: 0 %,
    RxShifting: 0
)
 (054.548880)  can0  421   [2]  00 00 ::
GretaData(
    TelekBattery: 0 %,
    RxShifting: 0
)
 (054.619716)  can0  421   [2]  00 00 ::
GretaData(
    TelekBattery: 0 %,
    RxShifting: 0
)
 (054.690550)  can0  421   [2]  00 00 ::
GretaData(
    TelekBattery: 0 %,
    RxShifting: 0
)
 (054.695487)  can0  460   [4]  0C 00 00 00 ::
whereamiData(
    Speed: 0.12 km/h,
    Distance: 0 m
)
 (054.695724)  can0  462   [4]  0C 00 00 00 ::
whereamiRawData(
    RawSpeed: 0.12 km/h,
    RawDistance: 0 m
)
 (054.695957)  can0  464   [8]  C0 80 AE 02 13 F5 73 00 ::
whereamiCoords(
    Latitude: 44.990656 °,
    Longitude: 7.599379 °
)
 (054.761418)  can0  421   [2]  00 00 ::
GretaData(
    TelekBattery: 0 %,
    RxShifting: 0
)
 (054.832262)  can0  421   [2]  00 00 ::
GretaData(
    TelekBattery: 0 %,
    RxShifting: 0
)
 (054.903086)  can0  421   [2]  00 00 ::
GretaData(
    TelekBattery: 0 %,
    RxShifting: 0
)
 (054.911701)  can0  422   [1]  00 ::
GbData(
    GbGear: 0
)
 (054.973931)  can0  421   [2]  00 00 ::
GretaData(
    TelekBattery: 0 %,
    RxShifting: 0
)
 (055.044781)  can0  421   [2]  00 00 ::
GretaData(
    TelekBattery: 0 %,
    RxShifting: 0
)
 (055.115603)  can0  421   [2]  00 00 ::
GretaData(
    TelekBattery: 0 %,
    RxShifting: 0
)
 (055.186429)  can0  421   [2]  00 00 ::
GretaData(
    TelekBattery: 0 %,
    RxShifting: 0
)
 (055.257268)  can0  421   [2]  00 00 ::
GretaData(
    TelekBattery: 0 %,
    RxShifting: 0
)
 (055.328082)  can0  421   [2]  00 00 ::
GretaData(
    TelekBattery: 0 %,
    RxShifting: 0
)
 (055.398925)  can0  421   [2]  00 00 ::
GretaData(
    TelekBattery: 0 %,
    RxShifting: 0
)
 (055.469762)  can0  421   [2]  00 00 ::
GretaData(
    TelekBattery: 0 %,
    RxShifting: 0
)
 (055.540612)  can0  421   [2]  00 00 ::
GretaData(
    TelekBattery: 0 %,
    RxShifting: 0
)
 (055.611437)  can0  421   [2]  00 00 ::
GretaData(
    TelekBattery: 0 %,
    RxShifting: 0
)
 (055.682264)  can0  421   [2]  00 00 ::
GretaData(
    TelekBattery: 0 %,
    RxShifting: 0
)
 (055.737800)  can0  460   [4]  14 00 00 00 ::
whereamiData(
    Speed: 0.2 km/h,
    Distance: 0 m
)
 (055.738133)  can0  462   [4]  14 00 00 00 ::
whereamiRawData(
    RawSpeed: 0.2 km/h,
    RawDistance: 0 m
)
 (055.738381)  can0  464   [8]  C2 80 AE 02 16 F5 73 00 ::
whereamiCoords(
    Latitude: 44.990657999999996 °,
    Longitude: 7.599381999999999 °
)
 (055.753094)  can0  421   [2]  00 00 ::
GretaData(
    TelekBattery: 0 %,
    RxShifting: 0
)
 (055.823941)  can0  421   [2]  00 00 ::
GretaData(
    TelekBattery: 0 %,
    RxShifting: 0
)
 (055.894763)  can0  421   [2]  00 00 ::
GretaData(
    TelekBattery: 0 %,
    RxShifting: 0
)
 (055.911715)  can0  422   [1]  00 ::
GbData(
    GbGear: 0
)
 (055.965596)  can0  421   [2]  00 00 ::
GretaData(
    TelekBattery: 0 %,
    RxShifting: 0
)
 (056.036453)  can0  421   [2]  00 00 ::
GretaData(
    TelekBattery: 0 %,
    RxShifting: 0
)
 (056.107275)  can0  421   [2]  00 00 ::
GretaData(
    TelekBattery: 0 %,
    RxShifting: 0
)
 (056.178110)  can0  421   [2]  00 00 ::
GretaData(
    TelekBattery: 0 %,
    RxShifting: 0
)
 (056.248969)  can0  421   [2]  00 00 ::
GretaData(
    TelekBattery: 0 %,
    RxShifting: 0
)
 (056.319807)  can0  421   [2]  00 00 ::
GretaData(
    TelekBattery: 0 %,
    RxShifting: 0
)
 (056.390639)  can0  421   [2]  00 00 ::
GretaData(
    TelekBattery: 0 %,
    RxShifting: 0
)
 (056.461474)  can0  421   [2]  00 00 ::
GretaData(
    TelekBattery: 0 %,
    RxShifting: 0
)
 (056.532331)  can0  421   [2]  00 00 ::
GretaData(
    TelekBattery: 0 %,
    RxShifting: 0
)
 (056.603160)  can0  421   [2]  00 00 ::
GretaData(
    TelekBattery: 0 %,
    RxShifting: 0
)
 (056.674000)  can0  421   [2]  00 00 ::
GretaData(
    TelekBattery: 0 %,
    RxShifting: 0
)
 (056.744861)  can0  421   [2]  00 00 ::
GretaData(
    TelekBattery: 0 %,
    RxShifting: 0
)
 (056.780739)  can0  460   [4]  11 00 00 00 ::
whereamiData(
    Speed: 0.17 km/h,
    Distance: 0 m
)
 (056.780936)  can0  462   [4]  11 00 00 00 ::
whereamiRawData(
    RawSpeed: 0.17 km/h,
    RawDistance: 0 m
)
 (056.781422)  can0  464   [8]  C1 80 AE 02 18 F5 73 00 ::
whereamiCoords(
    Latitude: 44.990657 °,
    Longitude: 7.599384 °
)
 (056.815697)  can0  421   [2]  00 00 ::
GretaData(
    TelekBattery: 0 %,
    RxShifting: 0
)
 (056.886534)  can0  421   [2]  00 00 ::
GretaData(
    TelekBattery: 0 %,
    RxShifting: 0
)
 (056.911734)  can0  422   [1]  00 ::
GbData(
    GbGear: 0
)
 (056.957380)  can0  421   [2]  00 00 ::
GretaData(
    TelekBattery: 0 %,
    RxShifting: 0
)
 (057.028246)  can0  421   [2]  00 00 ::
GretaData(
    TelekBattery: 0 %,
    RxShifting: 0
)
 (057.099080)  can0  421   [2]  00 00 ::
GretaData(
    TelekBattery: 0 %,
    RxShifting: 0
)
 (057.169930)  can0  421   [2]  00 00 ::
GretaData(
    TelekBattery: 0 %,
    RxShifting: 0
)
 (057.240759)  can0  421   [2]  00 00 ::
GretaData(
    TelekBattery: 0 %,
    RxShifting: 0
)
 (057.311591)  can0  421   [2]  00 00 ::
GretaData(
    TelekBattery: 0 %,
    RxShifting: 0
)
 (057.382427)  can0  421   [2]  00 00 ::
GretaData(
    TelekBattery: 0 %,
    RxShifting: 0
)
 (057.453265)  can0  421   [2]  00 00 ::
GretaData(
    TelekBattery: 0 %,
    RxShifting: 0
)
 (057.524123)  can0  421   [2]  00 00 ::
GretaData(
    TelekBattery: 0 %,
    RxShifting: 0
)
 (057.594948)  can0  421   [2]  00 00 ::
GretaData(
    TelekBattery: 0 %,
    RxShifting: 0
)
 (057.665791)  can0  421   [2]  00 00 ::
GretaData(
    TelekBattery: 0 %,
    RxShifting: 0
)
 (057.721599)  can0  460   [4]  0D 00 00 00 ::
whereamiData(
    Speed: 0.13 km/h,
    Distance: 0 m
)
 (057.721962)  can0  462   [4]  0D 00 00 00 ::
whereamiRawData(
    RawSpeed: 0.13 km/h,
    RawDistance: 0 m
)
 (057.722193)  can0  464   [8]  C2 80 AE 02 19 F5 73 00 ::
whereamiCoords(
    Latitude: 44.990657999999996 °,
    Longitude: 7.599385 °
)
 (057.736634)  can0  421   [2]  00 00 ::
GretaData(
    TelekBattery: 0 %,
    RxShifting: 0
)
 (057.807481)  can0  421   [2]  00 00 ::
GretaData(
    TelekBattery: 0 %,
    RxShifting: 0
)
 (057.878309)  can0  421   [2]  00 00 ::
GretaData(
    TelekBattery: 0 %,
    RxShifting: 0
)
 (057.911747)  can0  422   [1]  00 ::
GbData(
    GbGear: 0
)
 (057.949145)  can0  421   [2]  00 00 ::
GretaData(
    TelekBattery: 0 %,
    RxShifting: 0
)
 (058.020005)  can0  421   [2]  00 00 ::
GretaData(
    TelekBattery: 0 %,
    RxShifting: 0
)
 (058.090822)  can0  421   [2]  00 00 ::
GretaData(
    TelekBattery: 0 %,
    RxShifting: 0
)
 (058.161666)  can0  421   [2]  00 00 ::
GretaData(
